(1646679326.121279) can1 0C7#00025D35
(1646679326.121520) can1 0F9#0000400000000AFF
(1646679326.121751) can1 199#4FFF0B82F47D00FF
(1646679326.128244) can1 1E1#00FD130060
(1646679326.128259) can1 0F1#34850040
(1646679326.128266) can1 1F1#AE0E000008000078
(1646679326.128739) can1 0C9#8409520000400800
(1646679326.128752) can1 191#06CB06CB06CB0000
(1646679326.129824) can1 1A1#00100140000000
(1646679326.129832) can1 1C3#06CB06BB00000000
(1646679326.129844) can1 1ED#4190016D014873F9
(1646679326.129851) can1 1EF#00000217
(1646679326.129858) can1 2C3#095106A00753
(1646679326.130078) can1 2D1#000000000000
(1646679326.130809) can1 2D3#0303
(1646679326.130819) can1 3C1#0765480000000000
(1646679326.130826) can1 3D1#0112800000450000
(1646679326.133893) can1 0C7#00025D35
(1646679326.134123) can1 0F9#0000400000000AFF
(1646679326.134351) can1 199#8FFF0B82F47C00FF
(1646679326.134849) can1 3E9#0000000080004000
(1646679326.140876) can1 0C9#8409610700400800
(1646679326.141105) can1 191#06CA06CA06CB0000
(1646679326.141462) can1 1ED#4190016D015873F9
(1646679326.141690) can1 1EF#00000217
(1646679326.141918) can1 19D#C0003FFD000920FF
(1646679326.142146) can1 1AF#000000
(1646679326.142373) can1 1F5#0F0F000100000800
(1646679326.146275) can1 0C7#00025D35
(1646679326.146504) can1 0F9#0000400000000AFF
(1646679326.146732) can1 199#CFFF0B82F47B00FF
(1646679326.153384) can1 0C9#8409610A00400800
(1646679326.153613) can1 191#06CA06CA06CA0000
(1646679326.153894) can1 1A1#00100140000000
(1646679326.154123) can1 1C3#06CA06B900000000
(1646679326.154404) can1 1ED#4190016D015873F9
(1646679326.154631) can1 1EF#00000217
(1646679326.157983) can1 1E1#0000100000
(1646679326.158212) can1 0F1#00850040
(1646679326.158440) can1 1F1#AE0E000008000078
(1646679326.158823) can1 0C7#00025D35
(1646679326.159051) can1 0F9#0000400000000AFF
(1646679326.159279) can1 199#0FFF0B82F47E00FF
(1646679326.165878) can1 0C9#8409600D00400800
(1646679326.166106) can1 191#06C906C906CA0000
(1646679326.166403) can1 1ED#4190016B014873F9
(1646679326.166631) can1 1EF#00000214
(1646679326.166859) can1 19D#00000000000928FF
(1646679326.167088) can1 1AF#000000
(1646679326.167315) can1 1F5#0F0F000100000800
(1646679326.171266) can1 0C7#00025D35
(1646679326.171494) can1 0F9#0000400000000AFF
(1646679326.171775) can1 199#4FFF0B82F47D00FF
(1646679326.178382) can1 0C9#8409600000400800
(1646679326.178611) can1 191#06C906C906C90000
(1646679326.178892) can1 1A1#00100140000000
(1646679326.179119) can1 1C3#06C906B600000000
(1646679326.179400) can1 1ED#4190016C015873F9
(1646679326.179629) can1 1EF#00000214
(1646679326.179857) can1 2C3#095306A00753
(1646679326.180102) can1 2D1#000000000000
(1646679326.180330) can1 2D3#0303
(1646679326.183857) can1 0C7#00025D35
(1646679326.184085) can1 0F9#0000400000000AFF
(1646679326.184312) can1 199#8FFF0B82F47C00FF
(1646679326.184724) can1 3F9#041330005506002A
(1646679326.184953) can1 3FB#0208
(1646679326.190502) can1 1E1#00FF110020
(1646679326.190730) can1 0F1#1C850040
(1646679326.190958) can1 1F1#AE0E000008000078
(1646679326.191186) can1 0C9#8409650700400800
(1646679326.191414) can1 191#06C806C806C90000
(1646679326.191641) can1 1ED#4190016C014873F9
(1646679326.191869) can1 19D#40003FFF00093EFF
(1646679326.192097) can1 1EF#00000214
(1646679326.192325) can1 1AF#000000
(1646679326.192552) can1 1F5#0F0F000100000800
(1646679326.196338) can1 0C7#00025D35
(1646679326.196568) can1 0F9#0000400000000AFF
(1646679326.196795) can1 199#CFFF0B82F47B00FF
(1646679326.203381) can1 0C9#8409650A00400800
(1646679326.203609) can1 191#06C806C806C80000
(1646679326.203890) can1 1A1#00100140000000
(1646679326.204117) can1 1C3#06C806B600000000
(1646679326.204398) can1 1ED#4190016E014873F9
(1646679326.204626) can1 1EF#00000214
(1646679326.208852) can1 0C7#00025D35
(1646679326.209081) can1 0F9#0000400000000AFF
(1646679326.209309) can1 199#0FFF0B82F47E00FF
(1646679326.216353) can1 0C9#8409750D00400800
(1646679326.216581) can1 191#06C806C806C80000
(1646679326.216809) can1 19D#80003FFE000925FF
(1646679326.217037) can1 1ED#4190016E015873F9
(1646679326.217265) can1 1AF#000000
(1646679326.217493) can1 1EF#00000216
(1646679326.217720) can1 1F5#0F0F000100000800
(1646679326.221297) can1 0C7#00025D35
(1646679326.221525) can1 0F9#0000400000000AFF
(1646679326.221755) can1 199#4FFF0B82F47D00FF
(1646679326.223030) can1 1E1#00FE120040
(1646679326.223258) can1 0F1#28850040
(1646679326.223486) can1 1F1#AE0E000008000078
(1646679326.228423) can1 0C9#8409750000400800
(1646679326.228652) can1 191#06C806C806C80000
(1646679326.228933) can1 1A1#00100140000000
(1646679326.229160) can1 1C3#06C806B500000000
(1646679326.229442) can1 1ED#41900172015873F9
(1646679326.229670) can1 1EF#00000216
(1646679326.229905) can1 2C3#095306A00752
(1646679326.230120) can1 2D1#000000000000
(1646679326.230335) can1 2D3#0303
(1646679326.230544) can1 3C1#0765480000000000
(1646679326.230753) can1 3D1#0112800000450000
(1646679326.233888) can1 0C7#00025D35
(1646679326.234117) can1 0F9#0000400000000AFF
(1646679326.234345) can1 199#8FFF0B82F47C00FF
(1646679326.234725) can1 3E9#0000000080004000
(1646679326.241282) can1 0C9#84098F0700400800
(1646679326.241513) can1 191#06C606C606C80000
(1646679326.241794) can1 1ED#41900172015873F9
(1646679326.242022) can1 19D#C0003FFD000946FF
(1646679326.242250) can1 1EF#0000021B
(1646679326.242478) can1 1AF#000000
(1646679326.242705) can1 1F5#0F0F000100000800
(1646679326.246318) can1 0C7#00025D35
(1646679326.246546) can1 0F9#0000400000000AFF
(1646679326.246774) can1 199#CFFF0B82F47B00FF
(1646679326.253380) can1 0C9#84098F0A00400800
(1646679326.253608) can1 191#06C606C606C60000
(1646679326.253889) can1 1A1#00100140000000
(1646679326.254117) can1 1C3#06C606B200000000
(1646679326.254397) can1 1ED#41900171015873F9
(1646679326.254625) can1 1EF#0000021B
(1646679326.255619) can1 1E1#00FD130060
(1646679326.255847) can1 0F1#34850040
(1646679326.256075) can1 1F1#AE0E000008000078
(1646679326.256303) can1 1F3#4060
(1646679326.258928) can1 0C7#00025D35
(1646679326.259158) can1 0F9#0000400000000AFF
(1646679326.259386) can1 199#0FFF0B82F47E00FF
(1646679326.266195) can1 0C9#8409890D00400800
(1646679326.266423) can1 191#06C306C306C60000
(1646679326.266705) can1 1ED#41900171015873F9
(1646679326.266932) can1 19D#0000000000094EFF
(1646679326.267160) can1 1EF#0000021D
(1646679326.267387) can1 1AF#000000
(1646679326.267616) can1 1F5#0F0F000100000800
(1646679326.271300) can1 0C7#00025D35
(1646679326.271529) can1 0F9#0000400000000AFF
(1646679326.271757) can1 199#4FFF0B82F47D00FF
(1646679326.278380) can1 0C9#8409890000400800
(1646679326.278608) can1 191#06C306C306C30000
(1646679326.278889) can1 1A1#00100140000000
(1646679326.279117) can1 1C3#06C306AD00000000
(1646679326.279398) can1 1ED#4190016C014873F9
(1646679326.279626) can1 1EF#0000021D
(1646679326.279854) can1 2C3#095706A00751
(1646679326.280120) can1 2D1#000000000000
(1646679326.280226) can1 2D3#0303
(1646679326.283876) can1 0C7#00025D35
(1646679326.284104) can1 0F9#0000400000000AFF
(1646679326.284332) can1 199#8FFF0B82F47C00FF
(1646679326.288074) can1 1E1#0000100000
(1646679326.288302) can1 0F1#00850040
(1646679326.288530) can1 1F1#AE0E000008000078
(1646679326.291430) can1 0C9#8409660700400800
(1646679326.291658) can1 191#06C306C306C30000
(1646679326.291886) can1 19D#40003FFF000955FF
(1646679326.292168) can1 1ED#4190016C014873F9
(1646679326.292395) can1 1AF#000000
(1646679326.292623) can1 1EF#0000021D
(1646679326.292851) can1 1F5#0F0F000100000800
(1646679326.296367) can1 0C7#00025D35
(1646679326.296596) can1 0F9#0000400000000AFF
(1646679326.296837) can1 199#CFFF0B82F47B00FF
(1646679326.303401) can1 0C9#8409660A00400800
(1646679326.303629) can1 191#06C306C306C30000
(1646679326.303909) can1 1A1#00100140000000
(1646679326.304139) can1 1C3#06C306AE00000000
(1646679326.304420) can1 1ED#41900165014073F9
(1646679326.304648) can1 1EF#0000021D
(1646679326.308860) can1 0C7#00025D35
(1646679326.309088) can1 0F9#0000400000000AFF
(1646679326.309315) can1 199#0FFF0B82F47E00FF
(1646679326.315901) can1 0C9#8409370D00400800
(1646679326.316129) can1 191#06C706C706C30000
(1646679326.316425) can1 1ED#41900167014073F9
(1646679326.316653) can1 1EF#0000021D
(1646679326.316882) can1 19D#80003FFE00094FFF
(1646679326.317110) can1 1AF#000000
(1646679326.317337) can1 1F5#0F0F000100000800
(1646679326.320816) can1 1E1#00FF110020
(1646679326.320824) can1 0F1#1C850040
(1646679326.321035) can1 1F1#AE0E000008000078
(1646679326.321551) can1 0C7#00025D35
(1646679326.321560) can1 0F9#0000400000000AFF
(1646679326.328169) can1 199#4FFF0B82F47D00FF
(1646679326.328357) can1 0C9#8409370000400800
(1646679326.328688) can1 191#06C706C706C70000
(1646679326.328871) can1 1A1#00100140000000
(1646679326.329096) can1 1C3#06C706B400000000
(1646679326.329538) can1 1ED#41900162013873F9
(1646679326.329547) can1 1EF#0000021D
(1646679326.329758) can1 2C3#095306A00750
(1646679326.330178) can1 2D1#000000000000
(1646679326.330187) can1 2D3#0303
(1646679326.330398) can1 3C1#0765480000000000
(1646679326.330613) can1 3D1#0112800000450000
(1646679326.333904) can1 0C7#00025D35
(1646679326.334132) can1 0F9#0000400000000AFF
(1646679326.334359) can1 199#8FFF0B82F47C00FF
(1646679326.334909) can1 3E9#0000000080004000
(1646679326.340884) can1 0C9#8409180700400800
(1646679326.341112) can1 191#06CC06CC06C70000
(1646679326.341392) can1 1ED#41900164014073F9
(1646679326.341620) can1 1EF#00000218
(1646679326.341847) can1 19D#C0003FFD000945FF
(1646679326.342075) can1 1AF#000000
(1646679326.342304) can1 1F5#0F0F000100000800
(1646679326.346329) can1 0C7#00025D35
(1646679326.346557) can1 0F9#0000400000000AFF
(1646679326.346784) can1 199#CFFF0B82F47B00FF
(1646679326.353266) can1 1E1#00FE120040
(1646679326.353493) can1 0C9#8409180A00400800
(1646679326.353721) can1 0F1#28850040
(1646679326.353948) can1 191#06CC06CC06CC0000
(1646679326.354175) can1 1F3#80A0
(1646679326.354423) can1 1A1#00100140000000
(1646679326.354525) can1 4E9#8120
(1646679326.354753) can1 1C3#06CC06BC00000000
(1646679326.354981) can1 1F1#AE0E000008000078
(1646679326.355208) can1 1ED#41900168014073F9
(1646679326.355435) can1 1EF#00000218
(1646679326.358987) can1 0C7#00025D35
(1646679326.359215) can1 0F9#0000400000000AFF
(1646679326.359442) can1 199#0FFF0B82F47E00FF
(1646679326.365846) can1 0C9#8409300D00400800
(1646679326.366074) can1 191#06D006D006CC0000
(1646679326.366356) can1 1ED#41900168014873F9
(1646679326.366584) can1 1EF#00000218
(1646679326.366946) can1 19D#00000000000942FF
(1646679326.367174) can1 1AF#000000
(1646679326.367402) can1 1F5#0F0F000100000800
(1646679326.371328) can1 0C7#00025D35
(1646679326.371557) can1 0F9#0000400000000AFF
(1646679326.371784) can1 199#4FFF0B82F47D00FF
(1646679326.378386) can1 0C9#8409300000400800
(1646679326.378614) can1 191#06D006D006D00000
(1646679326.378895) can1 1A1#00100140000000
(1646679326.379122) can1 1C3#06D006C200000000
(1646679326.379403) can1 1ED#4190016A014873F9
(1646679326.379630) can1 1EF#00000218
(1646679326.379858) can1 2C3#094D06A00754
(1646679326.380102) can1 2D1#000000000000
(1646679326.380330) can1 2D3#0303
(1646679326.383894) can1 0C7#00025D35
(1646679326.384123) can1 0F9#0000400000000AFF
(1646679326.384350) can1 199#8FFF0B82F47C00FF
(1646679326.385647) can1 1E1#00FD130060
(1646679326.385875) can1 0F1#34850040
(1646679326.386102) can1 1F1#AE0E000008000078
(1646679326.390924) can1 0C9#84093B0700400800
(1646679326.391151) can1 191#06CF06CF06D00000
(1646679326.391432) can1 1ED#4190016A015873F9
(1646679326.391659) can1 1EF#00000218
(1646679326.391886) can1 19D#40003FFF00091EFF
(1646679326.392114) can1 1AF#000000
(1646679326.392341) can1 1F5#0F0F000100000800
(1646679326.396329) can1 0C7#00025D35
(1646679326.396557) can1 0F9#0000400000000AFF
(1646679326.399903) can1 199#CFFF0B82F47B00FF
(1646679326.403453) can1 0C9#84093B0A00400800
(1646679326.403681) can1 191#06CF06CF06CF0000
(1646679326.403962) can1 1A1#00100140000000
(1646679326.404190) can1 1C3#06CF06BF00000000
(1646679326.404470) can1 1ED#4190016D015873F9
(1646679326.404698) can1 1EF#00000218
(1646679326.408881) can1 0C7#00025D35
(1646679326.409110) can1 0F9#0000400000000AFF
(1646679326.409338) can1 199#0FFF0B82F47E00FF
(1646679326.415844) can1 0C9#84094F0D00400800
(1646679326.416072) can1 191#06CE06CE06CF0000
(1646679326.416352) can1 1ED#4190016D015873F9
(1646679326.416580) can1 1EF#00000219
(1646679326.416807) can1 19D#80003FFE000927FF
(1646679326.417035) can1 1AF#000000
(1646679326.417262) can1 1F5#0F0F000100000800
(1646679326.418175) can1 1E1#0000100000
(1646679326.418403) can1 0F1#00850040
(1646679326.418630) can1 1F1#AE0E000008000078
(1646679326.421382) can1 0C7#00025D35
(1646679326.421610) can1 0F9#0000400000000AFF
(1646679326.421838) can1 199#4FFF0B82F47D00FF
(1646679326.428348) can1 0C9#84094F0000400800
(1646679326.428576) can1 191#06CE06CE06CE0000
(1646679326.428856) can1 1A1#00100140000000
(1646679326.429084) can1 1C3#06CE06BD00000000
(1646679326.429364) can1 1ED#4190016E015873F9
(1646679326.429593) can1 1EF#00000219
(1646679326.429821) can1 2C3#095106A00754
(1646679326.430086) can1 2D1#000000000000
(1646679326.430190) can1 2D3#0303
(1646679326.430417) can1 3C1#0765480000000000
(1646679326.430645) can1 3D1#0112800000450000
(1646679326.433911) can1 0C7#00025D35
(1646679326.434138) can1 0F9#0000400000000AFF
(1646679326.434366) can1 199#8FFF0B82F47C00FF
(1646679326.435637) can1 3E9#0000000080004000
(1646679326.435865) can1 3F9#041335005506002A
(1646679326.436093) can1 3FB#0208
(1646679326.436373) can1 4C1#00BF876267000000
(1646679326.436601) can1 4D1#08002F031E4000BB
(1646679326.436882) can1 4F1#022E022E00F400BB
(1646679326.437110) can1 772#00000000000000
(1646679326.440849) can1 0C9#8409590700400800
(1646679326.441077) can1 191#06CC06CC06CE0000
(1646679326.441358) can1 1ED#4190016E015873F9
(1646679326.441586) can1 1EF#0000021A
(1646679326.441997) can1 19D#C0003FFD000927FF
(1646679326.442225) can1 1AF#000000
(1646679326.442453) can1 1F5#0F0F000100000800
(1646679326.446342) can1 0C7#00025D35
(1646679326.446570) can1 0F9#0000400000000AFF
(1646679326.446797) can1 199#CFFF0B82F47B00FF
(1646679326.450767) can1 1E1#00FF110020
(1646679326.450995) can1 0F1#1C850040
(1646679326.451223) can1 1F1#AE0E000008000078
(1646679326.451450) can1 1F3#C0E0
(1646679326.453556) can1 0C9#8409590A00400800
(1646679326.453784) can1 191#06CC06CC06CC0000
(1646679326.454064) can1 1A1#00100140000000
(1646679326.454292) can1 1C3#06CC06B900000000
(1646679326.454572) can1 1ED#41900170015873F9
(1646679326.454800) can1 1EF#0000021A
(1646679326.459001) can1 0C7#00025D35
(1646679326.459229) can1 0F9#0000400000000AFF
(1646679326.459456) can1 199#0FFF0B82F47E00FF
(1646679326.465847) can1 0C9#8409600D00400800
(1646679326.466076) can1 191#06CB06CB06CC0000
(1646679326.466356) can1 1ED#4190016D014873F9
(1646679326.466584) can1 1EF#00000214
(1646679326.466981) can1 19D#0000000000092CFF
(1646679326.467209) can1 1AF#000000
(1646679326.467436) can1 1F5#0F0F000100000800
(1646679326.471341) can1 0C7#00025D35
(1646679326.471568) can1 0F9#0000400000000AFF
(1646679326.471848) can1 199#4FFF0B82F47D00FF
(1646679326.478382) can1 0C9#8409600000400800
(1646679326.478611) can1 191#06CB06CB06CB0000
(1646679326.478891) can1 1A1#00100140000000
(1646679326.479119) can1 1C3#06CB06B700000000
(1646679326.479400) can1 1ED#4190016D014873F9
(1646679326.479628) can1 1EF#00000214
(1646679326.479855) can1 2C3#095406A00753
(1646679326.480100) can1 2D1#000000000000
(1646679326.480328) can1 2D3#0303
(1646679326.483216) can1 1E1#00FE120040
(1646679326.483444) can1 0F1#28850040
(1646679326.483673) can1 1F1#AE0E000008000078
(1646679326.483900) can1 0C7#00025D35
(1646679326.484181) can1 0F9#0000400000000AFF
(1646679326.484408) can1 199#8FFF0B82F47C00FF
(1646679326.490844) can1 0C9#84095D0700400800
(1646679326.491073) can1 191#06CA06CA06CB0000
(1646679326.491353) can1 1ED#4190016F014873F9
(1646679326.491581) can1 1EF#00000216
(1646679326.491961) can1 19D#40003FFF000921FF
(1646679326.492189) can1 1AF#000000
(1646679326.492416) can1 1F5#0F0F000100000800
(1646679326.496310) can1 0C7#00025D35
(1646679326.496538) can1 0F9#0000400000000AFF
(1646679326.496766) can1 199#CFFF0B82F47B00FF
(1646679326.503458) can1 0C9#84095D0A00400800
(1646679326.503686) can1 191#06CA06CA06CA0000
(1646679326.503966) can1 1A1#00100140000000
(1646679326.504194) can1 1C3#06CA06B600000000
(1646679326.504474) can1 1ED#41900170014873F9
(1646679326.504702) can1 1EF#00000216
(1646679326.508895) can1 0C7#00025D35
(1646679326.509122) can1 0F9#0000400000000AFF
(1646679326.509350) can1 199#0FFF0B82F47E00FF
(1646679326.515738) can1 1E1#00FD130060
(1646679326.515966) can1 0C9#8409630D00400800
(1646679326.516193) can1 0F1#34850040
(1646679326.516421) can1 191#06CA06CA06CA0000
(1646679326.516649) can1 1F1#AE0E000008000078
(1646679326.516876) can1 19D#80003FFE000935FF
(1646679326.517104) can1 1ED#41900170014873F9
(1646679326.517352) can1 1AF#000000
(1646679326.517455) can1 1EF#0000021B
(1646679326.517682) can1 1F5#0F0F000100000800
(1646679326.521390) can1 0C7#00025D35
(1646679326.521619) can1 0F9#0000400000000AFF
(1646679326.521846) can1 199#4FFF0B82F47D00FF
(1646679326.528345) can1 0C9#8409630000400800
(1646679326.528573) can1 191#06CA06CA06CA0000
(1646679326.528854) can1 1A1#00100140000000
(1646679326.529081) can1 1C3#06CA06B600000000
(1646679326.529363) can1 1ED#4190016F014873F9
(1646679326.529591) can1 1EF#0000021B
(1646679326.529818) can1 2C3#095406A00752
(1646679326.530060) can1 2D1#000000000000
(1646679326.530287) can1 2D3#0303
(1646679326.530515) can1 3C1#0765480000000000
(1646679326.530742) can1 3D1#0112800000460000
(1646679326.533918) can1 0C7#00025D35
(1646679326.534146) can1 0F9#0000400000000AFF
(1646679326.534373) can1 199#8FFF0B82F47C00FF
(1646679326.535638) can1 3E9#0000000080004000
(1646679326.540849) can1 0C9#84095D0700400800
(1646679326.541077) can1 191#06C906C906CA0000
(1646679326.541358) can1 1ED#4190016F014873F9
(1646679326.541585) can1 1EF#0000021E
(1646679326.541913) can1 19D#C0003FFD000924FF
(1646679326.542141) can1 1AF#000000
(1646679326.542369) can1 1F5#0F0F000100000800
(1646679326.546350) can1 0C7#00025D35
(1646679326.546579) can1 0F9#0000400000000AFF
(1646679326.546861) can1 199#CFFF0B82F47B00FF
(1646679326.548336) can1 1E1#0000100000
(1646679326.548564) can1 0F1#00850040
(1646679326.548792) can1 1F1#AE0E000008000078
(1646679326.549019) can1 1F3#0020
(1646679326.553553) can1 0C9#84095D0A00400800
(1646679326.553781) can1 191#06C906C906C90000
(1646679326.554062) can1 1A1#00100140000000
(1646679326.554290) can1 1C3#06C906B500000000
(1646679326.554570) can1 1ED#41900170014873F9
(1646679326.554798) can1 1EF#0000021E
(1646679326.558902) can1 0C7#00025D35
(1646679326.559130) can1 0F9#0000400000000AFF
(1646679326.559411) can1 199#0FFF0B82F47E00FF
(1646679326.565848) can1 0C9#8409610D00400800
(1646679326.566075) can1 191#06CA06CA06C90000
(1646679326.566355) can1 1ED#41900170014873F9
(1646679326.566583) can1 1EF#0000021B
(1646679326.566880) can1 19D#00000000000933FF
(1646679326.567108) can1 1AF#000000
(1646679326.567337) can1 1F5#0F0F000100000800
(1646679326.567564) can1 4C9#40770000
(1646679326.567792) can1 77F#00000000000000
(1646679326.571344) can1 0C7#00025D35
(1646679326.571571) can1 0F9#0000400000000AFF
(1646679326.571799) can1 199#4FFF0B82F47D00FF
(1646679326.578381) can1 0C9#8409610000400800
(1646679326.578610) can1 191#06CA06CA06CA0000
(1646679326.578890) can1 1A1#00100140000000
(1646679326.579118) can1 1C3#06CA06B600000000
(1646679326.579398) can1 1ED#41900173014873F9
(1646679326.579626) can1 1EF#0000021B
(1646679326.579853) can1 2C3#095406A00752
(1646679326.580096) can1 2D1#000000000000
(1646679326.580324) can1 2D3#0303
(1646679326.580903) can1 1E1#00FF110020
(1646679326.581131) can1 0F1#1C850040
(1646679326.581359) can1 1F1#AE0E000008000078
(1646679326.583984) can1 0C7#00025D35
(1646679326.584212) can1 0F9#0000400000000AFF
(1646679326.584441) can1 199#8FFF0B82F47C00FF
(1646679326.590847) can1 0C9#8409740700400800
(1646679326.591075) can1 191#06CA06CA06CA0000
(1646679326.591356) can1 1ED#41900173015873F9
(1646679326.591584) can1 1EF#0000021C
(1646679326.591937) can1 19D#40003FFF000934FF
(1646679326.592165) can1 1AF#000000
(1646679326.592392) can1 1F5#0F0F000100000800
(1646679326.596343) can1 0C7#00025D35
(1646679326.596571) can1 0F9#0000400000000AFF
(1646679326.596799) can1 199#CFFF0B82F47B00FF
(1646679326.603400) can1 0C9#8409740A00400800
(1646679326.603629) can1 191#06CA06CA06CA0000
(1646679326.603909) can1 1A1#00100140000000
(1646679326.604136) can1 1C3#06CA06B600000000
(1646679326.604417) can1 1ED#41900172015873F9
(1646679326.604644) can1 1EF#0000021C
(1646679326.608893) can1 0C7#00025D35
(1646679326.609121) can1 0F9#0000400000000AFF
(1646679326.609348) can1 199#0FFF0B82F47E00FF
(1646679326.613312) can1 1E1#00FE120040
(1646679326.613539) can1 0F1#28850040
(1646679326.613767) can1 1F1#AE0E000008000078
(1646679326.615923) can1 0C9#8409720D00400800
(1646679326.616151) can1 191#06C806C806CA0000
(1646679326.616432) can1 1ED#41900172015873F9
(1646679326.616660) can1 1EF#00000220
(1646679326.616888) can1 19D#80003FFE00092EFF
(1646679326.617115) can1 1AF#000000
(1646679326.617343) can1 1F5#0F0F000100000800
(1646679326.621408) can1 0C7#00025D35
(1646679326.621635) can1 0F9#0000400000000AFF
(1646679326.621863) can1 199#4FFF0B82F47D00FF
(1646679326.628346) can1 0C9#8409720000400800
(1646679326.628574) can1 191#06C806C806C80000
(1646679326.628854) can1 1A1#00100140000000
(1646679326.629082) can1 1C3#06C806B200000000
(1646679326.629363) can1 1ED#41900172015873F9
(1646679326.629590) can1 1EF#00000220
(1646679326.629818) can1 2C3#095706A00752
(1646679326.630083) can1 2D1#000000000000
(1646679326.630187) can1 2D3#0303
(1646679326.630414) can1 3C1#0765480000000000
(1646679326.630642) can1 3D1#0112800000460000
(1646679326.633921) can1 0C7#00025D35
(1646679326.634148) can1 0F9#0000400000000AFF
(1646679326.634429) can1 199#8FFF0B82F47C00FF
(1646679326.634859) can1 3E9#0000000080004000
(1646679326.640882) can1 0C9#8409710700400800
(1646679326.641110) can1 191#06C806C806C80000
(1646679326.641390) can1 1ED#41900172014873F9
(1646679326.641618) can1 1EF#00000222
(1646679326.641940) can1 19D#C0003FFD000946FF
(1646679326.642168) can1 1AF#000000
(1646679326.642395) can1 1F5#0F0F000100000800
(1646679326.645892) can1 1E1#00FD130060
(1646679326.646120) can1 0F1#34850040
(1646679326.646348) can1 1F1#AE0E000008000078
(1646679326.646596) can1 0C7#00025D35
(1646679326.646699) can1 1F3#4060
(1646679326.646929) can1 0F9#0000400000000AFF
(1646679326.647157) can1 199#CFFF0B82F47B00FF
(1646679326.653400) can1 0C9#8409710A00400800
(1646679326.653628) can1 191#06C806C806C80000
(1646679326.653908) can1 1A1#00100140000000
(1646679326.654136) can1 1C3#06C806B200000000
(1646679326.654417) can1 1ED#41900175014873F9
(1646679326.654644) can1 1EF#00000222
(1646679326.658903) can1 0C7#00025D35
(1646679326.659131) can1 0F9#0000400000000AFF
(1646679326.659359) can1 199#0FFF0B82F47E00FF
(1646679326.665904) can1 0C9#8409820D00400800
(1646679326.666219) can1 191#06C806C806C80000
(1646679326.666447) can1 1ED#41900175014873F9
(1646679326.666675) can1 1EF#00000221
(1646679326.666902) can1 19D#0000000000093EFF
(1646679326.667130) can1 1AF#000000
(1646679326.667357) can1 1F5#0F0F000100000800
(1646679326.671352) can1 0C7#00025D35
(1646679326.671579) can1 0F9#0000400000000AFF
(1646679326.671808) can1 199#4FFF0B82F47D00FF
(1646679326.678384) can1 0C9#8409820000400800
(1646679326.678611) can1 0F1#00850040
(1646679326.678839) can1 191#06C806C806C80000
(1646679326.679066) can1 1F1#AE0E000008000078
(1646679326.679293) can1 1A1#00100140000000
(1646679326.679521) can1 1E1#0000100000
(1646679326.679748) can1 1C3#06C806B200000000
(1646679326.679995) can1 1ED#41900175014873F9
(1646679326.680223) can1 1EF#00000221
(1646679326.680450) can1 2C3#095706A00751
(1646679326.680678) can1 2D1#000000000000
(1646679326.680905) can1 2D3#0303
(1646679326.683968) can1 0C7#00025D35
(1646679326.684195) can1 0F9#0000400000000AFF
(1646679326.684423) can1 199#8FFF0B82F47C00FF
(1646679326.684806) can1 3F9#041338005506002C
(1646679326.685034) can1 3FB#0208
(1646679326.690901) can1 0C9#8409840700400800
(1646679326.691129) can1 191#06C606C606C80000
(1646679326.691459) can1 1ED#41900175014873F9
(1646679326.691687) can1 1EF#0000021D
(1646679326.691967) can1 19D#40003FFF000959FF
(1646679326.692194) can1 1AF#000000
(1646679326.692422) can1 1F5#0F0F000100000800
(1646679326.696350) can1 0C7#00025D35
(1646679326.696579) can1 0F9#0000400000000AFF
(1646679326.696807) can1 199#CFFF0B82F47B00FF
(1646679326.703406) can1 0C9#8409840A00400800
(1646679326.703634) can1 191#06C606C606C60000
(1646679326.703914) can1 1A1#00100140000000
(1646679326.704141) can1 1C3#06C606B000000000
(1646679326.704421) can1 1ED#41900172014873F9
(1646679326.704649) can1 1EF#0000021D
(1646679326.708901) can1 0C7#00025D35
(1646679326.709129) can1 0F9#0000400000000AFF
(1646679326.709357) can1 199#0FFF0B82F47E00FF
(1646679326.710860) can1 1E1#00FF110020
(1646679326.711087) can1 0F1#1C850040
(1646679326.711315) can1 1F1#AE0E000008000078
(1646679326.716424) can1 0C9#8409730D00400800
(1646679326.716652) can1 191#06C506C506C60000
(1646679326.716879) can1 19D#80003FFE00094AFF
(1646679326.717107) can1 1ED#41900172014873F9
(1646679326.717334) can1 1AF#000000
(1646679326.717562) can1 1EF#00000217
(1646679326.717789) can1 1F5#0F0F000100000800
(1646679326.721374) can1 0C7#00025D35
(1646679326.721601) can1 0F9#0000400000000AFF
(1646679326.721829) can1 199#4FFF0B82F47D00FF
(1646679326.728349) can1 0C9#8409730000400800
(1646679326.728577) can1 191#06C506C506C50000
(1646679326.728858) can1 1A1#00100140000000
(1646679326.729085) can1 1C3#06C506AF00000000
(1646679326.729366) can1 1ED#41900172014873F9
(1646679326.729593) can1 1EF#00000217
(1646679326.729821) can1 2C3#095806A00750
(1646679326.730063) can1 2D1#000000000000
(1646679326.730291) can1 2D3#0303
(1646679326.730518) can1 3C1#0765480000000000
(1646679326.730748) can1 3D1#0111800000460000
(1646679326.733971) can1 0C7#00025D35
(1646679326.734199) can1 0F9#0000400000000AFF
(1646679326.734426) can1 199#8FFF0B82F47C00FF
(1646679326.734759) can1 3E9#0000000080004000
(1646679326.741710) can1 0C9#84096F0700400800
(1646679326.741938) can1 19D#C0003FFD000959FF
(1646679326.742165) can1 191#06C706C706C50000
(1646679326.742393) can1 1AF#000000
(1646679326.742620) can1 1ED#41900172014873F9
(1646679326.742848) can1 1F5#0F0F000100000800
(1646679326.743076) can1 1EF#0000021E
(1646679326.743660) can1 1E1#00FE120040
(1646679326.743888) can1 0F1#28850040
(1646679326.744116) can1 1F1#AE0E000008000078
(1646679326.746407) can1 0C7#00025D35
(1646679326.746635) can1 0F9#0000400000000AFF
(1646679326.746862) can1 199#CFFF0B82F47B00FF
(1646679326.753400) can1 0C9#84096F0A00400800
(1646679326.753628) can1 191#06C706C706C70000
(1646679326.753910) can1 1A1#00100140000000
(1646679326.754137) can1 1C3#06C706B200000000
(1646679326.754418) can1 1ED#41900170014873F9
(1646679326.754645) can1 1EF#0000021E
(1646679326.758915) can1 0C7#00025D35
(1646679326.759142) can1 0F9#0000400000000AFF
(1646679326.759370) can1 199#0FFF0B82F47E00FF
(1646679326.766354) can1 0C9#8409610D00400800
(1646679326.766582) can1 191#06C706C706C70000
(1646679326.766863) can1 1ED#41900172014873F9
(1646679326.767090) can1 19D#0000000000095AFF
(1646679326.767317) can1 1EF#0000021E
(1646679326.767545) can1 1AF#000000
(1646679326.767772) can1 1F5#0F0F000100000800
(1646679326.771368) can1 0C7#00025D35
(1646679326.771597) can1 0F9#0000400000000AFF
(1646679326.771824) can1 199#4FFF0B82F47D00FF
(1646679326.775898) can1 1E1#00FD130060
(1646679326.776126) can1 0F1#34850040
(1646679326.776354) can1 1F1#AE0E000008000078
(1646679326.778460) can1 0C9#8409610000400800
(1646679326.778688) can1 191#06C706C706C70000
(1646679326.778968) can1 1A1#00100140000000
(1646679326.779195) can1 1C3#06C706B300000000
(1646679326.779475) can1 1ED#41900171014873F9
(1646679326.779703) can1 1EF#0000021E
(1646679326.780147) can1 2C3#095606A00751
(1646679326.780156) can1 2D1#000000000000
(1646679326.780367) can1 2D3#0303
(1646679326.783975) can1 0C7#00025D35
(1646679326.784204) can1 0F9#0000400000000AFF
(1646679326.784432) can1 199#8FFF0B82F47C00FF
(1646679326.791354) can1 0C9#84095D0700400800
(1646679326.791582) can1 191#06C906C906C70000
(1646679326.791862) can1 1ED#41900171014873F9
(1646679326.792090) can1 19D#40003FFF00093BFF
(1646679326.792317) can1 1EF#0000021B
(1646679326.792544) can1 1AF#000000
(1646679326.792772) can1 1F5#0F0F000100000800
(1646679326.796358) can1 0C7#00025D35
(1646679326.796587) can1 0F9#0000400000000AFF
(1646679326.796815) can1 199#CFFF0B82F47B00FF
(1646679326.803402) can1 0C9#84095D0A00400800
(1646679326.803629) can1 191#06C906C906C90000
(1646679326.803910) can1 1A1#00100140000000
(1646679326.804137) can1 1C3#06C906B500000000
(1646679326.804418) can1 1ED#41900175014873F9
(1646679326.804646) can1 1EF#0000021B
(1646679326.808414) can1 1E1#0000100000
(1646679326.808642) can1 0F1#00850040
(1646679326.808870) can1 1F1#AE0E000008000078
(1646679326.809097) can1 0C7#00025D35
(1646679326.809324) can1 0F9#0000400000000AFF
(1646679326.809551) can1 199#0FFF0B82F47E00FF
(1646679326.816228) can1 0C9#8409720D00400800
(1646679326.816455) can1 191#06CA06CA06C90000
(1646679326.816736) can1 1ED#41900172014873F9
(1646679326.816963) can1 19D#80003FFE000953FF
(1646679326.817191) can1 1EF#0000021D
(1646679326.817418) can1 1AF#000000
(1646679326.817647) can1 1F5#0F0F000100000800
(1646679326.821372) can1 0C7#00025D35
(1646679326.821600) can1 0F9#0000400000000AFF
(1646679326.821827) can1 199#4FFF0B82F47D00FF
(1646679326.828349) can1 0C9#8409720000400800
(1646679326.828577) can1 191#06CA06CA06CA0000
(1646679326.828858) can1 1A1#00100140000000
(1646679326.829086) can1 1C3#06CA06B600000000
(1646679326.829366) can1 1ED#41900176015873F9
(1646679326.829593) can1 1EF#0000021D
(1646679326.829821) can1 2C3#095506A00752
(1646679326.830066) can1 2D1#000000000000
(1646679326.830294) can1 2D3#0303
(1646679326.830522) can1 3C1#0765480000000000
(1646679326.830749) can1 3D1#0112800000460000
(1646679326.833943) can1 0C7#00025D35
(1646679326.834171) can1 0F9#0000400000000AFF
(1646679326.834398) can1 199#8FFF0B82F47C00FF
(1646679326.834725) can1 3E9#0000000080004000
(1646679326.840899) can1 0C9#84098C0700400800
(1646679326.841130) can1 1E1#00FF110020
(1646679326.841357) can1 0F1#1C850040
(1646679326.841585) can1 191#06C806C806CA0000
(1646679326.841813) can1 1F1#AE0E000008000078
(1646679326.842040) can1 19D#C0003FFD000945FF
(1646679326.842267) can1 1ED#41900176015873F9
(1646679326.842516) can1 1AF#000000
(1646679326.842619) can1 1EF#0000021B
(1646679326.842866) can1 1F3#80A0
(1646679326.842969) can1 1F5#0F0F000100000800
(1646679326.846448) can1 0C7#00025D35
(1646679326.846676) can1 0F9#0000400000000AFF
(1646679326.846903) can1 199#CFFF0B82F47B00FF
(1646679326.853405) can1 0C9#84098C0A00400800
(1646679326.853632) can1 191#06C806C806C80000
(1646679326.853914) can1 1A1#00100140000000
(1646679326.854141) can1 1C3#06C806B300000000
(1646679326.854421) can1 1ED#41900177015873F9
(1646679326.854649) can1 1EF#0000021B
(1646679326.858916) can1 0C7#00025D35
(1646679326.859145) can1 0F9#0000400000000AFF
(1646679326.859372) can1 199#0FFF0B82F47E00FF
(1646679326.865904) can1 0C9#8409900D00400800
(1646679326.866131) can1 191#06C506C506C80000
(1646679326.866412) can1 1ED#41900177015873F9
(1646679326.866640) can1 1EF#0000021F
(1646679326.866867) can1 19D#0000000000095AFF
(1646679326.867095) can1 1AF#000000
(1646679326.867322) can1 1F5#0F0F000100000800
(1646679326.871367) can1 0C7#00025D35
(1646679326.871595) can1 0F9#0000400000000AFF
(1646679326.871822) can1 199#4FFF0B82F47D00FF
(1646679326.873450) can1 1E1#00FE120040
(1646679326.873678) can1 0F1#28850040
(1646679326.873906) can1 1F1#AE0E000008000078
(1646679326.878461) can1 0C9#8409900000400800
(1646679326.878688) can1 191#06C506C506C50000
(1646679326.878969) can1 1A1#00100140000000
(1646679326.879195) can1 1C3#06C506AE00000000
(1646679326.879476) can1 1ED#41900177015873F9
(1646679326.879704) can1 1EF#0000021F
(1646679326.880147) can1 2C3#095906A00751
(1646679326.880156) can1 2D1#000000000000
(1646679326.880367) can1 2D3#0303
(1646679326.883936) can1 0C7#00025D35
(1646679326.884165) can1 0F9#0000400000000AFF
(1646679326.884393) can1 199#8FFF0B82F47C00FF
(1646679326.890901) can1 0C9#84098E0700400800
(1646679326.891185) can1 191#06C406C406C50000
(1646679326.891412) can1 1ED#41900177014873F9
(1646679326.891640) can1 1EF#0000021F
(1646679326.891867) can1 19D#40003FFF00095CFF
(1646679326.892094) can1 1AF#000000
(1646679326.892322) can1 1F5#0F0F000100000800
(1646679326.896374) can1 0C7#00025D35
(1646679326.896602) can1 0F9#0000400000000AFF
(1646679326.899900) can1 199#CFFF0B82F47B00FF
(1646679326.903402) can1 0C9#84098E0A00400800
(1646679326.903630) can1 191#06C406C406C40000
(1646679326.903911) can1 1A1#00100140000000
(1646679326.904140) can1 1C3#06C406AD00000000
(1646679326.904421) can1 1ED#41900175014873F9
(1646679326.904649) can1 1EF#0000021F
(1646679326.905964) can1 1E1#00FD130060
(1646679326.906192) can1 0F1#34850040
(1646679326.906420) can1 1F1#AE0E000008000078
(1646679326.908961) can1 0C7#00025D35
(1646679326.909188) can1 0F9#0000400000000AFF
(1646679326.909416) can1 199#0FFF0B82F47E00FF
(1646679326.915935) can1 0C9#8409850D00400800
(1646679326.916163) can1 191#06C306C306C40000
(1646679326.916443) can1 1ED#41900175014873F9
(1646679326.916671) can1 1EF#00000220
(1646679326.916951) can1 19D#80003FFE000965FF
(1646679326.917179) can1 1AF#000000
(1646679326.917406) can1 1F5#0F0F000100000800
(1646679326.921383) can1 0C7#00025D35
(1646679326.921612) can1 0F9#0000400000000AFF
(1646679326.921839) can1 199#4FFF0B82F47D00FF
(1646679326.928349) can1 0C9#8409850000400800
(1646679326.928578) can1 191#06C306C306C30000
(1646679326.928859) can1 1A1#00100140000000
(1646679326.929086) can1 1C3#06C306AD00000000
(1646679326.929367) can1 1ED#41900174014873F9
(1646679326.929594) can1 1EF#00000220
(1646679326.929822) can1 2C3#095906A00750
(1646679326.930072) can1 2D1#000000000000
(1646679326.930224) can1 2D3#0303
(1646679326.930452) can1 3C1#0765480000000000
(1646679326.930679) can1 3D1#0112800000460000
(1646679326.933952) can1 0C7#00025D35
(1646679326.934180) can1 0F9#0000400000000AFF
(1646679326.934408) can1 199#8FFF0B82F47C00FF
(1646679326.934729) can1 3E9#0000000080004000
(1646679326.934957) can1 3F9#041338005506002E
(1646679326.935184) can1 3FB#0208
(1646679326.935411) can1 4C1#00BF876267000000
(1646679326.935639) can1 4D1#08002F031E4000BB
(1646679326.938550) can1 1E1#0000100000
(1646679326.938778) can1 0F1#00850040
(1646679326.939007) can1 1F1#AE0E000008000078
(1646679326.939235) can1 1F3#C0E0
(1646679326.941016) can1 0C9#84097C0700400800
(1646679326.941244) can1 191#06C406C406C30000
(1646679326.941525) can1 1ED#41900176014873F9
(1646679326.941752) can1 1EF#00000220
(1646679326.942033) can1 19D#C0003FFD000973FF
(1646679326.942260) can1 1AF#000000
(1646679326.942487) can1 1F5#0F0F000100000800
(1646679326.946490) can1 0C7#00025D35
(1646679326.946717) can1 0F9#0000400000000AFF
(1646679326.946945) can1 199#CFFF0B82F47B00FF
(1646679326.953426) can1 0C9#84097C0A00400800
(1646679326.953655) can1 191#06C406C406C40000
(1646679326.953935) can1 1A1#00100140000000
(1646679326.954162) can1 1C3#06C406AE00000000
(1646679326.954442) can1 1ED#41900178014873F9
(1646679326.954670) can1 1EF#00000220
(1646679326.958933) can1 0C7#00025D35
(1646679326.959161) can1 0F9#0000400000000AFF
(1646679326.959390) can1 199#0FFF0B82F47E00FF
(1646679326.965922) can1 0C9#84098A0D00400800
(1646679326.966150) can1 191#06C606C606C40000
(1646679326.966431) can1 1ED#41900176014873F9
(1646679326.966658) can1 1EF#0000021E
(1646679326.966886) can1 19D#00000000000971FF
(1646679326.967114) can1 1AF#000000
(1646679326.967341) can1 1F5#0F0F000100000800
(1646679326.971004) can1 1E1#00FF110020
(1646679326.971233) can1 0F1#1C850040
(1646679326.971460) can1 1F1#AE0E000008000078
(1646679326.971688) can1 0C7#00025D35
(1646679326.971915) can1 0F9#0000400000000AFF
(1646679326.972142) can1 199#4FFF0B82F47D00FF
(1646679326.978402) can1 0C9#84098A0000400800
(1646679326.978630) can1 191#06C606C606C60000
(1646679326.978926) can1 1A1#00100140000000
(1646679326.979154) can1 1C3#06C606B000000000
(1646679326.979434) can1 1ED#41900178014873F9
(1646679326.979662) can1 1EF#0000021E
(1646679326.979901) can1 2C3#095806A00750
(1646679326.980116) can1 2D1#000000000000
(1646679326.980329) can1 2D3#0303
(1646679326.983959) can1 0C7#00025D35
(1646679326.984189) can1 0F9#0000400000000AFF
(1646679326.984416) can1 199#8FFF0B82F47C00FF
(1646679326.990926) can1 0C9#8409950700400800
(1646679326.991154) can1 191#06C406C406C60000
(1646679326.991434) can1 1ED#41900178015873F9
(1646679326.991662) can1 1EF#0000021C
(1646679326.991889) can1 19D#40003FFF000953FF
(1646679326.992117) can1 1AF#000000
(1646679326.992344) can1 1F5#0F0F000100000800
(1646679326.996385) can1 0C7#00025D35
(1646679326.996612) can1 0F9#0000400000000AFF
(1646679326.996840) can1 199#CFFF0B82F47B00FF
(1646679327.003522) can1 1E1#00FE120040
(1646679327.003749) can1 0F1#28850040
(1646679327.003977) can1 1F1#AE0E000008000078
(1646679327.004310) can1 0C9#8409900A00400800
(1646679327.004539) can1 191#06C406C406C40000
(1646679327.004820) can1 1A1#00100140000000
(1646679327.005047) can1 1C3#06C406AE00000000
(1646679327.005327) can1 1ED#41900177015873F9
(1646679327.005555) can1 1EF#0000021E
(1646679327.008984) can1 0C7#00025D35
(1646679327.009212) can1 0F9#0000400000000AFF
(1646679327.009439) can1 199#0FFF0B82F47E00FF
(1646679327.015902) can1 0C9#8409900D00400800
(1646679327.016129) can1 191#06C306C306C40000
(1646679327.016410) can1 1ED#41900177014873F9
(1646679327.016638) can1 1EF#0000021E
(1646679327.016918) can1 19D#80003FFE000988FF
(1646679327.017145) can1 1AF#000000
(1646679327.017373) can1 1F5#0F0F000100000800
(1646679327.021393) can1 0C7#00025D35
(1646679327.021621) can1 0F9#0000400000000AFF
(1646679327.021848) can1 199#4FFF0B82F47D00FF
(1646679327.029214) can1 0C9#84098A0000400800
(1646679327.029442) can1 191#06C306C306C30000
(1646679327.029724) can1 1A1#00100140000000
(1646679327.029963) can1 1C3#06C306AC00000000
(1646679327.030244) can1 1ED#41900176014873F9
(1646679327.030471) can1 1EF#0000021F
(1646679327.030698) can1 2C3#095A06A00750
(1646679327.030926) can1 2D1#000000000000
(1646679327.031153) can1 2D3#0303
(1646679327.031380) can1 3C1#0765480000000000
(1646679327.031607) can1 3D1#0112800000460000
(1646679327.033963) can1 0C7#00025D35
(1646679327.034190) can1 0F9#0000400000000AFF
(1646679327.034418) can1 199#8FFF0B82F47C00FF
(1646679327.034715) can1 3E9#0000000080004000
(1646679327.036111) can1 1E1#00FD130060
(1646679327.036339) can1 0F1#34850040
(1646679327.036567) can1 1F1#AE0E000008000078
(1646679327.036794) can1 1F3#0020
(1646679327.041003) can1 0C9#84098A0700400800
(1646679327.041231) can1 191#06C306C306C30000
(1646679327.041511) can1 1ED#41900178014873F9
(1646679327.041740) can1 1EF#0000021F
(1646679327.042064) can1 19D#C0003FFD000963FF
(1646679327.042291) can1 1AF#000000
(1646679327.042519) can1 1F5#0F0F000100000800
(1646679327.046385) can1 0C7#00025D35
(1646679327.046613) can1 0F9#0000400000000AFF
(1646679327.046840) can1 199#CFFF0B82F47B00FF
(1646679327.053905) can1 0C9#8409970A00400800
(1646679327.054132) can1 191#06C306C306C30000
(1646679327.054412) can1 1A1#00100140000000
(1646679327.054640) can1 1C3#06C306AC00000000
(1646679327.054979) can1 1ED#41900178014873F9
(1646679327.055206) can1 1EF#0000021E
(1646679327.058946) can1 0C7#00025D35
(1646679327.059227) can1 0F9#0000400000000AFF
(1646679327.059455) can1 199#0FFF0B82F47E00FF
(1646679327.065923) can1 0C9#8409970D00400800
(1646679327.066151) can1 191#06C306C306C30000
(1646679327.066431) can1 1ED#41900173014873F9
(1646679327.066659) can1 1EF#0000021E
(1646679327.066940) can1 19D#00000000000968FF
(1646679327.067168) can1 1AF#000000
(1646679327.067395) can1 1F5#0F0F000100000800
(1646679327.067622) can1 4C9#40770000
(1646679327.068565) can1 1E1#0000100000
(1646679327.068793) can1 0F1#00850040
(1646679327.069020) can1 1F1#AE0E000008000078
(1646679327.071433) can1 0C7#00025D35
(1646679327.071660) can1 0F9#0000400000000AFF
(1646679327.071888) can1 199#4FFF0B82F47D00FF
(1646679327.079001) can1 0C9#8409780000400800
(1646679327.079228) can1 191#06C306C306C30000
(1646679327.079509) can1 1A1#00100140000000
(1646679327.079736) can1 1C3#06C306AE00000000
(1646679327.080049) can1 1ED#41900173014873F9
(1646679327.080278) can1 1EF#00000218
(1646679327.080505) can1 2C3#095906A00750
(1646679327.080733) can1 2D1#000000000000
(1646679327.080960) can1 2D3#0303
(1646679327.083961) can1 0C7#00025D35
(1646679327.084190) can1 0F9#0000400000000AFF
(1646679327.084418) can1 199#8FFF0B82F47C00FF
(1646679327.090906) can1 0C9#8409780700400800
(1646679327.091133) can1 191#06C206C206C30000
(1646679327.091414) can1 1ED#4190016C014073F9
(1646679327.091642) can1 1EF#00000218
(1646679327.091869) can1 19D#40003FFF00096FFF
(1646679327.092097) can1 1AF#000000
(1646679327.092325) can1 1F5#0F0F000100000800
(1646679327.096403) can1 0C7#00025D35
(1646679327.096631) can1 0F9#0000400000000AFF
(1646679327.096859) can1 199#CFFF0B82F47B00FF
(1646679327.101092) can1 1E1#00FF110020
(1646679327.101320) can1 0F1#1C850040
(1646679327.101548) can1 1F1#AE0E000008000078
(1646679327.104324) can1 0C9#8409480A00400800
(1646679327.104552) can1 191#06C206C206C20000
(1646679327.104832) can1 1A1#00100140000000
(1646679327.105060) can1 1C3#06C206AB00000000
(1646679327.105356) can1 1ED#4190016C014073F9
(1646679327.105586) can1 1EF#0000021E
(1646679327.109001) can1 0C7#00025D35
(1646679327.109229) can1 0F9#0000400000000AFF
(1646679327.109456) can1 199#0FFF0B82F47E00FF
(1646679327.115902) can1 0C9#8409480D00400800
(1646679327.116130) can1 191#06C406C406C20000
(1646679327.116411) can1 1ED#4190016C014073F9
(1646679327.116638) can1 1EF#0000021E
(1646679327.116918) can1 19D#80003FFE000961FF
(1646679327.117146) can1 1AF#000000
(1646679327.117374) can1 1F5#0F0F000100000800
(1646679327.121410) can1 0C7#00025D35
(1646679327.121638) can1 0F9#0000400000000AFF
(1646679327.121866) can1 199#4FFF0B82F47D00FF
(1646679327.129212) can1 0C9#84094A0000400800
(1646679327.129439) can1 191#06C406C406C40000
(1646679327.129720) can1 1A1#00100140000000
(1646679327.129961) can1 1C3#06C406B000000000
(1646679327.130242) can1 1ED#4190016C014073F9
(1646679327.130470) can1 1EF#0000021F
(1646679327.130699) can1 2C3#095706A00752
(1646679327.130926) can1 2D1#000000000000
(1646679327.131153) can1 2D3#0303
(1646679327.131380) can1 3C1#0765480000000000
(1646679327.131608) can1 3D1#0112800000460000
(1646679327.133368) can1 1F3#4060
(1646679327.133834) can1 1E1#00FE120040
(1646679327.134061) can1 0C7#00025D35
(1646679327.134289) can1 0F1#28850040
(1646679327.134516) can1 0F9#0000400000000AFF
(1646679327.134743) can1 1F1#AE0E000008000078
(1646679327.134971) can1 199#8FFF0B82F47C00FF
(1646679327.135198) can1 3E9#0000000080004000
(1646679327.140956) can1 0C9#84094A0700400800
(1646679327.141184) can1 191#06CA06CA06C40000
(1646679327.141483) can1 1ED#4190016E014873F9
(1646679327.141711) can1 1EF#0000021F
(1646679327.142016) can1 19D#C0003FFD000950FF
(1646679327.142244) can1 1AF#000000
(1646679327.142471) can1 1F5#0F0F000100000800
(1646679327.146405) can1 0C7#00025D35
(1646679327.146633) can1 0F9#0000400000000AFF
(1646679327.146861) can1 199#CFFF0B82F47B00FF
(1646679327.154282) can1 0C9#84094E0A00400800
(1646679327.154510) can1 191#06CA06CA06CA0000
(1646679327.154791) can1 1A1#00100140000000
(1646679327.155019) can1 1C3#06CA06B900000000
(1646679327.155299) can1 1ED#4190016F014873F9
(1646679327.155527) can1 1EF#0000021B
(1646679327.158961) can1 0C7#00025D35
(1646679327.159189) can1 0F9#0000400000000AFF
(1646679327.159416) can1 199#0FFF0B82F47E00FF
(1646679327.165906) can1 0C9#84094E0D00400800
(1646679327.166134) can1 191#06CB06CB06CA0000
(1646679327.166362) can1 1E1#00FD130060
(1646679327.166589) can1 0F1#34850040
(1646679327.166816) can1 1ED#41900175015873F9
(1646679327.167044) can1 19D#0000000000092CFF
(1646679327.167291) can1 1EF#0000021B
(1646679327.167394) can1 1AF#000000
(1646679327.167623) can1 1F1#AE0E000008000078
(1646679327.167850) can1 1F5#0F0F000100000800
(1646679327.171454) can1 0C7#00025D35
(1646679327.171683) can1 0F9#0000400000000AFF
(1646679327.171910) can1 199#4FFF0B82F47D00FF
(1646679327.179028) can1 0C9#8409750000400800
(1646679327.179255) can1 191#06CB06CB06CB0000
(1646679327.179536) can1 1A1#00100140000000
(1646679327.179763) can1 1C3#06CB06BA00000000
(1646679327.180060) can1 1ED#41900175015873F9
(1646679327.180289) can1 1EF#0000021C
(1646679327.180516) can1 2C3#095506A00753
(1646679327.180743) can1 2D1#000000000000
(1646679327.180971) can1 2D3#0303
(1646679327.183978) can1 0C7#00025D35
(1646679327.184206) can1 0F9#0000400000000AFF
(1646679327.184433) can1 199#8FFF0B82F47C00FF
(1646679327.184714) can1 3F9#041340005506002A
(1646679327.184941) can1 3FB#0208
(1646679327.190927) can1 0C9#8409750700400800
(1646679327.191157) can1 191#06CB06CB06CB0000
(1646679327.191437) can1 1ED#41900179015873F9
(1646679327.191665) can1 1EF#0000021C
(1646679327.191992) can1 19D#40003FFF00093AFF
(1646679327.192220) can1 1AF#000000
(1646679327.192447) can1 1F5#0F0F000100000800
(1646679327.196415) can1 0C7#00025D35
(1646679327.196643) can1 0F9#0000400000000AFF
(1646679327.196871) can1 199#CFFF0B82F47B00FF
(1646679327.198655) can1 1E1#0000100000
(1646679327.198883) can1 0F1#00850040
(1646679327.199111) can1 1F1#AE0E000008000078
(1646679327.203544) can1 0C9#84098D0A00400800
(1646679327.203772) can1 191#06CB06CB06CB0000
(1646679327.204052) can1 1A1#00100140000000
(1646679327.204280) can1 1C3#06CB06B900000000
(1646679327.204560) can1 1ED#41900179015873F9
(1646679327.204787) can1 1EF#0000021E
(1646679327.208968) can1 0C7#00025D35
(1646679327.209195) can1 0F9#0000400000000AFF
(1646679327.209424) can1 199#0FFF0B82F47E00FF
(1646679327.215900) can1 0C9#84098D0D00400800
(1646679327.216128) can1 191#06C806C806CB0000
(1646679327.216408) can1 1ED#4190017C016073F9
(1646679327.216636) can1 1EF#0000021E
(1646679327.216944) can1 19D#80003FFE000943FF
(1646679327.217172) can1 1AF#000000
(1646679327.217399) can1 1F5#0F0F000100000800
(1646679327.221504) can1 0C7#00025D35
(1646679327.221732) can1 0F9#0000400000000AFF
(1646679327.221960) can1 199#4FFF0B82F47D00FF
(1646679327.228414) can1 0C9#8409A10000400800
(1646679327.228641) can1 191#06C806C806C80000
(1646679327.228922) can1 1A1#00100140000000
(1646679327.229149) can1 1C3#06C806B300000000
(1646679327.229430) can1 1ED#4190017C016073F9
(1646679327.229657) can1 1EF#00000216
(1646679327.229884) can1 2C3#095A06A00750
(1646679327.230106) can1 2D1#000000000000
(1646679327.230323) can1 2D3#0303
(1646679327.230534) can1 3C1#0765480000000000
(1646679327.230744) can1 3D1#0112800000460000
(1646679327.231461) can1 1E1#00FF110020
(1646679327.231689) can1 0F1#1C850040
(1646679327.231917) can1 1F1#AE0E000008000078
(1646679327.232144) can1 1F3#80A0
(1646679327.234091) can1 0C7#00025D35
(1646679327.234319) can1 0F9#0000400000000AFF
(1646679327.234599) can1 199#8FFF0B82F47C00FF
(1646679327.235269) can1 3E9#0000000080004000
(1646679327.240902) can1 0C9#8409A10700400800
(1646679327.241129) can1 191#06C406C406C80000
(1646679327.241410) can1 1ED#4190017B015873F9
(1646679327.241637) can1 1EF#00000216
(1646679327.242108) can1 19D#C0003FFD000948FF
(1646679327.242336) can1 1AF#000000
(1646679327.242563) can1 1F5#0F0F000100000800
(1646679327.246405) can1 0C7#00025D35
(1646679327.246633) can1 0F9#0000400000000AFF
(1646679327.246860) can1 199#CFFF0B82F47B00FF
(1646679327.253407) can1 0C9#8409A80A00400800
(1646679327.253635) can1 191#06C406C406C40000
(1646679327.253915) can1 1A1#00100140000000
(1646679327.254142) can1 1C3#06C406AD00000000
(1646679327.254423) can1 1ED#4190017B015873F9
(1646679327.254650) can1 1EF#0000020F
(1646679327.258972) can1 0C7#00025D35
(1646679327.259199) can1 0F9#0000400000000AFF
(1646679327.259426) can1 199#0FFF0B82F47E00FF
(1646679327.263713) can1 1E1#00FE120040
(1646679327.263941) can1 0F1#28850040
(1646679327.264169) can1 1F1#AE0E000008000078
(1646679327.265979) can1 0C9#8409A80D00400800
(1646679327.266206) can1 191#06C106C106C40000
(1646679327.266487) can1 1ED#4190017A014873F9
(1646679327.266714) can1 1EF#0000020F
(1646679327.266942) can1 19D#0000000000094BFF
(1646679327.267169) can1 1AF#000000
(1646679327.267396) can1 1F5#0F0F000100000800
(1646679327.271451) can1 0C7#00025D35
(1646679327.271681) can1 0F9#0000400000000AFF
(1646679327.271908) can1 199#4FFF0B82F47D00FF
(1646679327.278431) can1 0C9#8409B20000400800
(1646679327.278659) can1 191#06C106C106C10000
(1646679327.278940) can1 1A1#00100140000000
(1646679327.279167) can1 1C3#06C106AA00000000
(1646679327.279448) can1 1ED#4190017A014873F9
(1646679327.279676) can1 1EF#00000212
(1646679327.279900) can1 2C3#095C06A0074F
(1646679327.280140) can1 2D1#000000000000
(1646679327.280368) can1 2D3#0303
(1646679327.283979) can1 0C7#00025D35
(1646679327.284207) can1 0F9#0000400000000AFF
(1646679327.284434) can1 199#8FFF0B82F47C00FF
(1646679327.291015) can1 0C9#8409B20700400800
(1646679327.291243) can1 191#06BF06BF06C10000
(1646679327.291524) can1 1ED#4190017A014873F9
(1646679327.291751) can1 1EF#00000212
(1646679327.291979) can1 19D#40003FFF000964FF
(1646679327.292206) can1 1AF#000000
(1646679327.292434) can1 1F5#0F0F000100000800
(1646679327.296229) can1 1E1#00FD130060
(1646679327.296457) can1 0F1#34850040
(1646679327.296685) can1 0C7#00025D35
(1646679327.297126) can1 1F1#AE0E000008000078
(1646679327.297135) can1 0F9#0000400000000AFF
(1646679327.297346) can1 199#CFFF0B82F47B00FF
(1646679327.303437) can1 0C9#8409B20A00400800
(1646679327.303666) can1 191#06BF06BF06BF0000
(1646679327.303947) can1 1A1#00100140000000
(1646679327.304174) can1 1C3#06BF06A800000000
(1646679327.304454) can1 1ED#41900177014873F9
(1646679327.304682) can1 1EF#00000215
(1646679327.308960) can1 0C7#00025D35
(1646679327.309187) can1 0F9#0000400000000AFF
(1646679327.309414) can1 199#0FFF0B82F47E00FF
(1646679327.315975) can1 0C9#8409B20D00400800
(1646679327.316202) can1 191#06BD06BD06BF0000
(1646679327.316483) can1 1ED#41900175014873F9
(1646679327.316710) can1 1EF#00000215
(1646679327.316939) can1 19D#80003FFE000973FF
(1646679327.317167) can1 1AF#000000
(1646679327.317395) can1 1F5#0F0F000100000800
(1646679327.321424) can1 0C7#00025D35
(1646679327.321652) can1 0F9#0000400000000AFF
(1646679327.321880) can1 199#4FFF0B82F47D00FF
(1646679327.328350) can1 0C9#8409A50000400800
(1646679327.328578) can1 191#06BD06BD06BD0000
(1646679327.328859) can1 1A1#00100140000000
(1646679327.329086) can1 1C3#06BD06A700000000
(1646679327.329313) can1 1E1#0000100000
(1646679327.329541) can1 0F1#00850040
(1646679327.329789) can1 1ED#41900178014873F9
(1646679327.329902) can1 1F3#C0E0
(1646679327.330116) can1 1EF#0000021A
(1646679327.330328) can1 1F1#AE0E000008000078
(1646679327.330539) can1 2C3#095C06A0074E
(1646679327.330769) can1 2D1#000000000000
(1646679327.330853) can1 2D3#0303
(1646679327.331061) can1 3C1#0765480000000000
(1646679327.331368) can1 3D1#0112800000460000
(1646679327.334076) can1 0C7#00025D35
(1646679327.334304) can1 0F9#0000400000000AFF
(1646679327.334531) can1 199#8FFF0B82F47C00FF
(1646679327.334827) can1 3E9#0000000080004000
(1646679327.340900) can1 0C9#8409A50700400800
(1646679327.341128) can1 191#06BD06BD06BD0000
(1646679327.341408) can1 1ED#41900176014873F9
(1646679327.341636) can1 1EF#0000021A
(1646679327.342086) can1 19D#C0003FFD00097FFF
(1646679327.342314) can1 1AF#000000
(1646679327.342542) can1 1F5#0F0F000100000800
(1646679327.346414) can1 0C7#00025D35
(1646679327.346641) can1 0F9#0000400000000AFF
(1646679327.346869) can1 199#CFFF0B82F47B00FF
(1646679327.353407) can1 0C9#8409980A00400800
(1646679327.353635) can1 191#06BD06BD06BD0000
(1646679327.353916) can1 1A1#00100140000000
(1646679327.354144) can1 1C3#06BD06A700000000
(1646679327.354424) can1 1ED#41900176014873F9
(1646679327.354653) can1 1EF#00000220
(1646679327.358972) can1 0C7#00025D35
(1646679327.359200) can1 0F9#0000400000000AFF
(1646679327.359427) can1 199#0FFF0B82F47E00FF
(1646679327.361273) can1 1E1#00FF110020
(1646679327.361501) can1 0F1#1C850040
(1646679327.361728) can1 1F1#AE0E000008000078
(1646679327.365981) can1 0C9#8409980D00400800
(1646679327.366208) can1 191#06BE06BE06BD0000
(1646679327.366489) can1 1ED#41900176014873F9
(1646679327.366716) can1 1EF#00000220
(1646679327.366944) can1 19D#00000000000986FF
(1646679327.367171) can1 1AF#000000
(1646679327.367398) can1 1F5#0F0F000100000800
(1646679327.371421) can1 0C7#00025D35
(1646679327.371649) can1 0F9#0000400000000AFF
(1646679327.371876) can1 199#4FFF0B82F47D00FF
(1646679327.378383) can1 0C9#84099A0000400800
(1646679327.378611) can1 191#06BE06BE06BE0000
(1646679327.378891) can1 1A1#00100140000000
(1646679327.379120) can1 1C3#06BE06AA00000000
(1646679327.379400) can1 1ED#41900176014873F9
(1646679327.379627) can1 1EF#0000021F
(1646679327.379855) can1 2C3#095A06A0074F
(1646679327.380096) can1 2D1#000000000000
(1646679327.380324) can1 2D3#0303
(1646679327.383995) can1 0C7#00025D35
(1646679327.384223) can1 0F9#0000400000000AFF
(1646679327.384451) can1 199#8FFF0B82F47C00FF
(1646679327.390980) can1 0C9#84099A0700400800
(1646679327.391208) can1 191#06BF06BF06BE0000
(1646679327.391489) can1 1ED#41900176014873F9
(1646679327.391716) can1 1EF#0000021F
(1646679327.391944) can1 19D#40003FFF000983FF
(1646679327.392171) can1 1AF#000000
(1646679327.392399) can1 1F5#0F0F000100000800
(1646679327.393789) can1 1E1#00FE120040
(1646679327.394017) can1 0F1#28850040
(1646679327.394245) can1 1F1#AE0E000008000078
(1646679327.396465) can1 0C7#00025D35
(1646679327.396695) can1 0F9#0000400000000AFF
(1646679327.399902) can1 199#CFFF0B82F47B00FF
(1646679327.403349) can1 0C9#8409980A00400800
(1646679327.403577) can1 191#06BF06BF06BF0000
(1646679327.403858) can1 1A1#00100140000000
(1646679327.404086) can1 1C3#06BF06AA00000000
(1646679327.404366) can1 1ED#41900176014873F9
(1646679327.404594) can1 1EF#0000021D
(1646679327.408972) can1 0C7#00025D35
(1646679327.409199) can1 0F9#0000400000000AFF
(1646679327.409479) can1 199#0FFF0B82F47E00FF
(1646679327.415905) can1 0C9#8409980D00400800
(1646679327.416133) can1 191#06C006C006BF0000
(1646679327.416414) can1 1ED#41900176014873F9
(1646679327.416641) can1 1EF#0000021D
(1646679327.416922) can1 19D#80003FFE00096FFF
(1646679327.417149) can1 1AF#000000
(1646679327.417376) can1 1F5#0F0F000100000800
(1646679327.421432) can1 0C7#00025D35
(1646679327.421660) can1 0F9#0000400000000AFF
(1646679327.421889) can1 199#4FFF0B82F47D00FF
(1646679327.426370) can1 1E1#00FD130060
(1646679327.426598) can1 0F1#34850040
(1646679327.426825) can1 1F1#AE0E000008000078
(1646679327.427053) can1 4E9#8120
(1646679327.428444) can1 0C9#84099B0000400800
(1646679327.428672) can1 191#06C006C006C00000
(1646679327.428952) can1 1A1#00100140000000
(1646679327.429180) can1 1C3#06C006AB00000000
(1646679327.429480) can1 1ED#41900176014873F9
(1646679327.429707) can1 1EF#0000021B
(1646679327.430151) can1 2C3#095A06A0074F
(1646679327.430160) can1 2D1#000000000000
(1646679327.430371) can1 2D3#0303
(1646679327.430587) can1 3C1#0765480000000000
(1646679327.430798) can1 3D1#0112800000460000
(1646679327.434056) can1 0C7#00025D35
(1646679327.434284) can1 0F9#0000400000000AFF
(1646679327.434564) can1 199#8FFF0B82F47C00FF
(1646679327.434792) can1 3E9#0000000080004000
(1646679327.435073) can1 3F9#041340005506002A
(1646679327.435301) can1 3FB#0208
(1646679327.435528) can1 4C1#00BF876267000000
(1646679327.435755) can1 4D1#080030031E4000BB
(1646679327.435983) can1 4F1#022E022E00F400BB
(1646679327.436210) can1 772#00000000000000
(1646679327.440904) can1 0C9#84099B0700400800
(1646679327.441132) can1 191#06BF06BF06C00000
(1646679327.441412) can1 1ED#41900176014873F9
(1646679327.441639) can1 1EF#0000021B
(1646679327.442122) can1 19D#C0003FFD00097AFF
(1646679327.442350) can1 1AF#000000
(1646679327.442577) can1 1F5#0F0F000100000800
(1646679327.446425) can1 0C7#00025D35
(1646679327.446653) can1 0F9#0000400000000AFF
(1646679327.446880) can1 199#CFFF0B82F47B00FF
(1646679327.453403) can1 0C9#84099C0A00400800
(1646679327.453632) can1 191#06BF06BF06BF0000
(1646679327.453912) can1 1A1#00100140000000
(1646679327.454140) can1 1C3#06BF06AB00000000
(1646679327.454438) can1 1ED#41900176014873F9
(1646679327.454666) can1 1EF#00000217
(1646679327.458825) can1 1E1#0000100000
(1646679327.459053) can1 0C7#00025D35
(1646679327.459280) can1 0F1#00850040
(1646679327.459508) can1 0F9#0000400000000AFF
(1646679327.459735) can1 1F1#AE0E000008000078
(1646679327.459966) can1 199#0FFF0B82F47E00FF
(1646679327.465954) can1 0C9#84099C0D00400800
(1646679327.466183) can1 191#06BF06BF06BF0000
(1646679327.466463) can1 1ED#41900174014873F9
(1646679327.466691) can1 1EF#00000217
(1646679327.467011) can1 19D#00000000000981FF
(1646679327.467239) can1 1AF#000000
(1646679327.467466) can1 1F5#0F0F000100000800
(1646679327.471433) can1 0C7#00025D35
(1646679327.471661) can1 0F9#0000400000000AFF
(1646679327.471941) can1 199#4FFF0B82F47D00FF
(1646679327.478833) can1 0C9#84098E0000400800
(1646679327.479060) can1 191#06BF06BF06BF0000
(1646679327.479342) can1 1A1#00100140000000
(1646679327.479570) can1 1C3#06BF06AA00000000
(1646679327.479850) can1 1ED#41900174014873F9
(1646679327.480105) can1 1EF#00000218
(1646679327.480330) can1 2C3#095A06A0074F
(1646679327.480558) can1 2D1#000000000000
(1646679327.480785) can1 2D3#0303
(1646679327.484032) can1 0C7#00025D35
(1646679327.484260) can1 0F9#0000400000000AFF
(1646679327.484487) can1 199#8FFF0B82F47C00FF
(1646679327.490903) can1 0C9#84098E0700400800
(1646679327.491131) can1 191#06BF06BF06BF0000
(1646679327.491412) can1 1ED#41900173014873F9
(1646679327.491639) can1 1E1#00FF110020
(1646679327.491887) can1 1EF#00000218
(1646679327.491990) can1 0F1#1C850040
(1646679327.492218) can1 19D#40003FFF00097FFF
(1646679327.492445) can1 1F1#AE0E000008000078
(1646679327.492673) can1 1AF#000000
(1646679327.492900) can1 1F5#0F0F000100000800
(1646679327.496482) can1 0C7#00025D35
(1646679327.496710) can1 0F9#0000400000000AFF
(1646679327.499902) can1 199#CFFF0B82F47B00FF
(1646679327.503854) can1 0C9#8409850A00400800
(1646679327.504082) can1 191#06BF06BF06BF0000
(1646679327.504363) can1 1A1#00100140000000
(1646679327.504590) can1 1C3#06BF06AB00000000
(1646679327.504871) can1 1ED#41900173014873F9
(1646679327.505098) can1 1EF#0000021A
(1646679327.508990) can1 0C7#00025D35
(1646679327.509218) can1 0F9#0000400000000AFF
(1646679327.509445) can1 199#0FFF0B82F47E00FF
(1646679327.515903) can1 0C9#8409850D00400800
(1646679327.516131) can1 191#06C006C006BF0000
(1646679327.516411) can1 1ED#41900173014873F9
(1646679327.516639) can1 1EF#0000021A
(1646679327.516922) can1 19D#80003FFE000971FF
(1646679327.517149) can1 1AF#000000
(1646679327.517377) can1 1F5#0F0F000100000800
(1646679327.521455) can1 0C7#00025D35
(1646679327.521685) can1 0F9#0000400000000AFF
(1646679327.521912) can1 199#4FFF0B82F47D00FF
(1646679327.523931) can1 1E1#00FE120040
(1646679327.524158) can1 0F1#28850040
(1646679327.524386) can1 1F1#AE0E000008000078
(1646679327.524613) can1 1F3#0020
(1646679327.528787) can1 0C9#8409840000400800
(1646679327.529015) can1 191#06C006C006C00000
(1646679327.529296) can1 1A1#00100140000000
(1646679327.529523) can1 1C3#06C006AD00000000
(1646679327.529804) can1 1ED#41900173014873F9
(1646679327.530047) can1 1EF#00000217
(1646679327.530275) can1 2C3#095806A0074F
(1646679327.530502) can1 2D1#000000000000
(1646679327.530730) can1 2D3#0303
(1646679327.530958) can1 3C1#0765480000000000
(1646679327.531185) can1 3D1#0112800000450000
(1646679327.534020) can1 0C7#00025D35
(1646679327.534248) can1 0F9#0000400000000AFF
(1646679327.534475) can1 199#8FFF0B82F47C00FF
(1646679327.534760) can1 3E9#0000000080004000
(1646679327.540903) can1 0C9#8409840700400800
(1646679327.541130) can1 191#06C106C206C00000
(1646679327.541411) can1 1ED#41900174014873F9
(1646679327.541638) can1 1EF#00000217
(1646679327.541995) can1 19D#C0003FFD000974FF
(1646679327.542223) can1 1AF#000000
(1646679327.542450) can1 1F5#0F0F000100000800
(1646679327.546444) can1 0C7#00025D35
(1646679327.546725) can1 0F9#0000400000000AFF
(1646679327.546953) can1 199#CFFF0B82F47B00FF
(1646679327.553405) can1 0C9#8409900A00400800
(1646679327.553633) can1 191#06C106C206C20000
(1646679327.553914) can1 1A1#00100140000000
(1646679327.554141) can1 1C3#06C106AE00000000
(1646679327.554437) can1 1ED#41900172014873F9
(1646679327.554665) can1 1EF#00000213
(1646679327.556374) can1 1E1#00FD130060
(1646679327.556603) can1 0F1#34850040
(1646679327.556830) can1 1F1#AE0E000008000078
(1646679327.559041) can1 0C7#00025D35
(1646679327.559269) can1 0F9#0000400000000AFF
(1646679327.559496) can1 199#0FFF0B82F47E00FF
(1646679327.565901) can1 0C9#8409900D00400800
(1646679327.566129) can1 191#06C106C006C20000
(1646679327.566410) can1 1ED#41900173014873F9
(1646679327.566637) can1 1EF#00000213
(1646679327.567014) can1 19D#00000000000965FF
(1646679327.567243) can1 1AF#000000
(1646679327.567470) can1 1F5#0F0F000100000800
(1646679327.567698) can1 4C9#40770000
(1646679327.567925) can1 77F#00000000000000
(1646679327.571448) can1 0C7#00025D35
(1646679327.571676) can1 0F9#0000400000000AFF
(1646679327.571903) can1 199#4FFF0B82F47D00FF
(1646679327.578443) can1 0C9#8409990000400800
(1646679327.578671) can1 191#06C106C006C00000
(1646679327.578952) can1 1A1#00100140000000
(1646679327.579232) can1 1C3#06C106AD00000000
(1646679327.579460) can1 1ED#41900173014873F9
(1646679327.579689) can1 1EF#00000218
(1646679327.579903) can1 2C3#095906A00750
(1646679327.580153) can1 2D1#000000000000
(1646679327.580380) can1 2D3#0303
(1646679327.584044) can1 0C7#00025D35
(1646679327.584272) can1 0F9#0000400000000AFF
(1646679327.584499) can1 199#8FFF0B82F47C00FF
(1646679327.588896) can1 1E1#0000100000
(1646679327.589124) can1 0F1#00850040
(1646679327.589352) can1 1F1#AE0E000008000078
(1646679327.591002) can1 0C9#8409990700400800
(1646679327.591229) can1 191#06BF06BF06C00000
(1646679327.591510) can1 1ED#41900176014873F9
(1646679327.591737) can1 1EF#00000218
(1646679327.591965) can1 19D#40003FFF00096BFF
(1646679327.592192) can1 1AF#000000
(1646679327.592419) can1 1F5#0F0F000100000800
(1646679327.596506) can1 0C7#00025D35
(1646679327.596734) can1 0F9#0000400000000AFF
(1646679327.596978) can1 199#CFFF0B82F47B00FF
(1646679327.603426) can1 0C9#8409AB0A00400800
(1646679327.603654) can1 191#06BF06BF06BF0000
(1646679327.603934) can1 1A1#00100140000000
(1646679327.604161) can1 1C3#06BF06AA00000000
(1646679327.604457) can1 1ED#41900176014873F9
(1646679327.604685) can1 1EF#0000021C
(1646679327.609001) can1 0C7#00025D35
(1646679327.609228) can1 0F9#0000400000000AFF
(1646679327.609456) can1 199#0FFF0B82F47E00FF
(1646679327.615906) can1 0C9#8409AB0D00400800
(1646679327.616134) can1 191#06BD06BD06BF0000
(1646679327.616873) can1 1ED#41900179015873F9
(1646679327.617101) can1 19D#80003FFE000972FF
(1646679327.617328) can1 1EF#0000021B
(1646679327.617556) can1 1AF#000000
(1646679327.617783) can1 1F5#0F0F000100000800
(1646679327.621463) can1 0C7#00025D35
(1646679327.621691) can1 1E1#00FF110020
(1646679327.621919) can1 0F1#1C850040
(1646679327.622167) can1 0F9#0000400000000AFF
(1646679327.622271) can1 1F3#4060
(1646679327.622499) can1 199#4FFF0B82F47D00FF
(1646679327.622726) can1 1F1#AE0E000008000078
(1646679327.628438) can1 0C9#8409C00000400800
(1646679327.628666) can1 191#06BD06BD06BD0000
(1646679327.628946) can1 1A1#00100140000000
(1646679327.629174) can1 1C3#06BD06A700000000
(1646679327.629454) can1 1ED#4190017A015873F9
(1646679327.629682) can1 1EF#0000021B
(1646679327.629901) can1 2C3#095B06A0074E
(1646679327.630141) can1 2D1#000000000000
(1646679327.630369) can1 2D3#0303
(1646679327.630596) can1 3C1#0765480000000000
(1646679327.630823) can1 3D1#0112800000450000
(1646679327.634022) can1 0C7#00025D35
(1646679327.634249) can1 0F9#0000400000000AFF
(1646679327.634530) can1 199#8FFF0B82F47C00FF
(1646679327.634810) can1 3E9#0000000080004000
(1646679327.641439) can1 0C9#8409C60700400800
(1646679327.641667) can1 191#06BA06BA06BD0000
(1646679327.641949) can1 1ED#4190017A014873F9
(1646679327.642176) can1 19D#C0003FFD000983FF
(1646679327.642404) can1 1EF#00000214
(1646679327.642631) can1 1AF#000000
(1646679327.642859) can1 1F5#0F0F000100000800
(1646679327.646429) can1 0C7#00025D35
(1646679327.646657) can1 0F9#0000400000000AFF
(1646679327.646884) can1 199#CFFF0B82F47B00FF
(1646679327.653428) can1 0C9#8409C60A00400800
(1646679327.653656) can1 191#06BA06BA06BA0000
(1646679327.653936) can1 1A1#00100140000000
(1646679327.654164) can1 1C3#06BA06A300000000
(1646679327.654391) can1 1E1#00FE120040
(1646679327.654618) can1 0F1#28850040
(1646679327.654846) can1 1ED#41900177014873F9
(1646679327.655074) can1 1F1#AE0E000008000078
(1646679327.655301) can1 1EF#00000214
(1646679327.659047) can1 0C7#00025D35
(1646679327.659276) can1 0F9#0000400000000AFF
(1646679327.659503) can1 199#0FFF0B82F47E00FF
(1646679327.665916) can1 0C9#8409C20D00400800
(1646679327.666144) can1 191#06B806B806BA0000
(1646679327.666424) can1 1ED#41900177014873F9
(1646679327.666652) can1 1EF#0000020E
(1646679327.667013) can1 19D#00000000000985FF
(1646679327.667241) can1 1AF#000000
(1646679327.667468) can1 1F5#0F0F000100000800
(1646679327.671452) can1 0C7#00025D35
(1646679327.671679) can1 0F9#0000400000000AFF
(1646679327.671907) can1 199#4FFF0B82F47D00FF
(1646679327.678380) can1 0C9#8409C20000400800
(1646679327.678607) can1 191#06B806B806B80000
(1646679327.678887) can1 1A1#00100140000000
(1646679327.679115) can1 1C3#06B806A100000000
(1646679327.679395) can1 1ED#41900171014873F9
(1646679327.679622) can1 1EF#0000020E
(1646679327.679850) can1 2C3#095C06A0074D
(1646679327.680088) can1 2D1#000000000000
(1646679327.680316) can1 2D3#0303
(1646679327.684020) can1 0C7#00025D35
(1646679327.684249) can1 0F9#0000400000000AFF
(1646679327.684477) can1 199#8FFF0B82F47C00FF
(1646679327.684780) can1 3F9#04134800550A002B
(1646679327.685008) can1 3FB#0208
(1646679327.686441) can1 1E1#00FD130060
(1646679327.686668) can1 0F1#34850040
(1646679327.686895) can1 1F1#AE0E000008000078
(1646679327.690982) can1 0C9#8409B60700400800
(1646679327.691209) can1 191#06B706B706B80000
(1646679327.691490) can1 1ED#41900171014873F9
(1646679327.691717) can1 1EF#00000212
(1646679327.692050) can1 19D#40003FFF00099BFF
(1646679327.692277) can1 1AF#000000
(1646679327.692505) can1 1F5#0F0F000100000800
(1646679327.696471) can1 0C7#00025D35
(1646679327.696698) can1 0F9#0000400000000AFF
(1646679327.699902) can1 199#CFFF0B82F47B00FF
(1646679327.703387) can1 0C9#8409B60A00400800
(1646679327.703615) can1 191#06B706B706B70000
(1646679327.703896) can1 1A1#00100140000000
(1646679327.704125) can1 1C3#06B706A000000000
(1646679327.704406) can1 1ED#4190016F014873F9
(1646679327.704633) can1 1EF#00000212
(1646679327.709009) can1 0C7#00025D35
(1646679327.709237) can1 0F9#0000400000000AFF
(1646679327.709464) can1 199#0FFF0B82F47E00FF
(1646679327.715905) can1 0C9#8409AC0D00400800
(1646679327.716133) can1 191#06B806B806B70000
(1646679327.716413) can1 1ED#4190016F014073F9
(1646679327.716640) can1 1EF#00000214
(1646679327.716974) can1 19D#80003FFE000999FF
(1646679327.717202) can1 1AF#000000
(1646679327.717429) can1 1F5#0F0F000100000800
(1646679327.719029) can1 1E1#0000100000
(1646679327.719257) can1 0F1#00850040
(1646679327.719485) can1 1F1#AE0E000008000078
(1646679327.719712) can1 1F3#80A0
(1646679327.721510) can1 0C7#00025D35
(1646679327.721738) can1 0F9#0000400000000AFF
(1646679327.721966) can1 199#4FFF0B82F47D00FF
(1646679327.728353) can1 0C9#8409AC0000400800
(1646679327.728581) can1 191#06B806B806B80000
(1646679327.728861) can1 1A1#00100140000000
(1646679327.729089) can1 1C3#06B806A300000000
(1646679327.729369) can1 1ED#4190016C014073F9
(1646679327.729597) can1 1EF#00000214
(1646679327.729824) can1 2C3#095A06A0074D
(1646679327.730066) can1 2D1#000000000000
(1646679327.730293) can1 2D3#0303
(1646679327.730521) can1 3C1#0765480000000000
(1646679327.730748) can1 3D1#0112800000450000
(1646679327.734056) can1 0C7#00025D35
(1646679327.734284) can1 0F9#0000400000000AFF
(1646679327.734512) can1 199#8FFF0B82F47C00FF
(1646679327.734807) can1 3E9#0000000080004000
(1646679327.740906) can1 0C9#8409970700400800
(1646679327.741134) can1 191#06B906B906B80000
(1646679327.741414) can1 1ED#4190016C014873F9
(1646679327.741641) can1 1EF#00000214
(1646679327.742019) can1 19D#C0003FFD000996FF
(1646679327.742249) can1 1AF#000000
(1646679327.742477) can1 1F5#0F0F000100000800
(1646679327.746450) can1 0C7#00025D35
(1646679327.746678) can1 0F9#0000400000000AFF
(1646679327.746905) can1 199#CFFF0B82F47B00FF
(1646679327.751470) can1 1E1#00FF110020
(1646679327.751698) can1 0F1#1C850040
(1646679327.751925) can1 1F1#AE0E000008000078
(1646679327.753479) can1 0C9#8409970A00400800
(1646679327.753708) can1 191#06B906B906B90000
(1646679327.753988) can1 1A1#00100140000000
(1646679327.754216) can1 1C3#06B906A500000000
(1646679327.754511) can1 1ED#4190015F014073F9
(1646679327.754739) can1 1EF#00000214
(1646679327.759057) can1 0C7#00025D35
(1646679327.759285) can1 0F9#0000400000000AFF
(1646679327.759513) can1 199#0FFF0B82F47E00FF
(1646679327.765909) can1 0C9#8409800D00400800
(1646679327.766136) can1 191#06BB06BB06B90000
(1646679327.766417) can1 1ED#4190015F014073F9
(1646679327.766645) can1 1EF#00000219
(1646679327.767028) can1 19D#00000000000981FF
(1646679327.767256) can1 1AF#000000
(1646679327.767484) can1 1F5#0F0F000100000800
(1646679327.771463) can1 0C7#00025D35
(1646679327.771691) can1 0F9#0000400000000AFF
(1646679327.771918) can1 199#4FFF0B82F47D00FF
(1646679327.778458) can1 0C9#8409800000400800
(1646679327.778686) can1 191#06BB06BB06BB0000
(1646679327.778966) can1 1A1#00100140000000
(1646679327.779194) can1 1C3#06BB06A800000000
(1646679327.779475) can1 1ED#41900161014073F9
(1646679327.779702) can1 1EF#00000219
(1646679327.779902) can1 2C3#095606A0074E
(1646679327.780158) can1 2D1#000000000000
(1646679327.780386) can1 2D3#0303
(1646679327.783994) can1 1E1#00FE120040
(1646679327.784222) can1 0C7#00025D35
(1646679327.784450) can1 0F1#28850040
(1646679327.784677) can1 0F9#0000400000000AFF
(1646679327.784906) can1 1F1#AE0E000008000078
(1646679327.785134) can1 199#8FFF0B82F47C00FF
(1646679327.790960) can1 0C9#84097B0700400800
(1646679327.791187) can1 191#06BE06BE06BB0000
(1646679327.791468) can1 1ED#41900161014873F9
(1646679327.791695) can1 1EF#0000021D
(1646679327.792008) can1 19D#40003FFF00098AFF
(1646679327.792235) can1 1AF#000000
(1646679327.792463) can1 1F5#0F0F000100000800
(1646679327.796467) can1 0C7#00025D35
(1646679327.796695) can1 0F9#0000400000000AFF
(1646679327.796923) can1 199#CFFF0B82F47B00FF
(1646679327.803516) can1 0C9#84097B0A00400800
(1646679327.803797) can1 191#06BE06BE06BE0000
(1646679327.804025) can1 1A1#00100140000000
(1646679327.804305) can1 1C3#06BE06AD00000000
(1646679327.804532) can1 1ED#41900160014073F9
(1646679327.804760) can1 1EF#0000021D
(1646679327.809014) can1 0C7#00025D35
(1646679327.809242) can1 0F9#0000400000000AFF
(1646679327.809471) can1 199#0FFF0B82F47E00FF
(1646679327.815902) can1 0C9#8409750D00400800
(1646679327.816130) can1 191#06C006C006BE0000
(1646679327.816411) can1 1ED#41900160014873F9
(1646679327.816638) can1 1EF#0000021C
(1646679327.816944) can1 19D#80003FFE000969FF
(1646679327.817172) can1 1E1#00FD130060
(1646679327.817420) can1 1AF#000000
(1646679327.817523) can1 0F1#34850040
(1646679327.817751) can1 1F5#0F0F000100000800
(1646679327.817978) can1 1F1#AE0E000008000078
(1646679327.818206) can1 1F3#C0E0
(1646679327.821556) can1 0C7#00025D35
(1646679327.821784) can1 0F9#0000400000000AFF
(1646679327.822012) can1 199#4FFF0B82F47D00FF
(1646679327.828496) can1 0C9#8409750000400800
(1646679327.828724) can1 191#06C006C006C00000
(1646679327.829005) can1 1A1#00100140000000
(1646679327.829232) can1 1C3#06C006AF00000000
(1646679327.829527) can1 1ED#41900163014873F9
(1646679327.829757) can1 1EF#0000021C
(1646679327.830000) can1 2C3#095406A00750
(1646679327.830229) can1 2D1#000000000000
(1646679327.830456) can1 2D3#0303
(1646679327.830683) can1 3C1#0765480000000000
(1646679327.830910) can1 3D1#0112800000560000
(1646679327.834043) can1 0C7#00025D35
(1646679327.834271) can1 0F9#0000400000000AFF
(1646679327.834498) can1 199#8FFF0B82F47C00FF
(1646679327.834794) can1 3E9#0000000080004000
(1646679327.840908) can1 0C9#8409790700400800
(1646679327.841136) can1 191#06C206C206C00000
(1646679327.841416) can1 1ED#41900163014873F9
(1646679327.841644) can1 1EF#0000021D
(1646679327.842016) can1 19D#C0003FFD00096DFF
(1646679327.842244) can1 1AF#000000
(1646679327.842471) can1 1F5#0F0F000100000800
(1646679327.846472) can1 0C7#00025D35
(1646679327.846699) can1 0F9#0000400000000AFF
(1646679327.846927) can1 199#CFFF0B82F47B00FF
(1646679327.849056) can1 1E1#0000100000
(1646679327.849283) can1 0F1#00850040
(1646679327.849510) can1 1F1#AE0E000008000078
(1646679327.853595) can1 0C9#8409790A00400800
(1646679327.853823) can1 191#06C206C206C20000
(1646679327.854103) can1 1A1#00100140000000
(1646679327.854331) can1 1C3#06C206B000000000
(1646679327.854612) can1 1ED#4190015F014873F9
(1646679327.854839) can1 1EF#0000021D
(1646679327.859030) can1 0C7#00025D35
(1646679327.859258) can1 0F9#0000400000000AFF
(1646679327.859485) can1 199#0FFF0B82F47E00FF
(1646679327.865903) can1 0C9#8409600D00400800
(1646679327.866131) can1 191#06C206C206C20000
(1646679327.866411) can1 1ED#4190015F014873F9
(1646679327.866638) can1 1EF#0000021B
(1646679327.866978) can1 19D#0000000000096DFF
(1646679327.867206) can1 1AF#000000
(1646679327.867433) can1 1F5#0F0F000100000800
(1646679327.871487) can1 0C7#00025D35
(1646679327.871716) can1 0F9#0000400000000AFF
(1646679327.871943) can1 199#4FFF0B82F47D00FF
(1646679327.878407) can1 0C9#8409600000400800
(1646679327.878635) can1 191#06C206C206C20000
(1646679327.878915) can1 1A1#00100140000000
(1646679327.879143) can1 1C3#06C206B000000000
(1646679327.879423) can1 1ED#4190015D014073F9
(1646679327.879651) can1 1EF#0000021B
(1646679327.879878) can1 2C3#095506A00750
(1646679327.880122) can1 2D1#000000000000
(1646679327.880350) can1 2D3#0303
(1646679327.881577) can1 1E1#00FF110020
(1646679327.881805) can1 0F1#1C850040
(1646679327.882032) can1 1F1#AE0E000008000078
(1646679327.884114) can1 0C7#00025D35
(1646679327.884341) can1 0F9#0000400000000AFF
(1646679327.884569) can1 199#8FFF0B82F47C00FF
(1646679327.890905) can1 0C9#8409440700400800
(1646679327.891133) can1 191#06C406C406C20000
(1646679327.891413) can1 1ED#4190015D014073F9
(1646679327.891641) can1 1EF#0000021D
(1646679327.892061) can1 19D#40003FFF00094DFF
(1646679327.892288) can1 1AF#000000
(1646679327.892516) can1 1F5#0F0F000100000800
(1646679327.896480) can1 0C7#00025D35
(1646679327.896708) can1 0F9#0000400000000AFF
(1646679327.896935) can1 199#CFFF0B82F47B00FF
(1646679327.903409) can1 0C9#8409440A00400800
(1646679327.903637) can1 191#06C406C406C40000
(1646679327.903917) can1 1A1#00100140000000
(1646679327.904144) can1 1C3#06C406B300000000
(1646679327.904439) can1 1ED#4190015E014073F9
(1646679327.904667) can1 1EF#0000021D
(1646679327.909032) can1 0C7#00025D35
(1646679327.909260) can1 0F9#0000400000000AFF
(1646679327.909487) can1 199#0FFF0B82F47E00FF
(1646679327.914161) can1 1E1#00FE120040
(1646679327.914389) can1 0F1#28850040
(1646679327.914617) can1 1F1#AE0E000008000078
(1646679327.914844) can1 1F3#0020
(1646679327.915981) can1 0C9#8409370D00400800
(1646679327.916209) can1 191#06C706C706C40000
(1646679327.916489) can1 1ED#4190015E014073F9
(1646679327.916716) can1 1EF#0000021F
(1646679327.917011) can1 19D#80003FFE000941FF
(1646679327.917239) can1 1AF#000000
(1646679327.917466) can1 1F5#0F0F000100000800
(1646679327.921572) can1 0C7#00025D35
(1646679327.921800) can1 0F9#0000400000000AFF
(1646679327.922027) can1 199#4FFF0B82F47D00FF
(1646679327.928351) can1 0C9#8409370000400800
(1646679327.928579) can1 191#06C706C706C70000
(1646679327.928859) can1 1A1#00100140000000
(1646679327.929086) can1 1C3#06C706B800000000
(1646679327.929402) can1 1ED#41900162014873F9
(1646679327.929629) can1 1EF#0000021F
(1646679327.929857) can1 2C3#095206A00751
(1646679327.930100) can1 2D1#000000000000
(1646679327.930328) can1 2D3#0303
(1646679327.930555) can1 3C1#0765480000000000
(1646679327.930784) can1 3D1#0112800000440000
(1646679327.934062) can1 0C7#00025D35
(1646679327.934289) can1 0F9#0000400000000AFF
(1646679327.934517) can1 199#8FFF0B82F47C00FF
(1646679327.934812) can1 3E9#0000000080004000
(1646679327.935040) can1 3F9#04134D00550A002F
(1646679327.935268) can1 3FB#0208
(1646679327.935495) can1 4C1#00BF876267000000
(1646679327.935722) can1 4D1#08002F031E4000BB
(1646679327.940908) can1 0C9#8409570700400800
(1646679327.941136) can1 191#06CA06CA06C70000
(1646679327.941416) can1 1ED#41900162014873F9
(1646679327.941644) can1 1EF#00000221
(1646679327.942142) can1 19D#C0003FFD00092AFF
(1646679327.942370) can1 1AF#000000
(1646679327.942597) can1 1F5#0F0F000100000800
(1646679327.946485) can1 0C7#00025D35
(1646679327.946712) can1 1E1#00FD130060
(1646679327.946939) can1 0F1#34850040
(1646679327.947167) can1 0F9#0000400000000AFF
(1646679327.947396) can1 1F1#AE0E000008000078
(1646679327.947623) can1 199#CFFF0B82F47B00FF
(1646679327.953482) can1 0C9#8409570A00400800
(1646679327.953710) can1 191#06CA06CA06CA0000
(1646679327.953991) can1 1A1#00100140000000
(1646679327.954271) can1 1C3#06CA06BB00000000
(1646679327.954499) can1 1ED#4190016A015873F9
(1646679327.954726) can1 1EF#00000221
(1646679327.959044) can1 0C7#00025D35
(1646679327.959272) can1 0F9#0000400000000AFF
(1646679327.959499) can1 199#0FFF0B82F47E00FF
(1646679327.965903) can1 0C9#84096B0D00400800
(1646679327.966131) can1 191#06CB06CB06CA0000
(1646679327.966411) can1 1ED#4190016A015873F9
(1646679327.966638) can1 1EF#00000222
(1646679327.967023) can1 19D#0000000000092EFF
(1646679327.967250) can1 1AF#000000
(1646679327.967478) can1 1F5#0F0F000100000800
(1646679327.971498) can1 0C7#00025D35
(1646679327.971726) can1 0F9#0000400000000AFF
(1646679327.971955) can1 199#4FFF0B82F47D00FF
(1646679327.978404) can1 0C9#84096B0000400800
(1646679327.978632) can1 191#06CB06CB06CB0000
(1646679327.978912) can1 1A1#00100140000000
(1646679327.979140) can1 1C3#06CB06B800000000
(1646679327.979420) can1 1ED#4190016A015873F9
(1646679327.979647) can1 1E1#0000100000
(1646679327.979903) can1 0F1#00850040
(1646679327.980000) can1 1EF#00000222
(1646679327.980236) can1 1F1#AE0E000008000078
(1646679327.980441) can1 2C3#095506A00753
(1646679327.980651) can1 2D1#000000000000
(1646679327.980860) can1 2D3#0303
(1646679327.984122) can1 0C7#00025D35
(1646679327.984350) can1 0F9#0000400000000AFF
(1646679327.984578) can1 199#8FFF0B82F47C00FF
(1646679327.990904) can1 0C9#84096C0700400800
(1646679327.991132) can1 191#06C906C906CB0000
(1646679327.991412) can1 1ED#4190016A014873F9
(1646679327.991640) can1 1EF#0000021D
(1646679327.992092) can1 19D#40003FFF000917FF
(1646679327.992320) can1 1AF#000000
(1646679327.992547) can1 1F5#0F0F000100000800
(1646679327.996499) can1 0C7#00025D35
(1646679327.996727) can1 0F9#0000400000000AFF
(1646679327.999902) can1 199#CFFF0B82F47B00FF
(1646679328.003519) can1 0C9#84096C0A00400800
(1646679328.003747) can1 191#06C906C906C90000
(1646679328.004028) can1 1A1#00100140000000
(1646679328.004255) can1 1C3#06C906B400000000
(1646679328.004535) can1 1ED#4190016E015873F9
(1646679328.004762) can1 1EF#0000021D
(1646679328.009051) can1 0C7#00025D35
(1646679328.009279) can1 0F9#0000400000000AFF
(1646679328.009507) can1 199#0FFF0B82F47E00FF
(1646679328.011643) can1 1E1#00FF110020
(1646679328.011871) can1 0F1#1C850040
(1646679328.012099) can1 1F1#AE0E000008000078
(1646679328.015982) can1 0C9#8409840D00400800
(1646679328.016210) can1 191#06C706C706C90000
(1646679328.016493) can1 1ED#4190016E014873F9
(1646679328.016720) can1 1EF#0000021D
(1646679328.017056) can1 19D#80003FFE000927FF
(1646679328.017284) can1 1AF#000000
(1646679328.017512) can1 1F5#0F0F000100000800
(1646679328.021498) can1 0C7#00025D35
(1646679328.021725) can1 0F9#0000400000000AFF
(1646679328.021952) can1 199#4FFF0B82F47D00FF
(1646679328.028424) can1 0C9#8409840000400800
(1646679328.028652) can1 191#06C706C706C70000
(1646679328.028932) can1 1A1#00100140000000
(1646679328.029159) can1 1C3#06C706B300000000
(1646679328.029440) can1 1ED#4190016F015873F9
(1646679328.029668) can1 1EF#0000021D
(1646679328.029902) can1 2C3#095806A00750
(1646679328.030117) can1 2D1#000000000000
(1646679328.030330) can1 2D3#0303
(1646679328.030540) can1 3C1#0765480000000000
(1646679328.030749) can1 3D1#0112800000420000
(1646679328.034068) can1 0C7#00025D35
(1646679328.034299) can1 0F9#0000400000000AFF
(1646679328.034526) can1 199#8FFF0B82F47C00FF
(1646679328.034806) can1 3E9#0000000080004000
(1646679328.040906) can1 0C9#84098D0700400800
(1646679328.041134) can1 191#06C606C606C70000
(1646679328.041414) can1 1ED#4190016F014873F9
(1646679328.041642) can1 1EF#0000021F
(1646679328.042088) can1 19D#C0003FFD000933FF
(1646679328.042316) can1 1AF#000000
(1646679328.042543) can1 1F5#0F0F000100000800
(1646679328.044155) can1 1E1#00FE120040
(1646679328.044383) can1 0F1#28850040
(1646679328.044610) can1 1F1#AE0E000008000078
(1646679328.046505) can1 0C7#00025D35
(1646679328.046733) can1 0F9#0000400000000AFF
(1646679328.047014) can1 199#CFFF0B82F47B00FF
(1646679328.053404) can1 0C9#84098D0A00400800
(1646679328.053632) can1 191#06C606C606C60000
(1646679328.053912) can1 1A1#00100140000000
(1646679328.054140) can1 1C3#06C606B000000000
(1646679328.054422) can1 1ED#41900172015873F9
(1646679328.054649) can1 1EF#0000021F
(1646679328.059041) can1 0C7#00025D35
(1646679328.059323) can1 0F9#0000400000000AFF
(1646679328.059550) can1 199#0FFF0B82F47E00FF
(1646679328.065906) can1 0C9#84099E0D00400800
(1646679328.066134) can1 191#06C406C406C60000
(1646679328.066415) can1 1ED#41900172014873F9
(1646679328.066642) can1 1EF#00000221
(1646679328.067043) can1 19D#00000000000940FF
(1646679328.067270) can1 1AF#000000
(1646679328.067498) can1 1F5#0F0F000100000800
(1646679328.067725) can1 4C9#40770000
(1646679328.071469) can1 0C7#00025D35
(1646679328.071697) can1 0F9#0000400000000AFF
(1646679328.071924) can1 199#4FFF0B82F47D00FF
(1646679328.076670) can1 1E1#00FD130060
(1646679328.076898) can1 0F1#34850040
(1646679328.077125) can1 1F1#AE0E000008000078
(1646679328.078563) can1 0C9#84099E0000400800
(1646679328.078792) can1 191#06C406C406C40000
(1646679328.079072) can1 1A1#00100140000000
(1646679328.079299) can1 1C3#06C406AD00000000
(1646679328.079579) can1 1ED#41900174015873F9
(1646679328.079806) can1 1EF#00000221
(1646679328.080048) can1 2C3#095B06A0074F
(1646679328.080276) can1 2D1#000000000000
(1646679328.080503) can1 2D3#0303
(1646679328.084105) can1 0C7#00025D35
(1646679328.084333) can1 0F9#0000400000000AFF
(1646679328.084560) can1 199#8FFF0B82F47C00FF
(1646679328.090853) can1 0C9#8409AF0700400800
(1646679328.091080) can1 191#06C106C106C40000
(1646679328.091361) can1 1ED#41900174015873F9
(1646679328.091588) can1 1EF#0000021E
(1646679328.092085) can1 19D#40003FFF00093EFF
(1646679328.092313) can1 1AF#000000
(1646679328.092540) can1 1F5#0F0F000100000800
(1646679328.096493) can1 0C7#00025D35
(1646679328.096721) can1 0F9#0000400000000AFF
(1646679328.096951) can1 199#CFFF0B82F47B00FF
(1646679328.103409) can1 0C9#8409AF0A00400800
(1646679328.103637) can1 191#06C106C106C10000
(1646679328.103917) can1 1A1#00100140000000
(1646679328.104145) can1 1C3#06C106A900000000
(1646679328.104425) can1 1ED#41900173014873F9
(1646679328.104653) can1 1EF#0000021E
(1646679328.108950) can1 1F3#4060
(1646679328.109177) can1 0C7#00025D35
(1646679328.109404) can1 0F9#0000400000000AFF
(1646679328.109632) can1 1E1#0000100000
(1646679328.109859) can1 0F1#00850040
(1646679328.110101) can1 199#0FFF0B82F47E00FF
(1646679328.110328) can1 1F1#AE0E000008000078
(1646679328.115960) can1 0C9#8409A70D00400800
(1646679328.116188) can1 191#06BF06BF06C10000
(1646679328.116468) can1 1ED#41900173014873F9
(1646679328.116695) can1 1EF#0000021D
(1646679328.117073) can1 19D#80003FFE000962FF
(1646679328.117300) can1 1AF#000000
(1646679328.117529) can1 1F5#0F0F000100000800
(1646679328.121494) can1 0C7#00025D35
(1646679328.121723) can1 0F9#0000400000000AFF
(1646679328.121950) can1 199#4FFF0B82F47D00FF
(1646679328.128352) can1 0C9#8409A70000400800
(1646679328.128580) can1 191#06BF06BF06BF0000
(1646679328.128860) can1 1A1#00100140000000
(1646679328.129088) can1 1C3#06BF06A600000000
(1646679328.129369) can1 1ED#4190016F014873F9
(1646679328.129596) can1 1EF#0000021D
(1646679328.129823) can1 2C3#095F06A0074E
(1646679328.130106) can1 2D1#000000000000
(1646679328.130209) can1 2D3#0303
(1646679328.130437) can1 3C1#0765480000000000
(1646679328.130664) can1 3D1#0112800000460000
(1646679328.134069) can1 0C7#00025D35
(1646679328.134297) can1 0F9#0000400000000AFF
(1646679328.134580) can1 199#8FFF0B82F47C00FF
(1646679328.134808) can1 3E9#0000000080004000
(1646679328.140906) can1 0C9#84098E0700400800
(1646679328.141136) can1 191#06BF06BF06BF0000
(1646679328.141417) can1 1ED#4190016F014073F9
(1646679328.141644) can1 1EF#0000021B
(1646679328.142060) can1 19D#C0003FFD00096DFF
(1646679328.142288) can1 1E1#00FF110020
(1646679328.142536) can1 0F1#1C850040
(1646679328.142639) can1 1AF#000000
(1646679328.142866) can1 1F1#AE0E000008000078
(1646679328.143094) can1 1F5#0F0F000100000800
(1646679328.146538) can1 0C7#00025D35
(1646679328.146766) can1 0F9#0000400000000AFF
(1646679328.146993) can1 199#CFFF0B82F47B00FF
(1646679328.153407) can1 0C9#84098E0A00400800
(1646679328.153636) can1 191#06BF06BF06BF0000
(1646679328.153916) can1 1A1#00100140000000
(1646679328.154144) can1 1C3#06BF06A700000000
(1646679328.154424) can1 1ED#4190016D014073F9
(1646679328.154652) can1 1EF#0000021B
(1646679328.159052) can1 0C7#00025D35
(1646679328.159280) can1 0F9#0000400000000AFF
(1646679328.159508) can1 199#0FFF0B82F47E00FF
(1646679328.165907) can1 0C9#84097F0D00400800
(1646679328.166135) can1 191#06C106C106BF0000
(1646679328.166415) can1 1ED#4190016D014073F9
(1646679328.166642) can1 1EF#0000021B
(1646679328.167043) can1 19D#0000000000096DFF
(1646679328.167271) can1 1AF#000000
(1646679328.167498) can1 1F5#0F0F000100000800
(1646679328.171501) can1 0C7#00025D35
(1646679328.171729) can1 0F9#0000400000000AFF
(1646679328.171957) can1 199#4FFF0B82F47D00FF
(1646679328.174229) can1 1E1#00FE120040
(1646679328.174457) can1 0F1#28850040
(1646679328.174684) can1 1F1#AE0E000008000078
(1646679328.178485) can1 0C9#84097F0000400800
(1646679328.178713) can1 191#06C106C106C10000
(1646679328.179016) can1 1A1#00100140000000
(1646679328.179244) can1 1C3#06C106AC00000000
(1646679328.179471) can1 1ED#4190016C014073F9
(1646679328.179699) can1 1EF#0000021B
(1646679328.179903) can1 2C3#095B06A0074E
(1646679328.180158) can1 2D1#000000000000
(1646679328.180386) can1 2D3#0303
(1646679328.184082) can1 0C7#00025D35
(1646679328.184310) can1 0F9#0000400000000AFF
(1646679328.184537) can1 199#8FFF0B82F47C00FF
(1646679328.184818) can1 3F9#04135000550A002A
(1646679328.185045) can1 3FB#0208
(1646679328.190975) can1 0C9#84097B0700400800
(1646679328.191407) can1 191#06C306C306C10000
(1646679328.191634) can1 1ED#4190016C014873F9
(1646679328.191862) can1 1EF#0000021C
(1646679328.192089) can1 19D#40003FFF000979FF
(1646679328.192317) can1 1AF#000000
(1646679328.192544) can1 1F5#0F0F000100000800
(1646679328.196507) can1 0C7#00025D35
(1646679328.196734) can1 0F9#0000400000000AFF
(1646679328.196962) can1 199#CFFF0B82F47B00FF
(1646679328.203406) can1 0C9#84097B0A00400800
(1646679328.203634) can1 191#06C306C306C30000
(1646679328.203916) can1 1A1#00100140000000
(1646679328.204143) can1 1C3#06C306AF00000000
(1646679328.204423) can1 1ED#4190016C014873F9
(1646679328.204650) can1 1EF#0000021C
(1646679328.206740) can1 1E1#00FD130060
(1646679328.206968) can1 0F1#34850040
(1646679328.207195) can1 1F1#AE0E000008000078
(1646679328.209069) can1 0C7#00025D35
(1646679328.209297) can1 0F9#0000400000000AFF
(1646679328.209524) can1 199#0FFF0B82F47E00FF
(1646679328.216370) can1 0C9#84097A0D00400800
(1646679328.216598) can1 191#06C406C406C30000
(1646679328.216878) can1 1ED#4190016F014873F9
(1646679328.217106) can1 19D#80003FFE000959FF
(1646679328.217333) can1 1EF#00000217
(1646679328.217560) can1 1AF#000000
(1646679328.217788) can1 1F5#0F0F000100000800
(1646679328.221494) can1 0C7#00025D35
(1646679328.221721) can1 0F9#0000400000000AFF
(1646679328.221949) can1 199#4FFF0B82F47D00FF
(1646679328.228354) can1 0C9#84097A0000400800
(1646679328.228581) can1 191#06C406C406C40000
(1646679328.228862) can1 1A1#00100140000000
(1646679328.229089) can1 1C3#06C406B000000000
(1646679328.229369) can1 1ED#4190016D014873F9
(1646679328.229597) can1 1EF#00000217
(1646679328.229825) can1 2C3#095A06A00750
(1646679328.230069) can1 2D1#000000000000
(1646679328.230297) can1 2D3#0303
(1646679328.230525) can1 3C1#0765480000000000
(1646679328.230753) can1 3D1#0112800000430000
(1646679328.234094) can1 0C7#00025D35
(1646679328.234322) can1 0F9#0000400000000AFF
(1646679328.234549) can1 199#8FFF0B82F47C00FF
(1646679328.234845) can1 3E9#0000000080004000
(1646679328.239257) can1 1E1#0000100000
(1646679328.239485) can1 0F1#00850040
(1646679328.239712) can1 1F1#AE0E000008000078
(1646679328.241434) can1 0C9#8409710700400800
(1646679328.241662) can1 191#06C406C406C40000
(1646679328.241944) can1 1ED#4190016D014873F9
(1646679328.242171) can1 19D#C0003FFD000983FF
(1646679328.242399) can1 1EF#00000217
(1646679328.242626) can1 1AF#000000
(1646679328.242854) can1 1F5#0F0F000100000800
(1646679328.246553) can1 0C7#00025D35
(1646679328.246781) can1 0F9#0000400000000AFF
(1646679328.247009) can1 199#CFFF0B82F47B00FF
(1646679328.253406) can1 0C9#8409710A00400800
(1646679328.253634) can1 191#06C406C406C40000
(1646679328.253914) can1 1A1#00100140000000
(1646679328.254142) can1 1C3#06C406B000000000
(1646679328.254422) can1 1ED#4190016A014073F9
(1646679328.254649) can1 1EF#00000217
(1646679328.259063) can1 0C7#00025D35
(1646679328.259291) can1 0F9#0000400000000AFF
(1646679328.259519) can1 199#0FFF0B82F47E00FF
(1646679328.265907) can1 0C9#84095A0D00400800
(1646679328.266135) can1 191#06C506C506C40000
(1646679328.266467) can1 1ED#4190016A014073F9
(1646679328.266696) can1 1EF#00000219
(1646679328.267008) can1 19D#0000000000095FFF
(1646679328.267236) can1 1AF#000000
(1646679328.267463) can1 1F5#0F0F000100000800
(1646679328.271514) can1 0C7#00025D35
(1646679328.271742) can1 0F9#0000400000000AFF
(1646679328.271969) can1 1E1#00FF110020
(1646679328.272196) can1 0F1#1C850040
(1646679328.272423) can1 199#4FFF0B82F47D00FF
(1646679328.272650) can1 1F1#AE0E000008000078
(1646679328.278482) can1 0C9#84095A0000400800
(1646679328.278710) can1 191#06C506C506C50000
(1646679328.278991) can1 1A1#00100140000000
(1646679328.279218) can1 1C3#06C506B100000000
(1646679328.279499) can1 1ED#41900168014073F9
(1646679328.279726) can1 1EF#00000219
(1646679328.279965) can1 2C3#095906A00750
(1646679328.280193) can1 2D1#000000000000
(1646679328.280421) can1 2D3#0303
(1646679328.284083) can1 0C7#00025D35
(1646679328.284313) can1 0F9#0000400000000AFF
(1646679328.284540) can1 199#8FFF0B82F47C00FF
(1646679328.290906) can1 0C9#84094E0700400800
(1646679328.291186) can1 191#06C806C806C50000
(1646679328.291414) can1 1ED#41900168014073F9
(1646679328.291642) can1 1EF#00000218
(1646679328.292009) can1 19D#40003FFF00094FFF
(1646679328.292237) can1 1AF#000000
(1646679328.292465) can1 1F5#0F0F000100000800
(1646679328.296533) can1 0C7#00025D35
(1646679328.296761) can1 0F9#0000400000000AFF
(1646679328.299902) can1 199#CFFF0B82F47B00FF
(1646679328.303409) can1 0C9#84094E0A00400800
(1646679328.303637) can1 191#06C806C806C80000
(1646679328.303917) can1 1A1#00100140000000
(1646679328.304145) can1 1C3#06C806B500000000
(1646679328.304425) can1 1ED#41900169014873F9
(1646679328.304653) can1 1EF#00000218
(1646679328.304880) can1 1E1#00FE120040
(1646679328.305108) can1 0F1#28850040
(1646679328.305357) can1 1F1#AE0E000008000078
(1646679328.305460) can1 1F3#80A0
(1646679328.309175) can1 0C7#00025D35
(1646679328.309403) can1 0F9#0000400000000AFF
(1646679328.309631) can1 199#0FFF0B82F47E00FF
(1646679328.315906) can1 0C9#8409540D00400800
(1646679328.316134) can1 191#06C906C906C80000
(1646679328.316414) can1 1ED#41900169014873F9
(1646679328.316642) can1 1EF#0000021B
(1646679328.317096) can1 19D#80003FFE000958FF
(1646679328.317324) can1 1AF#000000
(1646679328.317552) can1 1F5#0F0F000100000800
(1646679328.321532) can1 0C7#00025D35
(1646679328.321760) can1 0F9#0000400000000AFF
(1646679328.321987) can1 199#4FFF0B82F47D00FF
(1646679328.328390) can1 0C9#8409540000400800
(1646679328.328618) can1 191#06C906C906C90000
(1646679328.328898) can1 1A1#00100140000000
(1646679328.329126) can1 1C3#06C906B800000000
(1646679328.329406) can1 1ED#4190016C014873F9
(1646679328.329635) can1 1EF#0000021B
(1646679328.329862) can1 2C3#095706A00752
(1646679328.330103) can1 2D1#000000000000
(1646679328.330331) can1 2D3#0303
(1646679328.330558) can1 3C1#0765480000000000
(1646679328.330785) can1 3D1#0112800000460000
(1646679328.334103) can1 0C7#00025D35
(1646679328.334331) can1 0F9#0000400000000AFF
(1646679328.334558) can1 199#8FFF0B82F47C00FF
(1646679328.334854) can1 3E9#0000000080004000
(1646679328.336813) can1 1E1#00FD130060
(1646679328.337041) can1 0F1#34850040
(1646679328.337268) can1 1F1#AE0E000008000078
(1646679328.341438) can1 0C9#8409660700400800
(1646679328.341666) can1 191#06C906C906C90000
(1646679328.341947) can1 1ED#4190016E014873F9
(1646679328.342175) can1 19D#C0003FFD000941FF
(1646679328.342402) can1 1EF#0000021D
(1646679328.342630) can1 1AF#000000
(1646679328.342858) can1 1F5#0F0F000100000800
(1646679328.346520) can1 0C7#00025D35
(1646679328.346747) can1 0F9#0000400000000AFF
(1646679328.346975) can1 199#CFFF0B82F47B00FF
(1646679328.353409) can1 0C9#8409660A00400800
(1646679328.353636) can1 191#06C906C906C90000
(1646679328.353916) can1 1A1#00100140000000
(1646679328.354143) can1 1C3#06C906B700000000
(1646679328.354424) can1 1ED#41900172015873F9
(1646679328.354651) can1 1EF#0000021D
(1646679328.359084) can1 0C7#00025D35
(1646679328.359312) can1 0F9#0000400000000AFF
(1646679328.359539) can1 199#0FFF0B82F47E00FF
(1646679328.366353) can1 0C9#84097E0D00400800
(1646679328.366581) can1 191#06C806C806C90000
(1646679328.366861) can1 1ED#4190016F015873F9
(1646679328.367089) can1 19D#0000000000093EFF
(1646679328.367316) can1 1EF#0000021C
(1646679328.367543) can1 1AF#000000
(1646679328.367771) can1 1F5#0F0F000100000800
(1646679328.369336) can1 1E1#0000100000
(1646679328.369565) can1 0F1#00850040
(1646679328.369792) can1 1F1#AE0E000008000078
(1646679328.371526) can1 0C7#00025D35
(1646679328.371754) can1 0F9#0000400000000AFF
(1646679328.371981) can1 199#4FFF0B82F47D00FF
(1646679328.378408) can1 0C9#84097E0000400800
(1646679328.378636) can1 191#06C806C806C80000
(1646679328.378917) can1 1A1#00100140000000
(1646679328.379144) can1 1C3#06C806B400000000
(1646679328.379425) can1 1ED#41900171015873F9
(1646679328.379652) can1 1EF#0000021C
(1646679328.379880) can1 2C3#095A06A00752
(1646679328.380121) can1 2D1#000000000000
(1646679328.380349) can1 2D3#0303
(1646679328.384085) can1 0C7#00025D35
(1646679328.384313) can1 0F9#0000400000000AFF
(1646679328.384540) can1 199#8FFF0B82F47C00FF
(1646679328.390908) can1 0C9#84098B0700400800
(1646679328.391136) can1 191#06C606C606C80000
(1646679328.391416) can1 1ED#41900171015873F9
(1646679328.391645) can1 1EF#0000021B
(1646679328.392043) can1 19D#40003FFF00092EFF
(1646679328.392271) can1 1AF#000000
(1646679328.392499) can1 1F5#0F0F000100000800
(1646679328.396537) can1 0C7#00025D35
(1646679328.396764) can1 0F9#0000400000000AFF
(1646679328.399902) can1 199#CFFF0B82F47B00FF
(1646679328.401855) can1 1E1#00FF110020
(1646679328.402083) can1 0F1#1C850040
(1646679328.402310) can1 1F1#AE0E000008000078
(1646679328.403482) can1 0C9#84098B0A00400800
(1646679328.403710) can1 191#06C606C606C60000
(1646679328.403990) can1 1A1#00100140000000
(1646679328.404218) can1 1C3#06C606B000000000
(1646679328.404498) can1 1ED#41900173015873F9
(1646679328.404726) can1 1EF#0000021B
(1646679328.409119) can1 0C7#00025D35
(1646679328.409347) can1 0F9#0000400000000AFF
(1646679328.409574) can1 199#0FFF0B82F47E00FF
(1646679328.415905) can1 0C9#8409970D00400800
(1646679328.416134) can1 191#06C406C406C60000
(1646679328.416446) can1 1ED#41900173014873F9
(1646679328.416674) can1 1EF#0000021C
(1646679328.417083) can1 19D#80003FFE000948FF
(1646679328.417311) can1 1AF#000000
(1646679328.417538) can1 1F5#0F0F000100000800
(1646679328.421529) can1 0C7#00025D35
(1646679328.421757) can1 0F9#0000400000000AFF
(1646679328.421984) can1 199#4FFF0B82F47D00FF
(1646679328.428354) can1 0C9#8409970000400800
(1646679328.428582) can1 191#06C406C406C40000
(1646679328.428862) can1 1A1#00100140000000
(1646679328.429090) can1 1C3#06C406AD00000000
(1646679328.429369) can1 1ED#41900175015873F9
(1646679328.429597) can1 1EF#0000021C
(1646679328.429824) can1 2C3#095D06A00750
(1646679328.430066) can1 2D1#000000000000
(1646679328.430294) can1 2D3#0303
(1646679328.430521) can1 3C1#0765480000000000
(1646679328.430749) can1 3D1#0112800000430000
(1646679328.434097) can1 0C7#00025D35
(1646679328.434325) can1 0F9#0000400000000AFF
(1646679328.434552) can1 1E1#00FE120040
(1646679328.434780) can1 0F1#28850040
(1646679328.435007) can1 199#8FFF0B82F47C00FF
(1646679328.435235) can1 1F1#AE0E000008000078
(1646679328.435462) can1 3E9#0000000080004000
(1646679328.435689) can1 3F9#04135000550A002B
(1646679328.435917) can1 3FB#0208
(1646679328.436144) can1 4C1#00BF876267000000
(1646679328.436371) can1 4D1#08002F031E4000BB
(1646679328.436599) can1 4F1#022E022E00F400BB
(1646679328.436879) can1 772#00000000000000
(1646679328.441022) can1 0C9#8409A10700400800
(1646679328.441250) can1 191#06C206C206C40000
(1646679328.441531) can1 1ED#41900175014873F9
(1646679328.441758) can1 1EF#0000021B
(1646679328.442236) can1 19D#C0003FFD00095AFF
(1646679328.442464) can1 1AF#000000
(1646679328.442692) can1 1F5#0F0F000100000800
(1646679328.446521) can1 0C7#00025D35
(1646679328.446749) can1 0F9#0000400000000AFF
(1646679328.446976) can1 199#CFFF0B82F47B00FF
(1646679328.453407) can1 0C9#8409A10A00400800
(1646679328.453635) can1 191#06C206C206C20000
(1646679328.453916) can1 1A1#00100140000000
(1646679328.454143) can1 1C3#06C206AB00000000
(1646679328.454439) can1 1ED#41900175014873F9
(1646679328.454667) can1 1EF#0000021B
(1646679328.459084) can1 0C7#00025D35
(1646679328.459312) can1 0F9#0000400000000AFF
(1646679328.459539) can1 199#0FFF0B82F47E00FF
(1646679328.465907) can1 0C9#8409A20D00400800
(1646679328.466136) can1 191#06C006C006C20000
(1646679328.466416) can1 1ED#41900175014873F9
(1646679328.466643) can1 1EF#0000021F
(1646679328.467075) can1 19D#0000000000095FFF
(1646679328.467302) can1 1E1#00FD130060
(1646679328.467550) can1 0F1#34850040
(1646679328.467653) can1 1AF#000000
(1646679328.467882) can1 1F1#AE0E000008000078
(1646679328.468109) can1 1F5#0F0F000100000800
(1646679328.471575) can1 0C7#00025D35
(1646679328.471804) can1 0F9#0000400000000AFF
(1646679328.472031) can1 199#4FFF0B82F47D00FF
(1646679328.478427) can1 0C9#8409A20000400800
(1646679328.478655) can1 191#06C006C006C00000
(1646679328.478936) can1 1A1#00100140000000
(1646679328.479163) can1 1C3#06C006A900000000
(1646679328.479447) can1 1ED#41900174014873F9
(1646679328.479674) can1 1EF#0000021F
(1646679328.479902) can1 2C3#095E06A0074F
(1646679328.480142) can1 2D1#000000000000
(1646679328.480370) can1 2D3#0303
(1646679328.484121) can1 0C7#00025D35
(1646679328.484349) can1 0F9#0000400000000AFF
(1646679328.484577) can1 199#8FFF0B82F47C00FF
(1646679328.490932) can1 0C9#84099C0700400800
(1646679328.491160) can1 191#06C006C006C00000
(1646679328.491441) can1 1ED#41900174014873F9
(1646679328.491669) can1 1EF#00000220
(1646679328.492096) can1 19D#40003FFF00095DFF
(1646679328.492324) can1 1AF#000000
(1646679328.492551) can1 1F5#0F0F000100000800
(1646679328.496516) can1 0C7#00025D35
(1646679328.496744) can1 0F9#0000400000000AFF
(1646679328.496971) can1 199#CFFF0B82F47B00FF
(1646679328.499556) can1 1E1#0000100000
(1646679328.499784) can1 0F1#00850040
(1646679328.500049) can1 1F1#AE0E000008000078
(1646679328.500152) can1 4E9#8120
(1646679328.500379) can1 1F3#C0E0
(1646679328.503522) can1 0C9#84099C0A00400800
(1646679328.503750) can1 191#06C006C006C00000
(1646679328.504031) can1 1A1#00100140000000
(1646679328.504258) can1 1C3#06C006A800000000
(1646679328.504555) can1 1ED#41900170014873F9
(1646679328.504783) can1 1EF#00000220
(1646679328.509076) can1 0C7#00025D35
(1646679328.509303) can1 0F9#0000400000000AFF
