(1646598233.365621) can1 0C9#0000000000400800
(1646598233.366023) can1 191#06A006A006A00000
(1646598233.366169) can1 1A1#00100100000000
(1646598233.366527) can1 1C3#06A016A000000000
(1646598233.366669) can1 1ED#4190000000003F78
(1646598233.367063) can1 1EF#00000000
(1646598233.367559) can1 2C3#06A006A006A0
(1646598233.367569) can1 2D1#000000000000
(1646598233.368150) can1 2D3#0000
(1646598233.368159) can1 3C1#0765088000000000
(1646598233.368174) can1 3D1#003C800000000000
(1646598233.368472) can1 3E9#8000200080002000
(1646598233.371569) can1 3F9#8000000055000012
(1646598233.371942) can1 3FB#0008
(1646598233.372088) can1 4C1#00BE55384E000000
(1646598233.372446) can1 4D1#000002031E3F0000
(1646598233.372594) can1 4F1#022E022E00F40000
(1646598233.372922) can1 772#00000000000000
(1646598233.377716) can1 0C9#0000000700400800
(1646598233.378059) can1 191#06A006A006A00000
(1646598233.378413) can1 1ED#4190000000003F78
(1646598233.378558) can1 1EF#00000000
(1646598233.390220) can1 0C9#0000000A00400800
(1646598233.390563) can1 191#061E061E04E40000
(1646598233.390916) can1 1A1#00100100000000
(1646598233.391062) can1 1C3#061E061E00000000
(1646598233.391414) can1 1ED#4190000000003F78
(1646598233.391561) can1 1EF#00000000
(1646598233.402689) can1 0C9#0000000D00400800
(1646598233.403032) can1 191#061E061E04E40000
(1646598233.403385) can1 1ED#4190000000003F78
(1646598233.403530) can1 1EF#00000000
(1646598233.415192) can1 0C9#0000000000400800
(1646598233.415534) can1 191#061E061E05B40000
(1646598233.415867) can1 1A1#00100100000000
(1646598233.416032) can1 1C3#061E061E00000000
(1646598233.416390) can1 1ED#4190000000003F78
(1646598233.416535) can1 1EF#00000000
(1646598233.416891) can1 2C3#061E06A00FFF
(1646598233.417037) can1 2D1#000000000000
(1646598233.417368) can1 2D3#0000
(1646598233.427687) can1 0C9#0000000700400800
(1646598233.428029) can1 191#061E061E05B40000
(1646598233.428382) can1 1ED#4190000000003F78
(1646598233.428527) can1 1EF#00000000
(1646598233.434455) can1 1E1#0000100000
(1646598233.434824) can1 0F1#00850040
(1646598233.434967) can1 1F1#8E0A000008000072
(1646598233.440264) can1 0C9#0000000A00400800
(1646598233.440605) can1 191#061E061E05B40000
(1646598233.440930) can1 1A1#00100100000000
(1646598233.441150) can1 1C3#061E061E00000000
(1646598233.441502) can1 1ED#4190000000003F78
(1646598233.441650) can1 1EF#00000000
(1646598233.452686) can1 0C9#0000000D00400800
(1646598233.453027) can1 191#061E061E05B40000
(1646598233.453380) can1 1ED#4190000000003F78
(1646598233.453525) can1 1EF#00000000
(1646598233.465199) can1 0C9#0000000000400800
(1646598233.465867) can1 191#061E061E05B40000
(1646598233.465879) can1 1A1#00100100000000
(1646598233.466224) can1 1C3#061E061E00000000
(1646598233.466368) can1 1ED#4190000000003F78
(1646598233.466726) can1 1EF#00000000
(1646598233.466868) can1 2C3#061E06A00FFF
(1646598233.467278) can1 2D1#000000000000
(1646598233.467421) can1 2D3#0000
(1646598233.467565) can1 3C1#0765288000000000
(1646598233.467981) can1 0C7#03FE0000
(1646598233.468124) can1 0F9#00006000000000FF
(1646598233.468269) can1 0F1#1C850040
(1646598233.468684) can1 199#0FFF0B82F47E00FF
(1646598233.468820) can1 1F1#000A000008000060
(1646598233.468931) can1 1E1#00FF110020
(1646598233.469228) can1 3D1#0000800000000000
(1646598233.469339) can1 3E9#0000200080006000
(1646598233.474616) can1 19D#00000000010000FF
(1646598233.474876) can1 1AF#000001
(1646598233.475149) can1 1F5#0F0F000100000300
(1646598233.475259) can1 4C9#40360000
(1646598233.475510) can1 77F#00000000000000
(1646598233.477686) can1 0C9#0000000700400800
(1646598233.477947) can1 191#061E061E05B40000
(1646598233.478197) can1 1ED#4190000000003F78
(1646598233.478448) can1 1EF#00000000
(1646598233.479880) can1 0C7#03FE0000
(1646598233.480140) can1 0F9#00006000000000FF
(1646598233.480390) can1 199#4FFF0B82F47D00FF
(1646598233.490116) can1 0C9#0000000A00400800
(1646598233.490377) can1 191#061E061E05B40000
(1646598233.490626) can1 1A1#00100100000000
(1646598233.490877) can1 1C3#061E061E00000000
(1646598233.491129) can1 1ED#4190000000003F78
(1646598233.491382) can1 1EF#00000000
(1646598233.492468) can1 0C7#03FE0000
(1646598233.492729) can1 0F9#00006000000000FF
(1646598233.492979) can1 199#8FFF0B82F47C00FF
(1646598233.499584) can1 1E1#00FE120040
(1646598233.499846) can1 0F1#28850040
(1646598233.500094) can1 19D#40003FFF010000FF
(1646598233.500366) can1 1F1#000A000008000060
(1646598233.500476) can1 1AF#000001
(1646598233.500748) can1 1F3#0020
(1646598233.500859) can1 1F5#0F0F000100000300
(1646598233.502733) can1 0C9#0000000D00400800
(1646598233.502992) can1 191#061E061E05B40000
(1646598233.503242) can1 1ED#4190000000003F78
(1646598233.503492) can1 1EF#00000000
(1646598233.504963) can1 0C7#03FE0000
(1646598233.505223) can1 0F9#00006000000000FF
(1646598233.505473) can1 199#CFFF0B82F47B00FF
(1646598233.515154) can1 0C9#0000000000400800
(1646598233.515414) can1 191#061E061E05B40000
(1646598233.515664) can1 1A1#00100100000000
(1646598233.515932) can1 1C3#061E061E00000000
(1646598233.516185) can1 1ED#4190000000003F78
(1646598233.516434) can1 1EF#00000000
(1646598233.516684) can1 2C3#061E06A00FFF
(1646598233.516957) can1 2D1#000000000000
(1646598233.517069) can1 2D3#0000
(1646598233.517465) can1 0C7#03FE0000
(1646598233.517717) can1 0F9#00006000000000FF
(1646598233.517966) can1 199#0FFF0B82F47E00FF
(1646598233.524820) can1 19D#80003FFE010000FF
(1646598233.525080) can1 1AF#000001
(1646598233.525330) can1 1F5#0F0F000100000300
(1646598233.527943) can1 0C9#0000000700400800
(1646598233.527957) can1 191#061E061E05B40000
(1646598233.528194) can1 1ED#4190000000003F78
(1646598233.529699) can1 1EF#00000000
(1646598233.529915) can1 0C7#03FE0000
(1646598233.530160) can1 0F9#00006000000000FF
(1646598233.530407) can1 199#4FFF0B82F47D00FF
(1646598233.532288) can1 1E1#00FD130060
(1646598233.532302) can1 0F1#34850040
(1646598233.535868) can1 1F1#000A000008000060
(1646598233.540157) can1 0C9#0000000A00400800
(1646598233.540418) can1 191#061E061E05B40000
(1646598233.540668) can1 1A1#00100100000000
(1646598233.540918) can1 1C3#061E061E00000000
(1646598233.541170) can1 1ED#4190000000003F78
(1646598233.541422) can1 1EF#00000000
(1646598233.542457) can1 0C7#03FE0000
(1646598233.542717) can1 0F9#00006000000000FF
(1646598233.542967) can1 199#8FFF0B82F47C00FF
(1646598233.549825) can1 19D#C0003FFD010000FF
(1646598233.550085) can1 1AF#000001
(1646598233.550335) can1 1F5#0F0F000100000300
(1646598233.552706) can1 0C9#0000000D00400800
(1646598233.552966) can1 191#061E061E05B40000
(1646598233.553215) can1 1ED#4190000000003F78
(1646598233.553465) can1 1EF#00000000
(1646598233.554904) can1 0C7#03FE0000
(1646598233.555164) can1 0F9#00006000000000FF
(1646598233.555414) can1 199#CFFF0B82F47B00FF
(1646598233.564599) can1 1E1#0000100000
(1646598233.564860) can1 0F1#00850040
(1646598233.565110) can1 1F1#000A000008000060
(1646598233.565399) can1 0C9#0000000000400800
(1646598233.565618) can1 191#061E061E05B40000
(1646598233.565862) can1 1A1#00100100000000
(1646598233.566125) can1 1C3#061E061E00000000
(1646598233.566377) can1 1ED#4190000000003F78
(1646598233.566649) can1 1EF#00000000
(1646598233.566759) can1 2C3#061E06A00FFF
(1646598233.567031) can1 2D1#000000000000
(1646598233.567141) can1 2D3#0000
(1646598233.567392) can1 3C1#076528A0771F48E2
(1646598233.567643) can1 0C7#03FE0000
(1646598233.567892) can1 0F9#00006000000000FF
(1646598233.568126) can1 3D1#002A800000000000
(1646598233.571410) can1 199#0FFF0B82F47E00FF
(1646598233.571605) can1 3E9#0000200080006000
(1646598233.574906) can1 19D#00000000010000FF
(1646598233.575139) can1 1AF#000001
(1646598233.575362) can1 1F5#0F0F000100000300
(1646598233.577687) can1 0C9#0000000700400800
(1646598233.577919) can1 191#061E061E05B40000
(1646598233.578185) can1 1ED#4190000000003F78
(1646598233.578410) can1 1EF#00000000
(1646598233.579924) can1 0C7#03FE0000
(1646598233.580157) can1 0F9#00006000000000FF
(1646598233.580381) can1 199#4FFF0B82F47D00FF
(1646598233.590138) can1 0C9#0000000A00400800
(1646598233.590371) can1 191#061E061E05B40000
(1646598233.590640) can1 1A1#00100100000000
(1646598233.590865) can1 1C3#061E061E00000000
(1646598233.591150) can1 1ED#4190000000003F78
(1646598233.591374) can1 1EF#00000000
(1646598233.592417) can1 0C7#03FE0000
(1646598233.592650) can1 0F9#00006000000000FF
(1646598233.592922) can1 199#8FFF0B82F47C00FF
(1646598233.597184) can1 1E1#00FF110020
(1646598233.597416) can1 0F1#1C850040
(1646598233.597640) can1 1F1#000A000008000060
(1646598233.597865) can1 1F3#4060
(1646598233.599837) can1 19D#40003FFF010000FF
(1646598233.600070) can1 1AF#000001
(1646598233.600293) can1 1F5#0F0F000100000300
(1646598233.602755) can1 0C9#0000000D00400800
(1646598233.602988) can1 191#061E061E05B40000
(1646598233.603257) can1 1ED#4190000000003F78
(1646598233.603481) can1 1EF#00000000
(1646598233.604999) can1 0C7#03FE0000
(1646598233.605232) can1 0F9#00006000000000FF
(1646598233.605456) can1 199#CFFF0B82F47B00FF
(1646598233.615135) can1 0C9#0000000000400800
(1646598233.615369) can1 191#061E061E05B40000
(1646598233.615638) can1 1A1#00100100000000
(1646598233.615860) can1 1C3#061E061E00000000
(1646598233.616151) can1 1ED#4190000000003F78
(1646598233.616375) can1 1EF#00000000
(1646598233.616599) can1 2C3#061E06A00FFF
(1646598233.616823) can1 2D1#000000000000
(1646598233.617046) can1 2D3#0000
(1646598233.617406) can1 0C7#03FE0000
(1646598233.617629) can1 0F9#00006000000000FF
(1646598233.617896) can1 199#0FFF0B82F47E00FF
(1646598233.621531) can1 3F9#8000000055000012
(1646598233.621764) can1 3FB#0008
(1646598233.624803) can1 19D#80003FFE010000FF
(1646598233.625036) can1 1AF#000001
(1646598233.625261) can1 1F5#0F0F000100000300
(1646598233.627684) can1 0C9#0000000700400800
(1646598233.627917) can1 191#061E061E05B40000
(1646598233.628191) can1 1ED#4190000000003F78
(1646598233.628414) can1 1EF#00000000
(1646598233.629660) can1 1E1#00FE120040
(1646598233.629893) can1 0F1#28850040
(1646598233.630116) can1 0C7#03FE0000
(1646598233.630341) can1 1F1#000A000008000060
(1646598233.630566) can1 0F9#00006000000000FF
(1646598233.630790) can1 199#4FFF0B82F47D00FF
(1646598233.640132) can1 0C9#0000000A00400800
(1646598233.640365) can1 191#061E061E05B40000
(1646598233.640639) can1 1A1#00100100000000
(1646598233.640861) can1 1C3#061E061E00000000
(1646598233.641144) can1 1ED#4190000000003F78
(1646598233.641368) can1 1EF#00000000
(1646598233.642493) can1 0C7#03FE0000
(1646598233.642726) can1 0F9#00006000000000FF
(1646598233.642949) can1 199#8FFF0B82F47C00FF
(1646598233.649838) can1 19D#C0003FFD010000FF
(1646598233.650071) can1 1AF#000001
(1646598233.650294) can1 1F5#0F0F000100000300
(1646598233.652675) can1 0C9#0000000D00400800
(1646598233.652907) can1 191#061E061E05B40000
(1646598233.653176) can1 1ED#4190000000003F78
(1646598233.653401) can1 1EF#00000000
(1646598233.654892) can1 0C7#03FE0000
(1646598233.655124) can1 0F9#00006000000000FF
(1646598233.655347) can1 199#CFFF0B82F47B00FF
(1646598233.662204) can1 1E1#00FD130060
(1646598233.662437) can1 0F1#34850040
(1646598233.662661) can1 1F1#000A000008000060
(1646598233.665193) can1 0C9#0000000000400800
(1646598233.665524) can1 191#061E061E05B40000
(1646598233.665708) can1 1A1#00100100000000
(1646598233.665951) can1 1C3#061E061E00000000
(1646598233.666221) can1 1ED#4190000000003F78
(1646598233.666445) can1 1EF#00000000
(1646598233.666671) can1 2C3#061E06A00FFF
(1646598233.666894) can1 2D1#000000000000
(1646598233.667116) can1 2D3#0000
(1646598233.667340) can1 3C1#076528A0771F48E2
(1646598233.667568) can1 0C7#03FE0000
(1646598233.667794) can1 3D1#0034800000000000
(1646598233.668015) can1 0F9#00006000000000FF
(1646598233.668239) can1 199#0FFF0B82F47E00FF
(1646598233.671512) can1 3E9#0000200080006000
(1646598233.674906) can1 19D#00000000010000FF
(1646598233.675139) can1 1AF#000001
(1646598233.675362) can1 1F5#0F0F000100000300
(1646598233.677671) can1 0C9#0000000700400800
(1646598233.677903) can1 191#061E061E05B40000
(1646598233.678176) can1 1ED#4190000000003F78
(1646598233.678400) can1 1EF#00000000
(1646598233.679891) can1 0C7#03FE0000
(1646598233.680124) can1 0F9#00006000000000FF
(1646598233.680346) can1 199#4FFF0B82F47D00FF
(1646598233.690119) can1 0C9#0000000A00400800
(1646598233.690353) can1 191#061E061E05B40000
(1646598233.690626) can1 1A1#00100100000000
(1646598233.690849) can1 1C3#061E061E00000000
(1646598233.691131) can1 1ED#4190000000003F78
(1646598233.691354) can1 1EF#00000000
(1646598233.692442) can1 0C7#03FE0000
(1646598233.692674) can1 0F9#00006000000000FF
(1646598233.692897) can1 199#8FFF0B82F47C00FF
(1646598233.694816) can1 1E1#0000100000
(1646598233.695048) can1 0F1#00850040
(1646598233.695271) can1 1F1#000A000008000060
(1646598233.695495) can1 1F3#80A0
(1646598233.699920) can1 19D#40003FFF010000FF
(1646598233.700153) can1 1AF#000001
(1646598233.700376) can1 1F5#0F0F000100000300
(1646598233.702668) can1 0C9#0000000D00400800
(1646598233.702901) can1 191#061E061E05B40000
(1646598233.703181) can1 1ED#4190000000003F78
(1646598233.703406) can1 1EF#00000000
(1646598233.704917) can1 0C7#03FE0000
(1646598233.705150) can1 0F9#00006000000000FF
(1646598233.705373) can1 199#CFFF0B82F47B00FF
(1646598233.715119) can1 0C9#0000000000400800
(1646598233.715352) can1 191#061E061E05B40000
(1646598233.715619) can1 1A1#00100100000000
(1646598233.715844) can1 1C3#061E061E00000000
(1646598233.716112) can1 1ED#4190000000003F78
(1646598233.716324) can1 1EF#00000000
(1646598233.716553) can1 2C3#061E06A00FFF
(1646598233.716776) can1 2D1#000000000000
(1646598233.716999) can1 2D3#0000
(1646598233.717403) can1 0C7#03FE0000
(1646598233.717628) can1 0F9#00006000000000FF
(1646598233.717896) can1 199#0FFF0B82F47E00FF
(1646598233.724830) can1 19D#80003FFE010000FF
(1646598233.725063) can1 1AF#000001
(1646598233.725286) can1 1F5#0F0F000100000300
(1646598233.727280) can1 1E1#00FF110020
(1646598233.727513) can1 0F1#1C850040
(1646598233.727736) can1 0C9#0000000700400800
(1646598233.727960) can1 1F1#000A000008000060
(1646598233.728187) can1 191#061E061E05B40000
(1646598233.728413) can1 1ED#4190000000003F78
(1646598233.728635) can1 1EF#00000000
(1646598233.729909) can1 0C7#03FE0000
(1646598233.730141) can1 0F9#00006000000000FF
(1646598233.730364) can1 199#4FFF0B82F47D00FF
(1646598233.740091) can1 0C9#0000000A00400800
(1646598233.740324) can1 191#061E061E05B40000
(1646598233.740598) can1 1A1#00100100000000
(1646598233.740821) can1 1C3#061E061E00000000
(1646598233.741103) can1 1ED#4190000000003F78
(1646598233.741328) can1 1EF#00000000
(1646598233.742457) can1 0C7#03FE0000
(1646598233.742690) can1 0F9#00006000000000FF
(1646598233.742914) can1 199#8FFF0B82F47C00FF
(1646598233.749804) can1 19D#C0003FFD010000FF
(1646598233.750037) can1 1AF#000001
(1646598233.750260) can1 1F5#0F0F000100000300
(1646598233.752673) can1 0C9#0000000D00400800
(1646598233.752906) can1 191#061E061E05B40000
(1646598233.753176) can1 1ED#4190000000003F78
(1646598233.753399) can1 1EF#00000000
(1646598233.754914) can1 0C7#03FE0000
(1646598233.755147) can1 0F9#00006000000000FF
(1646598233.755368) can1 199#CFFF0B82F47B00FF
(1646598233.759823) can1 1E1#00FE120040
(1646598233.760056) can1 0F1#28850040
(1646598233.760279) can1 1F1#000A000008000060
(1646598233.765196) can1 0C9#0000000000400800
(1646598233.765527) can1 191#061E061E05B40000
(1646598233.765712) can1 1A1#00100100000000
(1646598233.766052) can1 1C3#061E061E00000000
(1646598233.766235) can1 1ED#4190000000003F78
(1646598233.766459) can1 1EF#00000000
(1646598233.766682) can1 2C3#061E06A00FFF
(1646598233.766905) can1 2D1#000000000000
(1646598233.767128) can1 2D3#0000
(1646598233.767350) can1 3C1#076528A0771F48E2
(1646598233.767574) can1 0C7#03FE0000
(1646598233.767797) can1 3D1#0033800000000000
(1646598233.768023) can1 0F9#00006000000000FF
(1646598233.768290) can1 199#0FFF0B82F47E00FF
(1646598233.771521) can1 3E9#0000200080006000
(1646598233.774874) can1 19D#00000000010000FF
(1646598233.775107) can1 1AF#000001
(1646598233.775330) can1 1F5#0F0F000100000300
(1646598233.777677) can1 0C9#0000000700400800
(1646598233.777910) can1 191#061E061E05B40000
(1646598233.778183) can1 1ED#4190000000003F78
(1646598233.778407) can1 1EF#00000000
(1646598233.779894) can1 0C7#03FE0000
(1646598233.780127) can1 0F9#00006000000000FF
(1646598233.780351) can1 199#4FFF0B82F47D00FF
(1646598233.790125) can1 0C9#0000000A00400800
(1646598233.790358) can1 191#061E061E05B40000
(1646598233.790631) can1 1A1#00100100000000
(1646598233.790852) can1 1C3#061E061E00000000
(1646598233.791138) can1 1ED#4190000000003F78
(1646598233.791360) can1 1EF#00000000
(1646598233.792357) can1 1E1#00FD130060
(1646598233.792590) can1 0C7#03FE0000
(1646598233.792813) can1 0F9#00006000000000FF
(1646598233.793037) can1 1F1#000A000008000060
(1646598233.793263) can1 0F1#34850040
(1646598233.793487) can1 199#8FFF0B82F47C00FF
(1646598233.799880) can1 19D#40003FFF010000FF
(1646598233.800113) can1 1AF#000001
(1646598233.800337) can1 1F5#0F0F000100000300
(1646598233.802674) can1 0C9#0000000D00400800
(1646598233.802906) can1 191#061E061E05B40000
(1646598233.803179) can1 1ED#4190000000003F78
(1646598233.803407) can1 1EF#00000000
(1646598233.804944) can1 0C7#03FE0000
(1646598233.805176) can1 0F9#00006000000000FF
(1646598233.805399) can1 199#CFFF0B82F47B00FF
(1646598233.815126) can1 0C9#0000000000400800
(1646598233.815359) can1 191#061E061E05B40000
(1646598233.815632) can1 1A1#00100100000000
(1646598233.815864) can1 1C3#061E061E00000000
(1646598233.816115) can1 1ED#4190000000003F78
(1646598233.816328) can1 1EF#00000000
(1646598233.816560) can1 2C3#061E06A00FFF
(1646598233.816783) can1 2D1#000000000000
(1646598233.817008) can1 2D3#0000
(1646598233.817480) can1 0C7#03FE0000
(1646598233.817707) can1 0F9#00006000000000FF
(1646598233.817931) can1 199#0FFF0B82F47E00FF
(1646598233.824900) can1 1E1#0000100000
(1646598233.825132) can1 0F1#00850040
(1646598233.825355) can1 19D#80003FFE010000FF
(1646598233.825579) can1 1F1#000A000008000060
(1646598233.825805) can1 1AF#000001
(1646598233.826045) can1 1F5#0F0F000100000300
(1646598233.827742) can1 0C9#0000000700400800
(1646598233.827974) can1 191#061E061E05B40000
(1646598233.828243) can1 1ED#4190000000003F78
(1646598233.828466) can1 1EF#00000000
(1646598233.829980) can1 0C7#03FE0000
(1646598233.830213) can1 0F9#00006000000000FF
(1646598233.830436) can1 199#4FFF0B82F47D00FF
(1646598233.840121) can1 0C9#0000000A00400800
(1646598233.840353) can1 191#061E061E05B40000
(1646598233.840626) can1 1A1#00100100000000
(1646598233.840848) can1 1C3#061E061E00000000
(1646598233.841130) can1 1ED#4190000000003F78
(1646598233.841353) can1 1EF#00000000
(1646598233.842497) can1 0C7#03FE0000
(1646598233.842730) can1 0F9#00006000000000FF
(1646598233.842953) can1 199#8FFF0B82F47C00FF
(1646598233.849948) can1 19D#C0003FFD010000FF
(1646598233.850180) can1 1AF#000001
(1646598233.850403) can1 1F5#0F0F000100000300
(1646598233.852668) can1 0C9#0000000D00400800
(1646598233.852900) can1 191#061E061E05B40000
(1646598233.853169) can1 1ED#4190000000003F78
(1646598233.853392) can1 1EF#00000000
(1646598233.854970) can1 0C7#03FE0000
(1646598233.855203) can1 0F9#00006000000000FF
(1646598233.855426) can1 199#CFFF0B82F47B00FF
(1646598233.857433) can1 1E1#00FF110020
(1646598233.857666) can1 0F1#1C850040
(1646598233.857889) can1 1F1#000A000008000060
(1646598233.865118) can1 0C9#0000000000400800
(1646598233.865386) can1 191#061E061E05B40000
(1646598233.865618) can1 1A1#00100100000000
(1646598233.865984) can1 1C3#061E061E00000000
(1646598233.866165) can1 1ED#4190000000003F78
(1646598233.866388) can1 1EF#00000000
(1646598233.866612) can1 2C3#061E06A00FFF
(1646598233.866835) can1 2D1#000000000000
(1646598233.867060) can1 2D3#0000
(1646598233.867282) can1 3C1#076528A0771F48E2
(1646598233.867506) can1 3D1#0033800000000000
(1646598233.867729) can1 0C7#03FE0000
(1646598233.867953) can1 0F9#00006000000000FF
(1646598233.868176) can1 199#0FFF0B82F47E00FF
(1646598233.871512) can1 3E9#0000200080006000
(1646598233.871745) can1 3F9#8000000055000012
(1646598233.871968) can1 3FB#0008
(1646598233.872192) can1 4C1#00BE55384E000000
(1646598233.872415) can1 4D1#080004031E3F009C
(1646598233.874977) can1 19D#00000000010000FF
(1646598233.875210) can1 1AF#000001
(1646598233.875433) can1 1F5#0F0F000100000300
(1646598233.877676) can1 0C9#0000000700400800
(1646598233.877909) can1 191#061E061E05B40000
(1646598233.878182) can1 1ED#4190000000003F78
(1646598233.878406) can1 1EF#00000000
(1646598233.880006) can1 0C7#03FE0000
(1646598233.880239) can1 0F9#00006000000000FF
(1646598233.880461) can1 199#4FFF0B82F47D00FF
(1646598233.890046) can1 1E1#00FE120040
(1646598233.890279) can1 0C9#0000000A00400800
(1646598233.890503) can1 1F1#000A000008000060
(1646598233.890727) can1 0F1#28850040
(1646598233.890952) can1 191#061E061E05B40000
(1646598233.891177) can1 1F3#C0E0
(1646598233.891405) can1 1A1#00100100000000
(1646598233.891628) can1 1C3#061E061E00000000
(1646598233.891856) can1 1ED#4190000000003F78
(1646598233.892081) can1 1EF#00000000
(1646598233.892467) can1 0C7#03FE0000
(1646598233.892692) can1 0F9#00006000000000FF
(1646598233.892960) can1 199#8FFF0B82F47C00FF
(1646598233.900062) can1 19D#40003FFF010000FF
(1646598233.900295) can1 1AF#000001
(1646598233.900518) can1 1F5#0F0F000100000300
(1646598233.902669) can1 0C9#0000000D00400800
(1646598233.902901) can1 191#061E061E05B40000
(1646598233.903176) can1 1ED#4190000000003F78
(1646598233.903403) can1 1EF#00000000
(1646598233.904971) can1 0C7#03FE0000
(1646598233.905204) can1 0F9#00006000000000FF
(1646598233.905478) can1 199#CFFF0B82F47B00FF
(1646598233.915118) can1 0C9#0000000000400800
(1646598233.915350) can1 191#061E061E05B40000
(1646598233.915624) can1 1A1#00100100000000
(1646598233.915860) can1 1C3#061E061E00000000
(1646598233.916112) can1 1ED#4190000000003F78
(1646598233.916322) can1 1EF#00000000
(1646598233.916553) can1 2C3#061E06A00FFF
(1646598233.916778) can1 2D1#000000000000
(1646598233.917001) can1 2D3#0000
(1646598233.917470) can1 0C7#03FE0000
(1646598233.917703) can1 0F9#00006000000000FF
(1646598233.917926) can1 199#0FFF0B82F47E00FF
(1646598233.922503) can1 1E1#00FD130060
(1646598233.922735) can1 0F1#34850040
(1646598233.922959) can1 1F1#000A000008000060
(1646598233.924975) can1 19D#80003FFE010000FF
(1646598233.925207) can1 1AF#000001
(1646598233.925430) can1 1F5#0F0F000100000300
(1646598233.927740) can1 0C9#0000000700400800
(1646598233.927972) can1 191#061E061E05B40000
(1646598233.928246) can1 1ED#4190000000003F78
(1646598233.928469) can1 1EF#00000000
(1646598233.930006) can1 0C7#03FE0000
(1646598233.930239) can1 0F9#00006000000000FF
(1646598233.930460) can1 199#4FFF0B82F47D00FF
(1646598233.940138) can1 0C9#0000000A00400800
(1646598233.940371) can1 191#061E061E05B40000
(1646598233.940644) can1 1A1#00100100000000
(1646598233.940866) can1 1C3#061E061E00000000
(1646598233.941149) can1 1ED#4190000000003F78
(1646598233.941372) can1 1EF#00000000
(1646598233.942498) can1 0C7#03FE0000
(1646598233.942731) can1 0F9#00006000000000FF
(1646598233.942954) can1 199#8FFF0B82F47C00FF
(1646598233.949957) can1 19D#C0003FFD010000FF
(1646598233.950190) can1 1AF#000001
(1646598233.950413) can1 1F5#0F0F000100000300
(1646598233.952665) can1 0C9#0000000D00400800
(1646598233.952898) can1 191#061E061E05B40000
(1646598233.953171) can1 1ED#4190000000003F78
(1646598233.953399) can1 1EF#00000000
(1646598233.954943) can1 0C7#03FE0000
(1646598233.955176) can1 1E1#0000100000
(1646598233.955399) can1 0F1#00850040
(1646598233.955622) can1 0F9#00006000000000FF
(1646598233.955860) can1 1F1#000A000008000060
(1646598233.956067) can1 199#CFFF0B82F47B00FF
(1646598233.965109) can1 0C9#0000000000400800
(1646598233.965330) can1 191#061E061E05B40000
(1646598233.965609) can1 1A1#00100100000000
(1646598233.965832) can1 1C3#061E061E00000000
(1646598233.966128) can1 1ED#4190000000003F78
(1646598233.966355) can1 1EF#00000000
(1646598233.966577) can1 2C3#061E06A00FFF
(1646598233.966801) can1 2D1#000000000000
(1646598233.967025) can1 2D3#0000
(1646598233.967248) can1 3C1#076528A0771F48E2
(1646598233.967473) can1 3D1#0033800000000000
(1646598233.967696) can1 0C7#03FE0000
(1646598233.967973) can1 0F9#00006000000000FF
(1646598233.968197) can1 199#0FFF0B82F47E00FF
(1646598233.971501) can1 3E9#0000200080006000
(1646598233.974991) can1 19D#00000000010000FF
(1646598233.975223) can1 1AF#000001
(1646598233.975447) can1 1F5#0F0F000100000300
(1646598233.975670) can1 4C9#40360000
(1646598233.977681) can1 0C9#0000000700400800
(1646598233.977914) can1 191#061E061E05B40000
(1646598233.978182) can1 1ED#4190000000003F78
(1646598233.978409) can1 1EF#00000000
(1646598233.979945) can1 0C7#03FE0000
(1646598233.980178) can1 0F9#00006000000000FF
(1646598233.980402) can1 199#4FFF0B82F47D00FF
(1646598233.987644) can1 1E1#00FF110020
(1646598233.987877) can1 0F1#1C850040
(1646598233.988099) can1 1F1#000A000008000060
(1646598233.988327) can1 1F3#0020
(1646598233.990202) can1 0C9#0000000A00400800
(1646598233.990435) can1 191#061E061E05B40000
(1646598233.990707) can1 1A1#00100100000000
(1646598233.990930) can1 1C3#061E061E00000000
(1646598233.991217) can1 1ED#4190000000003F78
(1646598233.991445) can1 1EF#00000000
(1646598233.992572) can1 0C7#03FE0000
(1646598233.992804) can1 0F9#00006000000000FF
(1646598233.993028) can1 199#8FFF0B82F47C00FF
(1646598234.000041) can1 19D#40003FFF010000FF
(1646598234.000274) can1 1AF#000001
(1646598234.000495) can1 1F5#0F0F000100000300
(1646598234.002663) can1 0C9#0000000D00400800
(1646598234.002896) can1 191#061E061E05B40000
(1646598234.003163) can1 1ED#4190000000003F78
(1646598234.003389) can1 1EF#00000000
(1646598234.004970) can1 0C7#03FE0000
(1646598234.005202) can1 0F9#00006000000000FF
(1646598234.005425) can1 199#CFFF0B82F47B00FF
(1646598234.015111) can1 0C9#0000000000400800
(1646598234.015345) can1 191#061E061E05B40000
(1646598234.015613) can1 1A1#00100100000000
(1646598234.015837) can1 1C3#061E061E00000000
(1646598234.016103) can1 1ED#4190000000003F78
(1646598234.016316) can1 1EF#00000000
(1646598234.016549) can1 2C3#061E06A00FFF
(1646598234.016772) can1 2D1#000000000000
(1646598234.016995) can1 2D3#0000
(1646598234.017449) can1 0C7#03FE0000
(1646598234.017675) can1 0F9#00006000000000FF
(1646598234.017943) can1 199#0FFF0B82F47E00FF
(1646598234.020115) can1 1E1#00FE120040
(1646598234.020347) can1 0F1#28850040
(1646598234.020569) can1 1F1#000A000008000060
(1646598234.024991) can1 19D#80003FFE010000FF
(1646598234.025224) can1 1AF#000001
(1646598234.025447) can1 1F5#0F0F000100000300
(1646598234.027661) can1 0C9#0000000700400800
(1646598234.027894) can1 191#061E061E05B40000
(1646598234.028167) can1 1ED#4190000000003F78
(1646598234.028391) can1 1EF#00000000
(1646598234.029962) can1 0C7#03FE0000
(1646598234.030194) can1 0F9#00006000000000FF
(1646598234.030418) can1 199#4FFF0B82F47D00FF
(1646598234.040106) can1 0C9#0000000A00400800
(1646598234.040339) can1 191#061E061E05B40000
(1646598234.040607) can1 1A1#00100100000000
(1646598234.040831) can1 1C3#061E061E00000000
(1646598234.041125) can1 1ED#4190000000003F78
(1646598234.041350) can1 1EF#00000000
(1646598234.042510) can1 0C7#03FE0000
(1646598234.042743) can1 0F9#00006000000000FF
(1646598234.042966) can1 199#8FFF0B82F47C00FF
(1646598234.049952) can1 19D#C0003FFD010000FF
(1646598234.050184) can1 1AF#000001
(1646598234.050407) can1 1F5#0F0F000100000300
(1646598234.052681) can1 0C9#0000000D00400800
(1646598234.052913) can1 1E1#00FD130060
(1646598234.053135) can1 191#061E061E05B40000
(1646598234.053359) can1 1F1#000A000008000060
(1646598234.053587) can1 0F1#34850040
(1646598234.053812) can1 1ED#4190000000003F78
(1646598234.054041) can1 1EF#00000000
(1646598234.054900) can1 0C7#03FE0000
(1646598234.055133) can1 0F9#00006000000000FF
(1646598234.055357) can1 199#CFFF0B82F47B00FF
(1646598234.065104) can1 0C9#0000000000400800
(1646598234.065324) can1 191#061E061E05B40000
(1646598234.065599) can1 1A1#00100100000000
(1646598234.065860) can1 1C3#061E061E00000000
(1646598234.066096) can1 1ED#4190000000003F78
(1646598234.066321) can1 1EF#00000000
(1646598234.066548) can1 2C3#061E06A00FFF
(1646598234.066771) can1 2D1#000000000000
(1646598234.066992) can1 2D3#0000
(1646598234.067215) can1 3C1#076528A0771F48E2
(1646598234.067441) can1 3D1#0033800000000000
(1646598234.067670) can1 0C7#03FE0000
(1646598234.067895) can1 0F9#00006000000000FF
(1646598234.068168) can1 199#0FFF0B82F47E00FF
(1646598234.071493) can1 3E9#0000200080006000
(1646598234.075005) can1 19D#00000000010000FF
(1646598234.075239) can1 1AF#000001
(1646598234.075462) can1 1F5#0F0F000100000300
(1646598234.077659) can1 0C9#0000000700400800
(1646598234.077892) can1 191#061E061E05B40000
(1646598234.078165) can1 1ED#4190000000003F78
(1646598234.078389) can1 1EF#00000000
(1646598234.079948) can1 0C7#03FE0000
(1646598234.080181) can1 0F9#00006000000000FF
(1646598234.080403) can1 199#4FFF0B82F47D00FF
(1646598234.085255) can1 1E1#0000100000
(1646598234.085488) can1 0F1#00850040
(1646598234.085710) can1 1F1#000A000008000060
(1646598234.085953) can1 1F3#4060
(1646598234.090168) can1 0C9#0000000A00400800
(1646598234.090401) can1 191#061E061E05B40000
(1646598234.090675) can1 1A1#00100100000000
(1646598234.090903) can1 1C3#061E061E00000000
(1646598234.091186) can1 1ED#4190000000003F78
(1646598234.091410) can1 1EF#00000000
(1646598234.092571) can1 0C7#03FE0000
(1646598234.092804) can1 0F9#00006000000000FF
(1646598234.093028) can1 199#8FFF0B82F47C00FF
(1646598234.100041) can1 19D#40003FFF010000FF
(1646598234.100273) can1 1AF#000001
(1646598234.100497) can1 1F5#0F0F000100000300
(1646598234.102652) can1 0C9#0000000D00400800
(1646598234.102884) can1 191#061E061E05B40000
(1646598234.103158) can1 1ED#4190000000003F78
(1646598234.103386) can1 1EF#00000000
(1646598234.104942) can1 0C7#03FE0000
(1646598234.105175) can1 0F9#00006000000000FF
(1646598234.105397) can1 199#CFFF0B82F47B00FF
(1646598234.115101) can1 0C9#0000000000400800
(1646598234.115334) can1 191#061E061E05B40000
(1646598234.115606) can1 1A1#00100100000000
(1646598234.115828) can1 1C3#061E061E00000000
(1646598234.116118) can1 1ED#4190000000003F78
(1646598234.116342) can1 1EF#00000000
(1646598234.116568) can1 2C3#061E06A00FFF
(1646598234.116791) can1 2D1#000000000000
(1646598234.117015) can1 2D3#0303
(1646598234.117477) can1 0C7#03FE0000
(1646598234.117710) can1 0F9#00006000000000FF
(1646598234.117934) can1 1E1#00FF110020
(1646598234.118158) can1 0F1#1C850040
(1646598234.118384) can1 199#0FFF0B82F47E00FF
(1646598234.118607) can1 1F1#000A000008000060
(1646598234.121596) can1 3F9#8000000056000012
(1646598234.121828) can1 3FB#0008
(1646598234.124996) can1 19D#80003FFE010000FF
(1646598234.125228) can1 1AF#000001
(1646598234.125450) can1 1F5#0F0F000100000300
(1646598234.127651) can1 0C9#0000000700400800
(1646598234.127883) can1 191#061E061E05B40000
(1646598234.128157) can1 1ED#4190000000003F78
(1646598234.128379) can1 1EF#00000000
(1646598234.129945) can1 0C7#03FE0000
(1646598234.130178) can1 0F9#00006000000000FF
(1646598234.130401) can1 199#4FFF0B82F47D00FF
(1646598234.140123) can1 0C9#0000000A00400800
(1646598234.140356) can1 191#061E061E05B40000
(1646598234.140634) can1 1A1#00100100000000
(1646598234.140858) can1 1C3#061E061E00000000
(1646598234.141139) can1 1ED#4190000000003F78
(1646598234.141362) can1 1EF#00000000
(1646598234.142504) can1 0C7#03FE0000
(1646598234.142736) can1 0F9#00006000000000FF
(1646598234.142960) can1 199#8FFF0B82F47C00FF
(1646598234.149966) can1 19D#C0003FFD010000FF
(1646598234.150199) can1 1AF#000001
(1646598234.150423) can1 1E1#00FE120040
(1646598234.150668) can1 1F5#0F0F000100000300
(1646598234.150767) can1 0F1#28850040
(1646598234.150993) can1 1F1#000A000008000060
(1646598234.152718) can1 0C9#0000000D00400800
(1646598234.152950) can1 191#061E061E05B40000
(1646598234.153219) can1 1ED#4190000000003F78
(1646598234.153444) can1 1EF#00000000
(1646598234.155004) can1 0C7#03FE0000
(1646598234.155236) can1 0F9#00006000000000FF
(1646598234.155460) can1 199#CFFF0B82F47B00FF
(1646598234.165097) can1 0C9#0000000000400800
(1646598234.165317) can1 191#061E061E05B40000
(1646598234.165592) can1 1A1#00100100000000
(1646598234.165859) can1 1C3#061E061E00000000
(1646598234.166308) can1 1ED#4190000000003F78
(1646598234.166314) can1 1EF#00000000
(1646598234.166521) can1 2C3#061E06A00FFF
(1646598234.166926) can1 2D1#000000000000
(1646598234.167190) can1 2D3#0303
(1646598234.167196) can1 3C1#076528A0771F48E2
(1646598234.167599) can1 3D1#0033800000000000
(1646598234.167745) can1 0C7#03FE0000
(1646598234.168104) can1 0F9#00006000000000FF
(1646598234.171306) can1 199#0FFF0B82F47E00FF
(1646598234.174812) can1 3E9#0000200080006000
(1646598234.175183) can1 19D#00000000010000FF
(1646598234.175416) can1 1AF#000001
(1646598234.175856) can1 1F5#0F0F000100000300
(1646598234.177645) can1 0C9#0000000700400800
(1646598234.177878) can1 191#061E061E05B40000
(1646598234.178145) can1 1ED#4190000000003F78
(1646598234.178371) can1 1EF#00000000
(1646598234.179973) can1 0C7#03FE0000
(1646598234.180205) can1 0F9#00006000000000FF
(1646598234.180428) can1 199#4FFF0B82F47D00FF
(1646598234.182853) can1 1E1#00FD130060
(1646598234.183086) can1 0F1#34850040
(1646598234.183308) can1 1F1#000A000008000060
(1646598234.183532) can1 1F3#80A0
(1646598234.190117) can1 0C9#0000000A00400800
(1646598234.190350) can1 191#061E061E05B40000
(1646598234.190623) can1 1A1#00100100000000
(1646598234.190846) can1 1C3#061E061E00000000
(1646598234.191128) can1 1ED#4190000000003F78
(1646598234.191351) can1 1EF#00000000
(1646598234.192465) can1 0C7#03FE0000
(1646598234.192747) can1 0F9#00006000000000FF
(1646598234.192970) can1 199#8FFF0B82F47C00FF
(1646598234.199970) can1 19D#40003FFF010000FF
(1646598234.200203) can1 1AF#000001
(1646598234.200426) can1 1F5#0F0F000100000300
(1646598234.202644) can1 0C9#0000000D00400800
(1646598234.202876) can1 191#061E061E05B40000
(1646598234.203145) can1 1ED#4190000000003F78
(1646598234.203368) can1 1EF#00000000
(1646598234.204963) can1 0C7#03FE0000
(1646598234.205195) can1 0F9#00006000000000FF
(1646598234.205418) can1 199#CFFF0B82F47B00FF
(1646598234.215091) can1 0C9#0000000000400800
(1646598234.215324) can1 191#061E061E05B40000
(1646598234.215547) can1 1E1#0000100000
(1646598234.215772) can1 0F1#00850040
(1646598234.216024) can1 1A1#00100100000000
(1646598234.216249) can1 1F1#000A000008000060
(1646598234.216473) can1 1C3#061E061E00000000
(1646598234.216697) can1 1ED#4190000000003F78
(1646598234.216920) can1 1EF#00000000
(1646598234.217145) can1 2C3#061E06A00FFF
(1646598234.217367) can1 2D1#000000000000
(1646598234.217611) can1 0C7#03FE0000
(1646598234.217711) can1 2D3#0303
(1646598234.217934) can1 0F9#00006000000000FF
(1646598234.218158) can1 199#0FFF0B82F47E00FF
(1646598234.225023) can1 19D#80003FFE010000FF
(1646598234.225256) can1 1AF#000001
(1646598234.225479) can1 1F5#0F0F000100000300
(1646598234.227668) can1 0C9#0000000700400800
(1646598234.227901) can1 191#061E061E05B40000
(1646598234.228176) can1 1ED#4190000000003F78
(1646598234.228399) can1 1EF#00000000
(1646598234.229932) can1 0C7#03FE0000
(1646598234.230165) can1 0F9#00006000000000FF
(1646598234.230388) can1 199#4FFF0B82F47D00FF
(1646598234.240090) can1 0C9#0000000A00400800
(1646598234.240323) can1 191#061E061E05B40000
(1646598234.240596) can1 1A1#00100100000000
(1646598234.240817) can1 1C3#061E061E00000000
(1646598234.241103) can1 1ED#4190000000003F78
(1646598234.241327) can1 1EF#00000000
(1646598234.242530) can1 0C7#03FE0000
(1646598234.242763) can1 0F9#00006000000000FF
(1646598234.242986) can1 199#8FFF0B82F47C00FF
(1646598234.247837) can1 1E1#00FF110020
(1646598234.248069) can1 0F1#1C850040
(1646598234.248293) can1 1F1#000A000008000060
(1646598234.249956) can1 19D#C0003FFD010000FF
(1646598234.250188) can1 1AF#000001
(1646598234.250411) can1 1F5#0F0F000100000300
(1646598234.252708) can1 0C9#0000000D00400800
(1646598234.252941) can1 191#061E061E05B40000
(1646598234.253209) can1 1ED#4190000000003F78
(1646598234.253434) can1 1EF#00000000
(1646598234.254987) can1 0C7#03FE0000
(1646598234.255219) can1 0F9#00006000000000FF
(1646598234.255441) can1 199#CFFF0B82F47B00FF
(1646598234.265087) can1 0C9#0000000000400800
(1646598234.265327) can1 191#061E061E05B40000
(1646598234.265599) can1 1A1#00100100000000
(1646598234.265823) can1 1C3#061E061E00000000
(1646598234.266115) can1 1ED#4190000000003F78
(1646598234.266339) can1 1EF#00000000
(1646598234.266560) can1 2C3#061E06A00FFF
(1646598234.266785) can1 2D1#000000000000
(1646598234.267008) can1 2D3#0303
(1646598234.267231) can1 3C1#076528A0771F48E2
(1646598234.267454) can1 3D1#0033800000000000
(1646598234.267676) can1 0C7#03FE0000
(1646598234.267900) can1 0F9#00006000000000FF
(1646598234.268123) can1 199#0FFF0B82F47E00FF
(1646598234.271478) can1 3E9#0000200080006000
(1646598234.274990) can1 19D#00000000010000FF
(1646598234.275223) can1 1AF#000001
(1646598234.275446) can1 1F5#0F0F000100000300
(1646598234.277640) can1 0C9#0000000700400800
(1646598234.277872) can1 191#061E061E05B40000
(1646598234.278146) can1 1ED#4190000000003F78
(1646598234.278368) can1 1EF#00000000
(1646598234.279968) can1 0C7#03FE0000
(1646598234.280201) can1 0F9#00006000000000FF
(1646598234.280424) can1 1F3#C0E0
(1646598234.280647) can1 199#4FFF0B82F47D00FF
(1646598234.280872) can1 1E1#00FE120040
(1646598234.281142) can1 0F1#28850040
(1646598234.281365) can1 1F1#000A000008000060
(1646598234.290084) can1 0C9#0000000A00400800
(1646598234.290317) can1 191#061E061E05B40000
(1646598234.290589) can1 1A1#00100100000000
(1646598234.290813) can1 1C3#061E061E00000000
(1646598234.291093) can1 1ED#4190000000003F78
(1646598234.291316) can1 1EF#00000000
(1646598234.292522) can1 0C7#03FE0000
(1646598234.292754) can1 0F9#00006000000000FF
(1646598234.292978) can1 199#8FFF0B82F47C00FF
(1646598234.299965) can1 19D#40003FFF010000FF
(1646598234.300198) can1 1AF#000001
(1646598234.300422) can1 1F5#0F0F000100000300
(1646598234.302635) can1 0C9#0000000D00400800
(1646598234.302867) can1 191#061E061E05B40000
(1646598234.303136) can1 1ED#4190000000003F78
(1646598234.303359) can1 1EF#00000000
(1646598234.304965) can1 0C7#03FE0000
(1646598234.305198) can1 0F9#00006000000000FF
(1646598234.305421) can1 199#CFFF0B82F47B00FF
(1646598234.312892) can1 1E1#00FD130060
(1646598234.313124) can1 0F1#34850040
(1646598234.313347) can1 1F1#000A000008000060
(1646598234.315151) can1 0C9#0000000000400800
(1646598234.315384) can1 191#061E061E05B40000
(1646598234.315657) can1 1A1#00100100000000
(1646598234.315859) can1 1C3#061E061E00000000
(1646598234.316161) can1 1ED#4190000000003F78
(1646598234.316384) can1 1EF#00000000
(1646598234.316612) can1 2C3#061E06A00FFF
(1646598234.316835) can1 2D1#000000000000
(1646598234.317056) can1 2D3#0303
(1646598234.317485) can1 0C7#03FE0000
(1646598234.317710) can1 0F9#00006000000000FF
(1646598234.317976) can1 199#0FFF0B82F47E00FF
(1646598234.324992) can1 19D#80003FFE010000FF
(1646598234.325225) can1 1AF#000001
(1646598234.325448) can1 1F5#0F0F000100000300
(1646598234.327632) can1 0C9#0000000700400800
(1646598234.327865) can1 191#061E061E05B40000
(1646598234.328138) can1 1ED#4190000000003F78
(1646598234.328361) can1 1EF#00000000
(1646598234.329952) can1 0C7#03FE0000
(1646598234.330185) can1 0F9#00006000000000FF
(1646598234.330454) can1 199#4FFF0B82F47D00FF
(1646598234.340079) can1 0C9#0000000A00400800
(1646598234.340311) can1 191#061E061E05B40000
(1646598234.340584) can1 1A1#00100100000000
(1646598234.340806) can1 1C3#061E061E00000000
(1646598234.341090) can1 1ED#4190000000003F78
(1646598234.341315) can1 1EF#00000000
(1646598234.342501) can1 0C7#03FE0000
(1646598234.342733) can1 0F9#00006000000000FF
(1646598234.343007) can1 199#8FFF0B82F47C00FF
(1646598234.345415) can1 1E1#0000100000
(1646598234.345648) can1 0F1#00850040
(1646598234.345861) can1 1F1#000A000008000060
(1646598234.349996) can1 19D#C0003FFD010000FF
(1646598234.350229) can1 1AF#000001
(1646598234.350452) can1 1F5#0F0F000100000300
(1646598234.352630) can1 0C9#0000000D00400800
(1646598234.352862) can1 191#061E061E05B40000
(1646598234.353135) can1 1ED#4190000000003F78
(1646598234.353363) can1 1EF#00000000
(1646598234.354944) can1 0C7#03FE0000
(1646598234.355176) can1 0F9#00006000000000FF
(1646598234.355400) can1 199#CFFF0B82F47B00FF
(1646598234.365080) can1 0C9#0000000000400800
(1646598234.365315) can1 191#061E061E05B40000
(1646598234.365587) can1 1A1#00100100000000
(1646598234.365860) can1 1C3#061E061E00000000
(1646598234.366091) can1 1ED#4190000000003F78
(1646598234.366315) can1 1EF#00000000
(1646598234.366538) can1 2C3#061E06A00FFF
(1646598234.366764) can1 2D1#000000000000
(1646598234.366989) can1 2D3#0303
(1646598234.367212) can1 3C1#076528A0771F48E2
(1646598234.367433) can1 3D1#0033800000000000
(1646598234.367658) can1 0C7#03FE0000
(1646598234.367881) can1 0F9#00006000000000FF
(1646598234.368105) can1 199#0FFF0B82F47E00FF
(1646598234.371472) can1 3E9#0000200080006000
(1646598234.371705) can1 3F9#8000000056000012
(1646598234.371928) can1 3FB#0008
(1646598234.372151) can1 4C1#00BE55384E000000
(1646598234.372376) can1 4D1#080004031E3F009C
(1646598234.372644) can1 4F1#022E022E00F4009C
(1646598234.372867) can1 772#00000000000000
(1646598234.374989) can1 19D#00000000010000FF
(1646598234.375222) can1 1AF#000001
(1646598234.375445) can1 1F5#0F0F000100000300
(1646598234.377630) can1 0C9#0000000700400800
(1646598234.377863) can1 191#061E061E05B40000
(1646598234.378087) can1 1E1#00FF110020
(1646598234.378311) can1 0F1#1C850040
(1646598234.378538) can1 1ED#4190000000003F78
(1646598234.378761) can1 1F1#000A000008000060
(1646598234.378983) can1 1EF#00000000
(1646598234.379994) can1 0C7#03FE0000
(1646598234.380226) can1 0F9#00006000000000FF
(1646598234.380449) can1 199#4FFF0B82F47D00FF
(1646598234.390076) can1 0C9#0000000A00400800
(1646598234.390308) can1 191#061E061E05B40000
(1646598234.390587) can1 1A1#00100100000000
(1646598234.390812) can1 1C3#061E061E00000000
(1646598234.391093) can1 1ED#4190000000003F78
(1646598234.391316) can1 1EF#00000000
(1646598234.392544) can1 0C7#03FE0000
(1646598234.392776) can1 0F9#00006000000000FF
(1646598234.393000) can1 199#8FFF0B82F47C00FF
(1646598234.399989) can1 19D#40003FFF010000FF
(1646598234.400222) can1 1AF#000001
(1646598234.400446) can1 1F5#0F0F000100000300
(1646598234.402627) can1 0C9#0000000D00400800
(1646598234.402859) can1 191#061E061E05B40000
(1646598234.403128) can1 1ED#4190000000003F78
(1646598234.403352) can1 1EF#00000000
(1646598234.404939) can1 0C7#03FE0000
(1646598234.405172) can1 0F9#00006000000000FF
(1646598234.405394) can1 199#CFFF0B82F47B00FF
(1646598234.410462) can1 1E1#00FE120040
(1646598234.410694) can1 0F1#28850040
(1646598234.410918) can1 1F1#000A000008000060
(1646598234.415141) can1 0C9#0000000000400800
(1646598234.415373) can1 191#061E061E05B40000
(1646598234.415646) can1 1A1#00100100000000
(1646598234.415859) can1 1C3#061E061E00000000
(1646598234.416156) can1 1ED#4190000000003F78
(1646598234.416379) can1 1EF#00000000
(1646598234.416601) can1 2C3#061E06A00FFF
(1646598234.416824) can1 2D1#000000000000
(1646598234.417047) can1 2D3#0303
(1646598234.417504) can1 0C7#03FE0000
(1646598234.417736) can1 0F9#00006000000000FF
(1646598234.418016) can1 199#0FFF0B82F47E00FF
(1646598234.424982) can1 19D#80003FFE010000FF
(1646598234.425215) can1 1AF#000001
(1646598234.425439) can1 1F5#0F0F000100000300
(1646598234.427624) can1 0C9#0000000700400800
(1646598234.427857) can1 191#061E061E05B40000
(1646598234.428129) can1 1ED#4190000000003F78
(1646598234.428352) can1 1EF#00000000
(1646598234.429952) can1 0C7#03FE0000
(1646598234.430184) can1 0F9#00006000000000FF
(1646598234.430408) can1 199#4FFF0B82F47D00FF
(1646598234.440073) can1 0C9#0000000A00400800
(1646598234.440305) can1 191#061E061E05B40000
(1646598234.440573) can1 1A1#00100100000000
(1646598234.440797) can1 1C3#061E061E00000000
(1646598234.441082) can1 1ED#4190000000003F78
(1646598234.441305) can1 1EF#00000000
(1646598234.442497) can1 0C7#03FE0000
(1646598234.442729) can1 0F9#00006000000000FF
(1646598234.443004) can1 199#8FFF0B82F47C00FF
(1646598234.443230) can1 1E1#00FD130060
(1646598234.443538) can1 0F1#34850040
(1646598234.443761) can1 1F1#000A000008000060
(1646598234.449993) can1 19D#C0003FFD010000FF
(1646598234.450226) can1 1AF#000001
(1646598234.450448) can1 1F5#0F0F000100000300
(1646598234.452621) can1 0C9#0000000D00400800
(1646598234.452854) can1 191#061E061E05B40000
(1646598234.453123) can1 1ED#4190000000003F78
(1646598234.453347) can1 1EF#00000000
(1646598234.454956) can1 0C7#03FE0000
(1646598234.455189) can1 0F9#00006000000000FF
(1646598234.455412) can1 199#CFFF0B82F47B00FF
(1646598234.465072) can1 0C9#0000000000400800
(1646598234.465312) can1 191#061E061E05B40000
(1646598234.465585) can1 1A1#00100100000000
(1646598234.465808) can1 1C3#061E061E00000000
(1646598234.466098) can1 1ED#4190000000003F78
(1646598234.466320) can1 1EF#00000000
(1646598234.466544) can1 2C3#061E06A00FFF
(1646598234.466768) can1 2D1#000000000000
(1646598234.466993) can1 2D3#0303
(1646598234.467216) can1 3C1#076528A0771F48E2
(1646598234.467440) can1 3D1#0033800000000000
(1646598234.467663) can1 0C7#03FE0000
(1646598234.467886) can1 0F9#00006000000000FF
(1646598234.468109) can1 199#0FFF0B82F47E00FF
(1646598234.471459) can1 3E9#0000200080006000
(1646598234.474991) can1 19D#00000000010000FF
(1646598234.475224) can1 1AF#000001
(1646598234.475448) can1 1F5#0F0F000100000300
(1646598234.475672) can1 4C9#40360000
(1646598234.477570) can1 77F#00000000000000
(1646598234.477582) can1 1E1#0000100000
(1646598234.477588) can1 0F1#00850040
(1646598234.477595) can1 1F1#000A000008000060
(1646598234.477602) can1 4E9#8120
(1646598234.477610) can1 1F3#0020
(1646598234.478539) can1 0C9#0000000700400800
(1646598234.478548) can1 191#061E061E05B40000
(1646598234.478554) can1 1ED#4190000000003F78
(1646598234.478561) can1 1EF#00000000
(1646598234.480060) can1 0C7#03FE0000
(1646598234.480292) can1 0F9#00006000000000FF
(1646598234.480514) can1 199#4FFF0B82F47D00FF
(1646598234.490242) can1 0C9#0000000A00400800
(1646598234.490392) can1 191#061E061E05B40000
(1646598234.490749) can1 1A1#00100100000000
(1646598234.490908) can1 1C3#061E061E00000000
(1646598234.491091) can1 1ED#4190000000003F78
(1646598234.492338) can1 1EF#00000000
(1646598234.492749) can1 0C7#03FE0000
(1646598234.492759) can1 0F9#00006000000000FF
(1646598234.495856) can1 199#8FFF0B82F47C00FF
(1646598234.499996) can1 19D#40003FFF010000FF
(1646598234.500229) can1 1AF#000001
(1646598234.500452) can1 1F5#0F0F000100000300
(1646598234.502618) can1 0C9#0000000D00400800
(1646598234.502850) can1 191#061E061E05B40000
(1646598234.503123) can1 1ED#4190000000003F78
(1646598234.503352) can1 1EF#00000000
(1646598234.504922) can1 0C7#03FE0000
(1646598234.505155) can1 0F9#00006000000000FF
(1646598234.505378) can1 199#CFFF0B82F47B00FF
(1646598234.508048) can1 1E1#00FF110020
(1646598234.508280) can1 0F1#1C850040
(1646598234.508504) can1 1F1#AE0E000008000078
(1646598234.515066) can1 0C9#0000000000400800
(1646598234.515299) can1 191#061E061E05B40000
(1646598234.515572) can1 1A1#00100100000000
(1646598234.515796) can1 1C3#061E061E00000000
(1646598234.516080) can1 1ED#4190000000003F78
(1646598234.516302) can1 1EF#00000000
(1646598234.516527) can1 2C3#061E06A00FFF
(1646598234.516751) can1 2D1#000000000000
(1646598234.516972) can1 2D3#0303
(1646598234.517503) can1 0C7#03FE0000
(1646598234.517735) can1 0F9#00006000000000FF
(1646598234.517958) can1 199#0FFF0B82F47E00FF
(1646598234.524948) can1 19D#80003FFE010000FF
(1646598234.525181) can1 1AF#000001
(1646598234.525404) can1 1F5#0F0F000100000300
(1646598234.527619) can1 0C9#0000000700400800
(1646598234.527851) can1 191#061E061E05B40000
(1646598234.528127) can1 1ED#4190000000003F78
(1646598234.528350) can1 1EF#00000000
(1646598234.529932) can1 0C7#03FE0000
(1646598234.530165) can1 0F9#00006000000000FF
(1646598234.530388) can1 199#4FFF0B82F47D00FF
(1646598234.540063) can1 0C9#0000000A00400800
(1646598234.540296) can1 191#061E061E05B40000
(1646598234.540573) can1 1A1#00100100000000
(1646598234.540799) can1 1C3#061E061E00000000
(1646598234.541022) can1 1E1#00FE120040
(1646598234.541245) can1 0F1#28850040
(1646598234.541470) can1 1ED#4190000000003F78
(1646598234.541693) can1 1F1#AE0E000008000078
(1646598234.541914) can1 1EF#00000000
(1646598234.542521) can1 0C7#03FE0000
(1646598234.542753) can1 0F9#00006000000000FF
(1646598234.542976) can1 199#8FFF0B82F47C00FF
(1646598234.550004) can1 19D#C0003FFD010000FF
(1646598234.550237) can1 1AF#000001
(1646598234.550460) can1 1F5#0F0F000100000300
(1646598234.552611) can1 0C9#0000000D00400800
(1646598234.552844) can1 191#061E061E05B40000
(1646598234.553112) can1 1ED#4190000000003F78
(1646598234.553336) can1 1EF#00000000
(1646598234.554932) can1 0C7#03FE0000
(1646598234.555165) can1 0F9#00006000000000FF
(1646598234.555387) can1 199#CFFF0B82F47B00FF
(1646598234.565064) can1 0C9#0000000000400800
(1646598234.565296) can1 191#061E061E05B40000
(1646598234.565569) can1 1A1#00100100000000
(1646598234.565857) can1 1C3#061E061E00000000
(1646598234.566065) can1 1ED#4190000000003F78
(1646598234.566275) can1 1EF#00000000
(1646598234.566506) can1 2C3#061E06A00FFF
(1646598234.566730) can1 2D1#000000000000
(1646598234.566954) can1 2D3#0303
(1646598234.567177) can1 3C1#076528A0771F48E2
(1646598234.567401) can1 3D1#0033800000000000
(1646598234.567624) can1 0C7#03FE0000
(1646598234.567846) can1 0F9#00006000000000FF
(1646598234.568069) can1 199#0FFF0B82F47E00FF
(1646598234.571452) can1 3E9#0000200080006000
(1646598234.573169) can1 1E1#00FD130060
(1646598234.573401) can1 0F1#34850040
(1646598234.573623) can1 1F1#AE0E000008000078
(1646598234.573846) can1 1F3#4060
(1646598234.574989) can1 19D#00000000010000FF
(1646598234.575222) can1 1AF#000001
(1646598234.575446) can1 1F5#0F0F000100000300
(1646598234.577680) can1 0C9#0000000700400800
(1646598234.577913) can1 191#061E061E05B40000
(1646598234.578180) can1 1ED#4190000000003F78
(1646598234.578409) can1 1EF#00000000
(1646598234.580040) can1 0C7#03FE0000
(1646598234.580273) can1 0F9#00006000000000FF
(1646598234.580495) can1 199#4FFF0B82F47D00FF
(1646598234.590058) can1 0C9#0000000A00400800
(1646598234.590291) can1 191#061E061E05B40000
(1646598234.590566) can1 1A1#00100100000000
(1646598234.590789) can1 1C3#061E061E00000000
(1646598234.591070) can1 1ED#4190000000003F78
(1646598234.591295) can1 1EF#00000000
(1646598234.592495) can1 0C7#03FE0000
(1646598234.592727) can1 0F9#00006000000000FF
(1646598234.592951) can1 199#8FFF0B82F47C00FF
(1646598234.599968) can1 19D#40003FFF010000FF
(1646598234.600201) can1 1AF#000001
(1646598234.600422) can1 1F5#0F0F000100000300
(1646598234.602607) can1 0C9#0000000D00400800
(1646598234.602840) can1 191#061E061E05B40000
(1646598234.603113) can1 1ED#4190000000003F78
(1646598234.603337) can1 1EF#00000000
(1646598234.604946) can1 0C7#03FE0000
(1646598234.605178) can1 0F9#00006000000000FF
(1646598234.605402) can1 199#CFFF0B82F47B00FF
(1646598234.605977) can1 1E1#0000100000
(1646598234.606216) can1 0F1#00850040
(1646598234.606440) can1 1F1#AE0E000008000078
(1646598234.615082) can1 0C9#0000000000400800
(1646598234.615315) can1 191#061E061E05B40000
(1646598234.615588) can1 1A1#00100100000000
(1646598234.615810) can1 1C3#061E061E00000000
(1646598234.616094) can1 1ED#4190000000003F78
(1646598234.616317) can1 1EF#00000000
(1646598234.616541) can1 2C3#061E06A00FFF
(1646598234.616769) can1 2D1#000000000000
(1646598234.616991) can1 2D3#0303
(1646598234.617441) can1 0C7#03FE0000
(1646598234.617715) can1 0F9#00006000000000FF
(1646598234.617940) can1 199#0FFF0B82F47E00FF
(1646598234.621451) can1 3F9#8400000055000012
(1646598234.621684) can1 3FB#0008
(1646598234.624943) can1 19D#80003FFE010000FF
(1646598234.625176) can1 1AF#000001
(1646598234.625401) can1 1F5#0F0F000100000300
(1646598234.627610) can1 0C9#0000000700400800
(1646598234.627843) can1 191#061E061E05B40000
(1646598234.628117) can1 1ED#4190000000003F78
(1646598234.628340) can1 1EF#00000000
(1646598234.629952) can1 0C7#03FE0000
(1646598234.630185) can1 0F9#00006000000000FF
(1646598234.630410) can1 199#4FFF0B82F47D00FF
(1646598234.638174) can1 1E1#00FF110020
(1646598234.638407) can1 0F1#1C850040
(1646598234.638630) can1 1F1#AE0E000008000078
(1646598234.640122) can1 0C9#0000000A00400800
(1646598234.640354) can1 191#061E061E05B40000
(1646598234.640628) can1 1A1#00100100000000
(1646598234.640850) can1 1C3#061E061E00000000
(1646598234.641140) can1 1ED#4190000000003F78
(1646598234.641364) can1 1EF#00000000
(1646598234.642569) can1 0C7#03FE0000
(1646598234.642801) can1 0F9#00006000000000FF
(1646598234.643025) can1 199#8FFF0B82F47C00FF
(1646598234.650032) can1 19D#C0003FFD010000FF
(1646598234.650265) can1 1AF#000001
(1646598234.650490) can1 1F5#0F0F000100000300
(1646598234.652604) can1 0C9#0000000D00400800
(1646598234.652836) can1 191#061E061E05B40000
(1646598234.653106) can1 1ED#4190000000003F78
(1646598234.653329) can1 1EF#00000000
(1646598234.654930) can1 0C7#03FE0000
(1646598234.655163) can1 0F9#00006000000000FF
(1646598234.655387) can1 199#CFFF0B82F47B00FF
(1646598234.665052) can1 0C9#0000000000400800
(1646598234.665285) can1 191#061E061E05B40000
(1646598234.665552) can1 1A1#00100100000000
(1646598234.665827) can1 1C3#061E061E00000000
(1646598234.666063) can1 1ED#4190000000003F78
(1646598234.666287) can1 1EF#00000000
(1646598234.666515) can1 2C3#061E06A00FFF
(1646598234.666738) can1 2D1#000000000000
(1646598234.666961) can1 2D3#0303
(1646598234.667187) can1 3C1#076528A0771F48E2
(1646598234.667412) can1 3D1#0033800000000000
(1646598234.667636) can1 0C7#03FE0000
(1646598234.667859) can1 0F9#00006000000000FF
(1646598234.668082) can1 199#0FFF0B82F47E00FF
(1646598234.670776) can1 1E1#00FE120040
(1646598234.671009) can1 0F1#28850040
(1646598234.671232) can1 1F1#AE0E000008000078
(1646598234.671456) can1 1F3#80A0
(1646598234.671681) can1 3E9#0000200080006000
(1646598234.675089) can1 19D#00000000010000FF
(1646598234.675322) can1 1AF#000001
(1646598234.675545) can1 1F5#0F0F000100000300
(1646598234.677652) can1 0C9#0000000700400800
(1646598234.677885) can1 191#061E061E05B40000
(1646598234.678158) can1 1ED#4190000000003F78
(1646598234.678381) can1 1EF#00000000
(1646598234.679933) can1 0C7#03FE0000
(1646598234.680165) can1 0F9#00006000000000FF
(1646598234.680439) can1 199#4FFF0B82F47D00FF
(1646598234.690048) can1 0C9#0000000A00400800
(1646598234.690281) can1 191#061E061E05B40000
(1646598234.690550) can1 1A1#00100100000000
(1646598234.690775) can1 1C3#061E061E00000000
(1646598234.691060) can1 1ED#4190000000003F78
(1646598234.691285) can1 1EF#00000000
(1646598234.692521) can1 0C7#03FE0000
(1646598234.692754) can1 0F9#00006000000000FF
(1646598234.692977) can1 199#8FFF0B82F47C00FF
(1646598234.699968) can1 19D#40003FFF010000FF
(1646598234.700201) can1 1AF#000001
(1646598234.700424) can1 1F5#0F0F000100000300
(1646598234.702600) can1 0C9#0000000D00400800
(1646598234.702833) can1 191#061E061E05B40000
(1646598234.703107) can1 1ED#4190000000003F78
(1646598234.703336) can1 1EF#00000000
(1646598234.703624) can1 1E1#00FD130060
(1646598234.703901) can1 0F1#34850040
(1646598234.704125) can1 1F1#AE0E000008000078
(1646598234.704941) can1 0C7#03FE0000
(1646598234.705173) can1 0F9#00006000000000FF
(1646598234.705396) can1 199#CFFF0B82F47B00FF
(1646598234.715070) can1 0C9#0000000000400800
(1646598234.715303) can1 191#061E061E05B40000
(1646598234.715576) can1 1A1#00100100000000
(1646598234.715797) can1 1C3#061E061E00000000
(1646598234.716090) can1 1ED#4190000000003F78
(1646598234.716318) can1 1EF#00000000
(1646598234.716542) can1 2C3#061E06A00FFF
(1646598234.716766) can1 2D1#000000000000
(1646598234.716988) can1 2D3#0303
(1646598234.717499) can1 0C7#03FE0000
(1646598234.717732) can1 0F9#00006000000000FF
(1646598234.717955) can1 199#0FFF0B82F47E00FF
(1646598234.724930) can1 19D#80003FFE010000FF
(1646598234.725163) can1 1AF#000001
(1646598234.725386) can1 1F5#0F0F000100000300
(1646598234.727603) can1 0C9#0000000700400800
(1646598234.727835) can1 191#061E061E05B40000
(1646598234.728108) can1 1ED#4190000000003F78
(1646598234.728330) can1 1EF#00000000
(1646598234.729950) can1 0C7#03FE0000
(1646598234.730183) can1 0F9#00006000000000FF
(1646598234.730405) can1 199#4FFF0B82F47D00FF
(1646598234.735816) can1 1E1#0000100000
(1646598234.736068) can1 0F1#00850040
(1646598234.736289) can1 1F1#AE0E000008000078
(1646598234.740113) can1 0C9#0000000A00400800
(1646598234.740346) can1 191#061E061E05B40000
(1646598234.740619) can1 1A1#00100100000000
(1646598234.740846) can1 1C3#061E061E00000000
(1646598234.741130) can1 1ED#4190000000003F78
(1646598234.741353) can1 1EF#00000000
(1646598234.742500) can1 0C7#03FE0000
(1646598234.742732) can1 0F9#00006000000000FF
(1646598234.742956) can1 199#8FFF0B82F47C00FF
(1646598234.749993) can1 19D#C0003FFD010000FF
(1646598234.750226) can1 1AF#000001
(1646598234.750450) can1 1F5#0F0F000100000300
(1646598234.752594) can1 0C9#0000000D00400800
(1646598234.752827) can1 191#061E061E05B40000
(1646598234.753100) can1 1ED#4190000000003F78
(1646598234.753328) can1 1EF#00000000
(1646598234.754953) can1 0C7#03FE0000
(1646598234.755185) can1 0F9#00006000000000FF
(1646598234.755409) can1 199#CFFF0B82F47B00FF
(1646598234.765045) can1 0C9#0000000000400800
(1646598234.765278) can1 191#061E061E05B40000
(1646598234.765546) can1 1A1#00100100000000
(1646598234.765819) can1 1C3#061E061E00000000
(1646598234.766056) can1 1ED#4190000000003F78
(1646598234.766280) can1 1EF#00000000
(1646598234.766501) can1 2C3#061E06A00FFF
(1646598234.766725) can1 2D1#000000000000
(1646598234.766947) can1 2D3#0303
(1646598234.767171) can1 3C1#076528A0771F48E2
(1646598234.767394) can1 3D1#0033800000000000
(1646598234.767616) can1 0C7#03FE0000
(1646598234.767840) can1 0F9#00006000000000FF
(1646598234.768063) can1 199#0FFF0B82F47E00FF
(1646598234.768660) can1 1E1#00FF110020
(1646598234.768893) can1 0F1#1C850040
(1646598234.769117) can1 1F1#AE0E000008000078
(1646598234.771504) can1 3E9#0000200080006000
(1646598234.775031) can1 19D#00000000010000FF
(1646598234.775264) can1 1AF#000001
(1646598234.775485) can1 1F5#0F0F000100000300
(1646598234.777594) can1 0C9#0000000700400800
(1646598234.777826) can1 191#061E061E05B40000
(1646598234.778094) can1 1ED#4190000000003F78
(1646598234.778319) can1 1EF#00000000
(1646598234.779962) can1 0C7#03FE0000
(1646598234.780195) can1 0F9#00006000000000FF
(1646598234.780418) can1 199#4FFF0B82F47D00FF
(1646598234.790042) can1 0C9#0000000A00400800
(1646598234.790275) can1 191#061E061E05B40000
(1646598234.790548) can1 1A1#00100100000000
(1646598234.790772) can1 1C3#061E061E00000000
(1646598234.791053) can1 1ED#4190000000003F78
(1646598234.791277) can1 1EF#00000000
(1646598234.792520) can1 0C7#03FE0000
(1646598234.792752) can1 0F9#00006000000000FF
(1646598234.793020) can1 199#8FFF0B82F47C00FF
(1646598234.799969) can1 19D#40003FFF010000FF
(1646598234.800202) can1 1AF#000001
(1646598234.800425) can1 1F5#0F0F000100000300
(1646598234.801020) can1 1E1#00FE120040
(1646598234.801252) can1 0F1#28850040
(1646598234.801475) can1 1F1#AE0E000008000078
(1646598234.802660) can1 0C9#0000000D00400800
(1646598234.802892) can1 191#061E061E05B40000
(1646598234.803162) can1 1ED#4190000000003F78
(1646598234.803385) can1 1EF#00000000
(1646598234.804961) can1 0C7#03FE0000
(1646598234.805194) can1 0F9#00006000000000FF
(1646598234.805417) can1 199#CFFF0B82F47B00FF
(1646598234.815039) can1 0C9#0000000000400800
(1646598234.815272) can1 191#061E061E05B40000
(1646598234.815545) can1 1A1#00100100000000
(1646598234.815769) can1 1C3#061E061E00000000
(1646598234.816058) can1 1ED#4190000000003F78
(1646598234.816286) can1 1EF#00000000
(1646598234.816510) can1 2C3#061E06A00FFF
(1646598234.816734) can1 2D1#000000000000
(1646598234.816957) can1 2D3#0303
(1646598234.817498) can1 0C7#03FE0000
(1646598234.817731) can1 0F9#00006000000000FF
(1646598234.817954) can1 199#0FFF0B82F47E00FF
(1646598234.824933) can1 19D#80003FFE010000FF
(1646598234.825166) can1 1AF#000001
(1646598234.825389) can1 1F5#0F0F000100000300
(1646598234.827592) can1 0C9#0000000700400800
(1646598234.827825) can1 191#061E061E05B40000
(1646598234.828099) can1 1ED#4190000000003F78
(1646598234.828322) can1 1EF#00000000
(1646598234.829924) can1 0C7#03FE0000
(1646598234.830156) can1 0F9#00006000000000FF
(1646598234.830379) can1 199#4FFF0B82F47D00FF
(1646598234.833390) can1 1E1#00FD130060
(1646598234.833622) can1 0F1#34850040
(1646598234.833845) can1 1F1#AE0E000008000078
(1646598234.840106) can1 0C9#0000000A00400800
(1646598234.840339) can1 191#061E061E05B40000
(1646598234.840612) can1 1A1#00100100000000
(1646598234.840836) can1 1C3#061E061E00000000
(1646598234.841118) can1 1ED#4190000000003F78
(1646598234.841341) can1 1EF#00000000
(1646598234.842476) can1 0C7#03FE0000
(1646598234.842708) can1 0F9#00006000000000FF
(1646598234.842981) can1 199#8FFF0B82F47C00FF
(1646598234.849945) can1 19D#C0003FFD010000FF
(1646598234.850178) can1 1AF#000001
(1646598234.850401) can1 1F5#0F0F000100000300
(1646598234.852585) can1 0C9#0000000D00400800
(1646598234.852817) can1 191#061E061E05B40000
(1646598234.853088) can1 1ED#4190000000003F78
(1646598234.853312) can1 1EF#00000000
(1646598234.854953) can1 0C7#03FE0000
(1646598234.855186) can1 0F9#00006000000000FF
(1646598234.855408) can1 199#CFFF0B82F47B00FF
(1646598234.865036) can1 0C9#0000000000400800
(1646598234.865270) can1 191#061E061E05B40000
(1646598234.865555) can1 1A1#00100100000000
(1646598234.865830) can1 1C3#061E061E00000000
(1646598234.866071) can1 1ED#4190000000003F78
(1646598234.866296) can1 1EF#00000000
(1646598234.866519) can1 1E1#0000100000
(1646598234.866745) can1 2C3#061E06A00FFF
(1646598234.866966) can1 0F1#00850040
(1646598234.867190) can1 1F1#AE0E000008000078
(1646598234.867433) can1 2D1#000000000000
(1646598234.867532) can1 1F3#C0E0
(1646598234.867777) can1 0C7#03FE0000
(1646598234.867875) can1 0F9#00006000000000FF
(1646598234.868098) can1 2D3#0303
(1646598234.868321) can1 199#0FFF0B82F47E00FF
(1646598234.868545) can1 3C1#076528A0771F48E2
(1646598234.868768) can1 3D1#0033800000000000
(1646598234.871496) can1 3E9#0000200080006000
(1646598234.871728) can1 3F9#8400000055000012
(1646598234.871950) can1 3FB#0008
(1646598234.872173) can1 4C1#00BE55384E000000
(1646598234.872401) can1 4D1#080004031E3F009C
(1646598234.875060) can1 19D#00000000010000FF
(1646598234.875293) can1 1AF#000001
(1646598234.875516) can1 1F5#0F0F000100000300
(1646598234.877587) can1 0C9#0000000700400800
(1646598234.877820) can1 191#061E061E05B40000
(1646598234.878093) can1 1ED#4190000000003F78
(1646598234.878317) can1 1EF#00000000
(1646598234.879994) can1 0C7#03FE0000
(1646598234.880226) can1 0F9#00006000000000FF
(1646598234.880450) can1 199#4FFF0B82F47D00FF
(1646598234.890033) can1 0C9#0000000A00400800
(1646598234.890266) can1 191#061E061E05B40000
(1646598234.890539) can1 1A1#00100100000000
(1646598234.890761) can1 1C3#061E061E00000000
(1646598234.891043) can1 1ED#4190000000003F78
(1646598234.891266) can1 1EF#00000000
(1646598234.892510) can1 0C7#03FE0000
(1646598234.892742) can1 0F9#00006000000000FF
(1646598234.893014) can1 199#8FFF0B82F47C00FF
(1646598234.898450) can1 1E1#00FF110020
(1646598234.898683) can1 0F1#1C850040
(1646598234.898906) can1 1F1#AE0E000008000078
(1646598234.899985) can1 19D#40003FFF010000FF
(1646598234.900217) can1 1AF#000001
(1646598234.900441) can1 1F5#0F0F000100000300
(1646598234.902652) can1 0C9#0000000D00400800
(1646598234.902884) can1 191#061E061E05B40000
(1646598234.903153) can1 1ED#4190000000003F78
(1646598234.903376) can1 1EF#00000000
(1646598234.904983) can1 0C7#03FE0000
(1646598234.905215) can1 0F9#00006000000000FF
(1646598234.905439) can1 199#CFFF0B82F47B00FF
(1646598234.915031) can1 0C9#0000000000400800
(1646598234.915264) can1 191#061E061E05B40000
(1646598234.915536) can1 1A1#00100100000000
(1646598234.915759) can1 1C3#061E061E00000000
(1646598234.916042) can1 1ED#4190000000003F78
(1646598234.916266) can1 1EF#00000000
(1646598234.916491) can1 2C3#061E06A00FFF
(1646598234.916714) can1 2D1#000000000000
(1646598234.916937) can1 2D3#0303
(1646598234.917489) can1 0C7#03FE0000
(1646598234.917771) can1 0F9#00006000000000FF
(1646598234.917995) can1 199#0FFF0B82F47E00FF
(1646598234.924948) can1 19D#80003FFE010000FF
(1646598234.925180) can1 1AF#000001
(1646598234.925405) can1 1F5#0F0F000100000300
(1646598234.927583) can1 0C9#0000000700400800
(1646598234.927815) can1 191#061E061E05B40000
(1646598234.928089) can1 1ED#4190000000003F78
(1646598234.928311) can1 1EF#00000000
(1646598234.929921) can1 0C7#03FE0000
(1646598234.930154) can1 0F9#00006000000000FF
(1646598234.930377) can1 199#4FFF0B82F47D00FF
(1646598234.931123) can1 1E1#00FE120040
(1646598234.931356) can1 0F1#28850040
(1646598234.931579) can1 1F1#AE0E000008000078
(1646598234.940027) can1 0C9#0000000A00400800
(1646598234.940260) can1 191#061E061E05B40000
(1646598234.940534) can1 1A1#00100100000000
(1646598234.940756) can1 1C3#061E061E00000000
(1646598234.941038) can1 1ED#4190000000003F78
(1646598234.941261) can1 1EF#00000000
(1646598234.942512) can1 0C7#03FE0000
(1646598234.942744) can1 0F9#00006000000000FF
(1646598234.942968) can1 199#8FFF0B82F47C00FF
(1646598234.949947) can1 19D#C0003FFD010000FF
(1646598234.950180) can1 1AF#000001
(1646598234.950403) can1 1F5#0F0F000100000300
(1646598234.952578) can1 0C9#0000000D00400800
(1646598234.952811) can1 191#061E061E05B40000
(1646598234.953084) can1 1ED#4190000000003F78
(1646598234.953312) can1 1EF#00000000
(1646598234.954927) can1 0C7#03FE0000
(1646598234.955159) can1 0F9#00006000000000FF
(1646598234.955383) can1 199#CFFF0B82F47B00FF
(1646598234.963565) can1 1E1#00FD130060
(1646598234.963798) can1 0F1#34850040
(1646598234.964022) can1 1F1#AE0E000008000078
(1646598234.964247) can1 1F3#0020
(1646598234.965094) can1 0C9#0000000000400800
(1646598234.965327) can1 191#061E061E05B40000
(1646598234.965594) can1 1A1#00100100000000
(1646598234.965862) can1 1C3#061E061E00000000
(1646598234.966097) can1 1ED#4190000000003F78
(1646598234.966320) can1 1EF#00000000
(1646598234.966541) can1 2C3#061E06A00FFF
(1646598234.966766) can1 2D1#000000000000
(1646598234.966989) can1 2D3#0303
(1646598234.967213) can1 3C1#076528A0771F48E2
(1646598234.967438) can1 3D1#0033800000000000
(1646598234.967659) can1 0C7#03FE0000
(1646598234.967883) can1 0F9#00006000000000FF
(1646598234.968106) can1 199#0FFF0B82F47E00FF
(1646598234.971414) can1 3E9#0000200080006000
(1646598234.975056) can1 19D#00000000010000FF
(1646598234.975289) can1 1AF#000001
(1646598234.975512) can1 1F5#0F0F000100000300
(1646598234.975735) can1 4C9#40360000
(1646598234.977593) can1 0C9#0000000700400800
(1646598234.977826) can1 191#061E061E05B40000
(1646598234.978099) can1 1ED#4190000000003F78
(1646598234.978326) can1 1EF#00000000
(1646598234.979931) can1 0C7#03FE0000
(1646598234.980164) can1 0F9#00006000000000FF
(1646598234.980387) can1 199#4FFF0B82F47D00FF
(1646598234.990024) can1 0C9#0000000A00400800
(1646598234.990257) can1 191#061E061E05B40000
(1646598234.990529) can1 1A1#00100100000000
(1646598234.990753) can1 1C3#061E061E00000000
(1646598234.991035) can1 1ED#4190000000003F78
(1646598234.991259) can1 1EF#00000000
(1646598234.992518) can1 0C7#03FE0000
(1646598234.992750) can1 0F9#00006000000000FF
(1646598234.993018) can1 199#8FFF0B82F47C00FF
(1646598234.996035) can1 1E1#0000100000
(1646598234.996267) can1 0F1#00850040
(1646598234.996490) can1 1F1#AE0E000008000078
(1646598235.000004) can1 19D#40003FFF010000FF
(1646598235.000237) can1 1AF#000001
(1646598235.000458) can1 1F5#0F0F000100000300
(1646598235.002644) can1 0C9#0000000D00400800
(1646598235.002877) can1 191#061E061E05B40000
(1646598235.003151) can1 1ED#4190000000003F78
(1646598235.003379) can1 1EF#00000000
(1646598235.004937) can1 0C7#03FE0000
(1646598235.005170) can1 0F9#00006000000000FF
(1646598235.005393) can1 199#CFFF0B82F47B00FF
(1646598235.015022) can1 0C9#0000000000400800
(1646598235.015255) can1 191#061E061E05B40000
(1646598235.015527) can1 1A1#00100100000000
(1646598235.015749) can1 1C3#061E061E00000000
(1646598235.016046) can1 1ED#4190000000003F78
(1646598235.016269) can1 1EF#00000000
(1646598235.016495) can1 2C3#061E06A00FFF
(1646598235.016718) can1 2D1#000000000000
(1646598235.016941) can1 2D3#0303
(1646598235.017472) can1 0C7#03FE0000
(1646598235.017705) can1 0F9#00006000000000FF
(1646598235.017929) can1 199#0FFF0B82F47E00FF
(1646598235.024930) can1 19D#80003FFE010000FF
(1646598235.025163) can1 1AF#000001
(1646598235.025386) can1 1F5#0F0F000100000300
(1646598235.027574) can1 0C9#0000000700400800
(1646598235.027806) can1 191#061E061E05B40000
(1646598235.028072) can1 1ED#4190000000003F78
(1646598235.028296) can1 1EF#00000000
(1646598235.028835) can1 1E1#00FF110020
(1646598235.029067) can1 0F1#1C850040
(1646598235.029289) can1 1F1#AE0E000008000078
(1646598235.029943) can1 0C7#03FE0000
(1646598235.030175) can1 0F9#00006000000000FF
(1646598235.030399) can1 199#4FFF0B82F47D00FF
(1646598235.040018) can1 0C9#0000000A00400800
(1646598235.040250) can1 191#061E061E05B40000
(1646598235.040518) can1 1A1#00100100000000
(1646598235.040743) can1 1C3#061E061E00000000
(1646598235.041030) can1 1ED#4190000000003F78
(1646598235.041255) can1 1EF#00000000
(1646598235.042478) can1 0C7#03FE0000
(1646598235.042711) can1 0F9#00006000000000FF
(1646598235.042983) can1 199#8FFF0B82F47C00FF
(1646598235.049941) can1 19D#C0003FFD010000FF
(1646598235.050174) can1 1AF#000001
(1646598235.050397) can1 1F5#0F0F000100000300
(1646598235.052571) can1 0C9#0000000D00400800
(1646598235.052803) can1 191#061E061E05B40000
(1646598235.053072) can1 1ED#4190000000003F78
(1646598235.053295) can1 1EF#00000000
(1646598235.054948) can1 0C7#03FE0000
(1646598235.055180) can1 0F9#00006000000000FF
(1646598235.055403) can1 199#CFFF0B82F47B00FF
(1646598235.061078) can1 1E1#00FE120040
(1646598235.061311) can1 0F1#28850040
(1646598235.061534) can1 1F1#AE0E000008000078
(1646598235.065087) can1 0C9#0000000000400800
(1646598235.065319) can1 191#061E061E05B40000
(1646598235.065587) can1 1A1#00100100000000
(1646598235.065858) can1 1C3#061E061E00000000
(1646598235.066088) can1 1ED#4190000000003F78
(1646598235.066313) can1 1EF#00000000
(1646598235.066537) can1 2C3#061E06A00FFF
(1646598235.066762) can1 2D1#000000000000
(1646598235.066985) can1 2D3#0303
(1646598235.067208) can1 3C1#076528A0771F48E2
(1646598235.067433) can1 3D1#0033800000000000
(1646598235.067655) can1 0C7#03FE0000
(1646598235.067879) can1 0F9#00006000000000FF
(1646598235.068102) can1 199#0FFF0B82F47E00FF
(1646598235.071408) can1 3E9#0000200080006000
(1646598235.075050) can1 19D#00000000010000FF
(1646598235.075283) can1 1AF#000001
(1646598235.075507) can1 1F5#0F0F000100000300
(1646598235.077570) can1 0C9#0000000700400800
(1646598235.077803) can1 191#061E061E05B40000
(1646598235.078077) can1 1ED#4190000000003F78
(1646598235.078300) can1 1EF#00000000
(1646598235.079932) can1 0C7#03FE0000
(1646598235.080165) can1 0F9#00006000000000FF
(1646598235.080387) can1 199#4FFF0B82F47D00FF
(1646598235.090014) can1 0C9#0000000A00400800
(1646598235.090247) can1 191#061E061E05B40000
(1646598235.090520) can1 1A1#00100100000000
(1646598235.090742) can1 1C3#061E061E00000000
(1646598235.091023) can1 1ED#4190000000003F78
(1646598235.091248) can1 1EF#00000000
(1646598235.092515) can1 0C7#03FE0000
(1646598235.092747) can1 0F9#00006000000000FF
(1646598235.092971) can1 199#8FFF0B82F47C00FF
(1646598235.093741) can1 1E1#00FD130060
(1646598235.093972) can1 0F1#34850040
(1646598235.094196) can1 1F1#AE0E000008000078
(1646598235.100008) can1 19D#40003FFF010000FF
(1646598235.100241) can1 1AF#000001
(1646598235.100464) can1 1F5#0F0F000100000300
(1646598235.102564) can1 0C9#0000000D00400800
(1646598235.102796) can1 191#061E061E05B40000
(1646598235.103064) can1 1ED#4190000000003F78
(1646598235.103287) can1 1EF#00000000
(1646598235.104914) can1 0C7#03FE0000
(1646598235.105146) can1 0F9#00006000000000FF
(1646598235.105369) can1 199#CFFF0B82F47B00FF
(1646598235.115016) can1 0C9#0000000000400800
(1646598235.115249) can1 191#061E061E05B40000
(1646598235.115517) can1 1A1#00100100000000
(1646598235.115742) can1 1C3#061E061E00000000
(1646598235.116048) can1 1ED#4190000000003F78
(1646598235.116273) can1 1EF#00000000
(1646598235.116496) can1 2C3#061E06A00FFF
(1646598235.116719) can1 2D1#000000000000
(1646598235.116944) can1 2D3#0303
(1646598235.117495) can1 0C7#03FE0000
(1646598235.117728) can1 0F9#00006000000000FF
(1646598235.117949) can1 199#0FFF0B82F47E00FF
(1646598235.121411) can1 3F9#8400000055000012
(1646598235.121644) can1 3FB#0008
(1646598235.124929) can1 19D#80003FFE010000FF
(1646598235.125162) can1 1AF#000001
(1646598235.125385) can1 1F5#0F0F000100000300
(1646598235.126120) can1 1E1#0000100000
(1646598235.126353) can1 0F1#00850040
(1646598235.126576) can1 1F1#AE0E000008000078
(1646598235.127634) can1 0C9#0000000700400800
(1646598235.127867) can1 191#061E061E05B40000
(1646598235.128135) can1 1ED#4190000000003F78
(1646598235.128359) can1 1EF#00000000
(1646598235.129968) can1 0C7#03FE0000
(1646598235.130201) can1 0F9#00006000000000FF
(1646598235.130424) can1 199#4FFF0B82F47D00FF
(1646598235.140011) can1 0C9#0000000A00400800
(1646598235.140243) can1 191#061E061E05B40000
(1646598235.140517) can1 1A1#00100100000000
(1646598235.140739) can1 1C3#061E061E00000000
(1646598235.141024) can1 1ED#4190000000003F78
(1646598235.141249) can1 1EF#00000000
(1646598235.142507) can1 0C7#03FE0000
(1646598235.142739) can1 0F9#00006000000000FF
(1646598235.142963) can1 199#8FFF0B82F47C00FF
(1646598235.149946) can1 19D#C0003FFD010000FF
(1646598235.150179) can1 1AF#000001
(1646598235.150402) can1 1F5#0F0F000100000300
(1646598235.152562) can1 0C9#0000000D00400800
(1646598235.152795) can1 191#061E061E05B40000
(1646598235.153062) can1 1ED#4190000000003F78
(1646598235.153285) can1 1EF#00000000
(1646598235.154946) can1 0C7#03FE0000
(1646598235.155179) can1 0F9#00006000000000FF
(1646598235.155402) can1 199#CFFF0B82F47B00FF
(1646598235.158417) can1 1F3#4060
(1646598235.158860) can1 1E1#00FF110020
(1646598235.159092) can1 0F1#1C850040
(1646598235.159314) can1 1F1#AE0E000008000078
(1646598235.165078) can1 0C9#0000000000400800
(1646598235.165310) can1 191#061E061E05B40000
(1646598235.165576) can1 1A1#00100100000000
(1646598235.165860) can1 1C3#061E061E00000000
(1646598235.166094) can1 1ED#4190000000003F78
(1646598235.166318) can1 1EF#00000000
(1646598235.166542) can1 2C3#061E06A00FFF
(1646598235.166764) can1 2D1#000000000000
(1646598235.166988) can1 2D3#0303
(1646598235.167211) can1 3C1#076528A0771F48E2
(1646598235.167449) can1 3D1#0033800000000000
(1646598235.167674) can1 0C7#03FE0000
(1646598235.167897) can1 0F9#00006000000000FF
(1646598235.168165) can1 199#0FFF0B82F47E00FF
(1646598235.171398) can1 3E9#0000200080006000
(1646598235.175006) can1 19D#00000000010000FF
(1646598235.175238) can1 1AF#000001
(1646598235.175462) can1 1F5#0F0F000100000300
(1646598235.177561) can1 0C9#0000000700400800
(1646598235.177793) can1 191#061E061E05B40000
(1646598235.178068) can1 1ED#4190000000003F78
(1646598235.178290) can1 1EF#00000000
(1646598235.179952) can1 0C7#03FE0000
(1646598235.180185) can1 0F9#00006000000000FF
(1646598235.180408) can1 199#4FFF0B82F47D00FF
(1646598235.190007) can1 0C9#0000000A00400800
(1646598235.190239) can1 191#061E061E05B40000
(1646598235.190512) can1 1A1#00100100000000
(1646598235.190734) can1 1C3#061E061E00000000
(1646598235.191016) can1 1ED#4190000000003F78
(1646598235.191240) can1 1EF#00000000
(1646598235.191467) can1 1E1#00FE120040
(1646598235.191691) can1 0F1#28850040
(1646598235.191913) can1 1F1#AE0E000008000078
(1646598235.192485) can1 0C7#03FE0000
(1646598235.192718) can1 0F9#00006000000000FF
(1646598235.192941) can1 199#8FFF0B82F47C00FF
(1646598235.200000) can1 19D#40003FFF010000FF
(1646598235.200233) can1 1AF#000001
(1646598235.200456) can1 1F5#0F0F000100000300
(1646598235.202555) can1 0C9#0000000D00400800
(1646598235.202788) can1 191#061E061E05B40000
(1646598235.203062) can1 1ED#4190000000003F78
(1646598235.203289) can1 1EF#00000000
(1646598235.204932) can1 0C7#03FE0000
(1646598235.205165) can1 0F9#00006000000000FF
(1646598235.205386) can1 199#CFFF0B82F47B00FF
(1646598235.215184) can1 0C9#0000000000400800
(1646598235.215335) can1 191#061E061E05B40000
(1646598235.215727) can1 1A1#00100100000000
(1646598235.215735) can1 1C3#061E061E00000000
(1646598235.216028) can1 1ED#4190000000003F78
(1646598235.216305) can1 1EF#00000000
(1646598235.216529) can1 2C3#061E06A00FFF
(1646598235.216778) can1 2D1#000000000000
(1646598235.216876) can1 2D3#0303
(1646598235.217494) can1 0C7#03FE0000
(1646598235.217726) can1 0F9#00006000000000FF
(1646598235.217948) can1 199#0FFF0B82F47E00FF
(1646598235.223701) can1 1E1#00FD130060
(1646598235.223934) can1 0F1#34850040
(1646598235.224158) can1 1F1#AE0E000008000078
(1646598235.224925) can1 19D#80003FFE010000FF
(1646598235.225158) can1 1AF#000001
(1646598235.225381) can1 1F5#0F0F000100000300
(1646598235.227628) can1 0C9#0000000700400800
(1646598235.227861) can1 191#061E061E05B40000
(1646598235.228134) can1 1ED#4190000000003F78
(1646598235.228357) can1 1EF#00000000
(1646598235.229965) can1 0C7#03FE0000
(1646598235.230198) can1 0F9#00006000000000FF
(1646598235.230421) can1 199#4FFF0B82F47D00FF
(1646598235.240002) can1 0C9#0000000A00400800
(1646598235.240236) can1 191#061E061E05B40000
(1646598235.240508) can1 1A1#00100100000000
(1646598235.240732) can1 1C3#061E061E00000000
(1646598235.241014) can1 1ED#4190000000003F78
(1646598235.241237) can1 1EF#00000000
(1646598235.242490) can1 0C7#03FE0000
(1646598235.242723) can1 0F9#00006000000000FF
(1646598235.242946) can1 199#8FFF0B82F47C00FF
(1646598235.249930) can1 19D#C0003FFD010000FF
(1646598235.250162) can1 1AF#000001
(1646598235.250385) can1 1F5#0F0F000100000300
(1646598235.252552) can1 0C9#0000000D00400800
(1646598235.252784) can1 191#061E061E05B40000
(1646598235.253052) can1 1ED#4190000000003F78
(1646598235.253275) can1 1EF#00000000
(1646598235.254918) can1 0C7#03FE0000
(1646598235.255150) can1 0F9#00006000000000FF
(1646598235.255424) can1 199#CFFF0B82F47B00FF
(1646598235.256011) can1 1F3#80A0
(1646598235.256446) can1 1E1#0000100000
(1646598235.256679) can1 0F1#00850040
(1646598235.256902) can1 1F1#AE0E000008000078
(1646598235.264999) can1 0C9#0000000000400800
(1646598235.265233) can1 191#061E061E05B40000
(1646598235.265509) can1 1A1#00100100000000
(1646598235.265734) can1 1C3#061E061E00000000
(1646598235.266041) can1 1ED#4190000000003F78
(1646598235.266265) can1 1EF#00000000
(1646598235.266491) can1 2C3#061E06A00FFF
(1646598235.266714) can1 2D1#000000000000
(1646598235.266939) can1 2D3#0303
(1646598235.267161) can1 3C1#076528A0771F48E2
(1646598235.267398) can1 3D1#0033800000000000
(1646598235.267624) can1 0C7#03FE0000
(1646598235.267849) can1 0F9#00006000000000FF
(1646598235.268072) can1 199#0FFF0B82F47E00FF
(1646598235.271389) can1 3E9#0000200080006000
(1646598235.274977) can1 19D#00000000010000FF
(1646598235.275210) can1 1AF#000001
(1646598235.275433) can1 1F5#0F0F000100000300
(1646598235.277554) can1 0C9#0000000700400800
(1646598235.277787) can1 191#061E061E05B40000
(1646598235.278059) can1 1ED#4190000000003F78
(1646598235.278282) can1 1EF#00000000
(1646598235.279948) can1 0C7#03FE0000
(1646598235.280181) can1 0F9#00006000000000FF
(1646598235.280405) can1 199#4FFF0B82F47D00FF
(1646598235.288747) can1 1E1#00FF110020
(1646598235.288980) can1 0F1#1C850040
(1646598235.289204) can1 1F1#AE0E000008000078
(1646598235.290080) can1 0C9#0000000A00400800
(1646598235.290313) can1 191#061E061E05B40000
(1646598235.290586) can1 1A1#00100100000000
(1646598235.290814) can1 1C3#061E061E00000000
(1646598235.291097) can1 1ED#4190000000003F78
(1646598235.291320) can1 1EF#00000000
(1646598235.292554) can1 0C7#03FE0000
(1646598235.292786) can1 0F9#00006000000000FF
(1646598235.293067) can1 199#8FFF0B82F47C00FF
(1646598235.299998) can1 19D#40003FFF010000FF
(1646598235.300231) can1 1AF#000001
(1646598235.300454) can1 1F5#0F0F000100000300
(1646598235.302548) can1 0C9#0000000D00400800
(1646598235.302780) can1 191#061E061E05B40000
(1646598235.303054) can1 1ED#4190000000003F78
(1646598235.303282) can1 1EF#00000000
(1646598235.304928) can1 0C7#03FE0000
(1646598235.305161) can1 0F9#00006000000000FF
(1646598235.305384) can1 199#CFFF0B82F47B00FF
(1646598235.314997) can1 0C9#0000000000400800
(1646598235.315230) can1 191#061E061E05B40000
(1646598235.315505) can1 1A1#00100100000000
(1646598235.315728) can1 1C3#061E061E00000000
(1646598235.316025) can1 1ED#4190000000003F78
(1646598235.316249) can1 1EF#00000000
(1646598235.316472) can1 2C3#061E06A00FFF
(1646598235.316697) can1 2D1#000000000000
(1646598235.316920) can1 2D3#0303
(1646598235.317464) can1 0C7#03FE0000
(1646598235.317696) can1 0F9#00006000000000FF
(1646598235.317919) can1 199#0FFF0B82F47E00FF
(1646598235.321269) can1 1E1#00FE120040
(1646598235.321502) can1 0F1#28850040
(1646598235.321726) can1 1F1#AE0E000008000078
(1646598235.324966) can1 19D#80003FFE010000FF
(1646598235.325198) can1 1AF#000001
(1646598235.325421) can1 1F5#0F0F000100000300
(1646598235.327620) can1 0C9#0000000700400800
(1646598235.327852) can1 191#061E061E05B40000
(1646598235.328128) can1 1ED#4190000000003F78
(1646598235.328352) can1 1EF#00000000
(1646598235.329944) can1 0C7#03FE0000
(1646598235.330176) can1 0F9#00006000000000FF
(1646598235.330444) can1 199#4FFF0B82F47D00FF
(1646598235.339992) can1 0C9#0000000A00400800
(1646598235.340225) can1 191#061E061E05B40000
(1646598235.340498) can1 1A1#00100100000000
(1646598235.340721) can1 1C3#061E061E00000000
(1646598235.341004) can1 1ED#4190000000003F78
(1646598235.341227) can1 1EF#00000000
(1646598235.342474) can1 0C7#03FE0000
(1646598235.342707) can1 0F9#00006000000000FF
(1646598235.342976) can1 199#8FFF0B82F47C00FF
(1646598235.349936) can1 19D#C0003FFD010000FF
(1646598235.350168) can1 1AF#000001
(1646598235.350392) can1 1F5#0F0F000100000300
(1646598235.352543) can1 0C9#0000000D00400800
(1646598235.352776) can1 191#061E061E05B40000
(1646598235.353049) can1 1ED#4190000000003F78
(1646598235.353276) can1 1EF#00000000
(1646598235.353990) can1 1E1#00FD130060
(1646598235.354223) can1 0F1#34850040
(1646598235.354446) can1 1F1#AE0E000008000078
(1646598235.354670) can1 1F3#C0E0
(1646598235.354895) can1 0C7#03FE0000
(1646598235.355162) can1 0F9#00006000000000FF
(1646598235.355385) can1 199#CFFF0B82F47B00FF
(1646598235.364995) can1 0C9#0000000000400800
(1646598235.365228) can1 191#061E061E05B40000
(1646598235.365512) can1 1A1#00100100000000
(1646598235.365738) can1 1C3#061E061E00000000
(1646598235.366039) can1 1ED#4190000000003F78
(1646598235.366261) can1 1EF#00000000
(1646598235.366483) can1 2C3#061E06A00FFF
(1646598235.366708) can1 2D1#000000000000
(1646598235.366930) can1 2D3#0303
(1646598235.367153) can1 3C1#076528A0771F48E2
(1646598235.367381) can1 3D1#0033800000000000
(1646598235.367604) can1 0C7#03FE0000
(1646598235.367832) can1 0F9#00006000000000FF
(1646598235.368055) can1 199#0FFF0B82F47E00FF
(1646598235.371384) can1 3E9#0000200080006000
(1646598235.371617) can1 3F9#8400000055000012
(1646598235.371841) can1 3FB#0008
(1646598235.372064) can1 4C1#00BE55384E000000
(1646598235.372290) can1 4D1#080004031E3F009C
(1646598235.372557) can1 4F1#022E022E00F4009C
(1646598235.372782) can1 772#00000000000000
(1646598235.374973) can1 19D#00000000010000FF
(1646598235.375206) can1 1AF#000001
(1646598235.375429) can1 1F5#0F0F000100000300
(1646598235.377541) can1 0C9#0000000700400800
(1646598235.377774) can1 191#061E061E05B40000
(1646598235.378047) can1 1ED#0190000000003F78
(1646598235.378269) can1 1EF#00000000
(1646598235.380113) can1 0C7#03FE0000
(1646598235.380345) can1 0F9#00006000000000FF
(1646598235.380619) can1 199#4FFF0B82F47D00FF
(1646598235.386311) can1 1E1#0000100000
(1646598235.386544) can1 0F1#00850040
(1646598235.386766) can1 1F1#AE0E000008000078
(1646598235.390061) can1 0C9#0000000A00400800
(1646598235.390294) can1 191#061E061E05B40000
(1646598235.390567) can1 1A1#00100100000000
(1646598235.390796) can1 1C3#061E061E00000000
(1646598235.391081) can1 1ED#0190000000003F78
(1646598235.391307) can1 1EF#00000000
(1646598235.392572) can1 0C7#03FE0000
(1646598235.392805) can1 0F9#00006000000000FF
(1646598235.393030) can1 199#8FFF0B82F47C00FF
(1646598235.400025) can1 19D#40003FFF010000FF
(1646598235.400258) can1 1AF#000001
(1646598235.400481) can1 1F5#0F0F000100000300
(1646598235.402543) can1 0C9#0000000D00400800
(1646598235.402776) can1 191#061E061E05B40000
(1646598235.403045) can1 1ED#0190000000003F78
(1646598235.403269) can1 1EF#00000000
(1646598235.404903) can1 0C7#03FE0000
(1646598235.405136) can1 0F9#00004000000000FF
(1646598235.405359) can1 199#CFFF0B82F47B00FF
(1646598235.414991) can1 0C9#0000000000400800
(1646598235.415224) can1 191#061E061E05B40000
(1646598235.415497) can1 1A1#00100100000000
(1646598235.415719) can1 1C3#061E061E00000000
(1646598235.416023) can1 1ED#0190000000003F78
(1646598235.416247) can1 1EF#00000000
(1646598235.416471) can1 2C3#061E06A00FFF
(1646598235.416696) can1 2D1#000000000000
(1646598235.416920) can1 2D3#0303
(1646598235.417484) can1 0C7#03FE0000
(1646598235.417717) can1 0F9#00004000000000FF
(1646598235.417998) can1 199#0FFF0B82F47E00FF
(1646598235.418826) can1 1E1#00FF110020
(1646598235.419059) can1 0F1#1C850040
(1646598235.419280) can1 1F1#AE0E000008000078
(1646598235.424959) can1 19D#80003FFE010000FF
(1646598235.425191) can1 1AF#000001
(1646598235.425414) can1 1F5#0F0F000100000300
(1646598235.427542) can1 0C9#0000000700400800
(1646598235.427774) can1 191#061E061E05B40000
(1646598235.428043) can1 1ED#0190000000003F78
(1646598235.428267) can1 1EF#00000000
(1646598235.429943) can1 0C7#03FE0000
(1646598235.430176) can1 0F9#00004000000000FF
(1646598235.430399) can1 199#4FFF0B82F47D00FF
(1646598235.439990) can1 0C9#0000000A00400800
(1646598235.440222) can1 191#061E061E05B40000
(1646598235.440490) can1 1A1#00100100000000
(1646598235.440714) can1 1C3#061E061E00000000
(1646598235.441008) can1 1ED#0190000000003F78
(1646598235.441233) can1 1EF#00000000
(1646598235.442466) can1 0C7#03FE0000
(1646598235.442698) can1 0F9#00004000000000FF
(1646598235.442922) can1 199#8FFF0B82F47C00FF
(1646598235.449925) can1 19D#C0003FFD010000FF
(1646598235.450157) can1 1AF#000001
(1646598235.450380) can1 1F5#0F0F000100000300
(1646598235.451413) can1 1E1#00FE120040
(1646598235.451645) can1 0F1#28850040
(1646598235.451868) can1 1F1#AE0E000008000078
(1646598235.452093) can1 1F3#0020
(1646598235.452622) can1 0C9#0000000D00400800
(1646598235.452855) can1 191#061E061E05B40000
(1646598235.453136) can1 1ED#0190000000003F78
(1646598235.453360) can1 1EF#00000000
(1646598235.455021) can1 0C7#03FE0000
(1646598235.455253) can1 0F9#00004000000000FF
(1646598235.455477) can1 199#CFFF0B82F47B00FF
(1646598235.464987) can1 0C9#0000000000400800
(1646598235.465221) can1 191#061E061E05B40000
(1646598235.465495) can1 1A1#00100100000000
(1646598235.465722) can1 1C3#061E061E00000000
(1646598235.466027) can1 1ED#0190000000003F78
(1646598235.466252) can1 1EF#00000000
(1646598235.466478) can1 2C3#061E06A00FFF
(1646598235.466700) can1 2D1#000000000000
(1646598235.466924) can1 2D3#0303
(1646598235.467147) can1 3C1#076528A0771F48E2
(1646598235.467370) can1 3D1#0033800000000000
(1646598235.467595) can1 0C7#03FE0000
(1646598235.467818) can1 0F9#00004000000000FF
(1646598235.468042) can1 199#0FFF0B82F47E00FF
(1646598235.471379) can1 3E9#0000200080006000
(1646598235.474973) can1 19D#00000000010000FF
(1646598235.475205) can1 1AF#000001
(1646598235.475428) can1 1F5#0F0F000100000300
(1646598235.475652) can1 4C9#40360000
(1646598235.475859) can1 77F#00000000000000
(1646598235.477553) can1 0C9#0000000700400800
(1646598235.477786) can1 191#061E061E05B40000
(1646598235.478066) can1 1ED#0190000000003F78
(1646598235.478289) can1 1EF#00000000
(1646598235.479940) can1 0C7#03FE0000
(1646598235.480173) can1 0F9#00004000000000FF
(1646598235.480396) can1 199#4FFF0B82F47D00FF
(1646598235.483856) can1 1E1#00FD130060
(1646598235.484088) can1 0F1#34850040
(1646598235.484310) can1 1F1#AE0E000008000078
(1646598235.490054) can1 0C9#0000000A00400800
(1646598235.490287) can1 191#061E061E05B40000
(1646598235.490553) can1 1A1#00100100000000
(1646598235.490777) can1 1C3#061E061E00000000
(1646598235.491068) can1 1ED#0190000000003F78
(1646598235.491292) can1 1EF#00000000
(1646598235.492528) can1 0C7#03FE0000
(1646598235.492761) can1 0F9#00004000000000FF
(1646598235.493034) can1 199#8FFF0B82F47C00FF
(1646598235.500003) can1 19D#40003FFF010000FF
(1646598235.500236) can1 1AF#000001
(1646598235.500459) can1 1F5#0F0F000100000300
(1646598235.502533) can1 0C9#0000000D00400800
(1646598235.502765) can1 191#061E061E05B40000
(1646598235.503046) can1 1ED#0190000000003F78
(1646598235.503269) can1 1EF#00000000
(1646598235.504906) can1 0C7#03FE0000
(1646598235.505138) can1 0F9#00004000000000FF
(1646598235.505361) can1 199#CFFF0B82F47B00FF
(1646598235.514981) can1 0C9#0000000000400800
(1646598235.515214) can1 191#061E061E05B40000
(1646598235.515482) can1 1A1#00100100000000
(1646598235.515706) can1 1C3#061E061E00000000
(1646598235.516016) can1 1ED#0190000000003F78
(1646598235.516238) can1 1EF#00000000
(1646598235.516461) can1 2C3#061E06A00FFF
(1646598235.516687) can1 2D1#000000000000
(1646598235.516930) can1 1E1#0000100000
(1646598235.517029) can1 2D3#0303
(1646598235.517252) can1 0F1#00850040
(1646598235.517473) can1 1F1#AE0E000008000078
(1646598235.517698) can1 0C7#03FE0000
(1646598235.517921) can1 0F9#00004000000000FF
(1646598235.518145) can1 199#0FFF0B82F47E00FF
(1646598235.524964) can1 19D#80003FFE010000FF
(1646598235.525197) can1 1AF#000001
(1646598235.525420) can1 1F5#0F0F000100000300
(1646598235.527532) can1 0C9#0000000700400800
(1646598235.527869) can1 191#061E061E05B40000
(1646598235.528053) can1 1ED#0190000000003F78
(1646598235.529728) can1 1EF#00000000
(1646598235.530139) can1 0C7#03FE0000
(1646598235.530150) can1 0F9#00004000000000FF
(1646598235.535865) can1 199#4FFF0B82F47D00FF
(1646598235.539979) can1 0C9#0000000A00400800
(1646598235.540212) can1 191#061E061E05B40000
(1646598235.540485) can1 1A1#00100100000000
(1646598235.540713) can1 1C3#061E061E00000000
(1646598235.540995) can1 1ED#0190000000003F78
(1646598235.541224) can1 1EF#00000000
(1646598235.542490) can1 0C7#03FE0000
(1646598235.542722) can1 0F9#00004000000000FF
(1646598235.542946) can1 199#8FFF0B82F47C00FF
(1646598235.549018) can1 1E1#00FF110020
(1646598235.549250) can1 0F1#1C850040
(1646598235.549473) can1 1F1#AE0E000008000078
(1646598235.549699) can1 4E9#8120
(1646598235.549922) can1 19D#C0003FFD010000FF
(1646598235.550147) can1 1AF#000001
(1646598235.550370) can1 1F5#0F0F000100000300
(1646598235.552617) can1 0C9#0000000D00400800
(1646598235.552850) can1 191#061E061E05B40000
(1646598235.553119) can1 1ED#0190000000003F78
(1646598235.553343) can1 1EF#00000000
(1646598235.554970) can1 0C7#03FE0000
(1646598235.555203) can1 0F9#00004000000000FF
(1646598235.555476) can1 199#CFFF0B82F47B00FF
(1646598235.564979) can1 0C9#0000000000400800
(1646598235.565212) can1 191#061E061E05B40000
(1646598235.565519) can1 1A1#00100100000000
(1646598235.565761) can1 1C3#061E061E00000000
(1646598235.566002) can1 1ED#0190000000003F78
(1646598235.566225) can1 1EF#00000000
(1646598235.566449) can1 2C3#061E06A00FFF
(1646598235.566672) can1 2D1#000000000000
(1646598235.566896) can1 2D3#0303
(1646598235.567121) can1 3C1#076528A0771F48E2
(1646598235.567342) can1 3D1#0033800000000000
(1646598235.567565) can1 0C7#03FE0000
(1646598235.567787) can1 0F9#00004000000000FF
(1646598235.568010) can1 199#0FFF0B82F47E00FF
(1646598235.571369) can1 3E9#0000200080006000
(1646598235.574973) can1 19D#00000000010000FF
(1646598235.575206) can1 1AF#000001
(1646598235.575429) can1 1F5#0F0F000100000300
(1646598235.577530) can1 0C9#0000000700400800
(1646598235.577763) can1 191#061E061E05B40000
(1646598235.578036) can1 1ED#0190000000003F78
(1646598235.578260) can1 1EF#00000000
(1646598235.579944) can1 0C7#03FE0000
(1646598235.580176) can1 0F9#00004000000000FF
(1646598235.580399) can1 199#4FFF0B82F47D00FF
(1646598235.581470) can1 1E1#00FE120040
(1646598235.581703) can1 0F1#28850040
(1646598235.581926) can1 1F1#AE0E000008000078
(1646598235.589974) can1 0C9#0000000A00400800
(1646598235.590207) can1 191#061E061E05B40000
(1646598235.590479) can1 1A1#00100100000000
(1646598235.590703) can1 1C3#061E061E00000000
(1646598235.590988) can1 1ED#0190000000003F78
(1646598235.591213) can1 1EF#00000000
(1646598235.592476) can1 0C7#03FE0000
(1646598235.592709) can1 0F9#00004000000000FF
(1646598235.592932) can1 199#8FFF0B82F47C00FF
(1646598235.599960) can1 19D#40003FFF010000FF
(1646598235.600192) can1 1AF#000001
(1646598235.600416) can1 1F5#0F0F000100000300
(1646598235.602527) can1 0C9#0000000D00400800
(1646598235.602760) can1 191#061E061E05B40000
(1646598235.603040) can1 1ED#0190000000003F78
(1646598235.603264) can1 1EF#00000000
(1646598235.604928) can1 0C7#03FE0000
(1646598235.605161) can1 0F9#00004000000000FF
(1646598235.605384) can1 199#CFFF0B82F47B00FF
(1646598235.613988) can1 1E1#00FD130060
(1646598235.614221) can1 0F1#34850040
(1646598235.614445) can1 1F1#AE0E000008000078
(1646598235.615074) can1 0C9#0000000000400800
(1646598235.615306) can1 191#061E061E05B40000
(1646598235.615574) can1 1A1#00100100000000
(1646598235.615799) can1 1C3#061E061E00000000
(1646598235.616094) can1 1ED#0190000000003F78
(1646598235.616318) can1 1EF#00000000
(1646598235.616545) can1 2C3#061E06A00FFF
(1646598235.616769) can1 2D1#000000000000
(1646598235.616990) can1 2D3#0303
(1646598235.617465) can1 0C7#03FE0000
(1646598235.617698) can1 0F9#00004000000000FF
(1646598235.617921) can1 199#0FFF0B82F47E00FF
(1646598235.621373) can1 3F9#0400000055000012
(1646598235.621605) can1 3FB#0008
(1646598235.624952) can1 19D#80003FFE010000FF
(1646598235.625185) can1 1AF#000001
(1646598235.625408) can1 1F5#0F0F000100000300
(1646598235.627525) can1 0C9#0000000700400800
(1646598235.627757) can1 191#061E061E05B40000
(1646598235.628024) can1 1ED#0190000000003F78
(1646598235.628249) can1 1EF#00000000
(1646598235.629933) can1 0C7#03FE0000
(1646598235.630165) can1 0F9#00004000000000FF
(1646598235.630388) can1 199#4FFF0B82F47D00FF
(1646598235.639971) can1 0C9#0000000A00400800
(1646598235.640204) can1 191#061E061E05B40000
(1646598235.640472) can1 1A1#00100100000000
(1646598235.640697) can1 1C3#061E061E00000000
(1646598235.640983) can1 1ED#0190000000003F78
(1646598235.641207) can1 1EF#00000000
(1646598235.642492) can1 0C7#03FE0000
(1646598235.642725) can1 0F9#00004000000000FF
(1646598235.642948) can1 199#8FFF0B82F47C00FF
(1646598235.646588) can1 1E1#0000100000
(1646598235.646820) can1 0F1#00850040
(1646598235.647044) can1 1F1#AE0E000008000078
(1646598235.647269) can1 1F3#4060
(1646598235.649924) can1 19D#C0003FFD010000FF
(1646598235.650157) can1 1AF#000001
(1646598235.650380) can1 1F5#0F0F000100000300
(1646598235.652592) can1 0C9#0000000D00400800
(1646598235.652825) can1 191#061E061E05B40000
(1646598235.653107) can1 1ED#0190000000003F78
(1646598235.653331) can1 1EF#00000000
(1646598235.655011) can1 0C7#03FE0000
(1646598235.655243) can1 0F9#00004000000000FF
(1646598235.655467) can1 199#CFFF0B82F47B00FF
(1646598235.664971) can1 0C9#0000000000400800
(1646598235.665204) can1 191#061E061E05B40000
(1646598235.665459) can1 1A1#00100100000000
(1646598235.665735) can1 1C3#061E061E00000000
(1646598235.665975) can1 1ED#0190000000003F78
(1646598235.666201) can1 1EF#00000000
(1646598235.666424) can1 2C3#061E06A00FFF
(1646598235.666647) can1 2D1#000000000000
(1646598235.666870) can1 2D3#0303
(1646598235.667095) can1 3C1#076528A0771F48E2
(1646598235.667324) can1 3D1#0033800000000000
(1646598235.667548) can1 0C7#03FE0000
(1646598235.667770) can1 0F9#00004000000000FF
(1646598235.667995) can1 199#0FFF0B82F47E00FF
(1646598235.671361) can1 3E9#0000200080006000
(1646598235.674972) can1 19D#00000000010000FF
(1646598235.675205) can1 1AF#000001
(1646598235.675429) can1 1F5#0F0F000100000300
(1646598235.677521) can1 0C9#0000000700400800
(1646598235.677754) can1 191#061E061E05B40000
(1646598235.678027) can1 1ED#0190000000003F78
(1646598235.678251) can1 1EF#00000000
(1646598235.679033) can1 1E1#00FF110020
(1646598235.679265) can1 0F1#1C850040
(1646598235.679488) can1 1F1#AE0E000008000078
(1646598235.679915) can1 0C7#03FE0000
(1646598235.680147) can1 0F9#00004000000000FF
(1646598235.680368) can1 199#4FFF0B82F47D00FF
(1646598235.689967) can1 0C9#0000000A00400800
(1646598235.690199) can1 191#061E061E05B40000
(1646598235.690467) can1 1A1#00100100000000
(1646598235.690691) can1 1C3#061E061E00000000
(1646598235.690983) can1 1ED#0190000000003F78
(1646598235.691207) can1 1EF#00000000
(1646598235.692497) can1 0C7#03FE0000
(1646598235.692730) can1 0F9#00004000000000FF
(1646598235.693001) can1 199#8FFF0B82F47C00FF
(1646598235.699954) can1 19D#40003FFF010000FF
(1646598235.700187) can1 1AF#000001
(1646598235.700411) can1 1F5#0F0F000100000300
(1646598235.702518) can1 0C9#0000000D00400800
(1646598235.702751) can1 191#061E061E05B40000
(1646598235.703020) can1 1ED#0190000000003F78
(1646598235.703245) can1 1EF#00000000
(1646598235.704922) can1 0C7#03FE0000
(1646598235.705155) can1 0F9#00004000000000FF
(1646598235.705379) can1 199#CFFF0B82F47B00FF
(1646598235.711559) can1 1E1#00FE120040
(1646598235.711792) can1 0F1#28850040
(1646598235.712015) can1 1F1#AE0E000008000078
(1646598235.715035) can1 0C9#0000000000400800
(1646598235.715267) can1 191#061E061E05B40000
(1646598235.715540) can1 1A1#00100100000000
(1646598235.715768) can1 1C3#061E061E00000000
(1646598235.716059) can1 1ED#0190000000003F78
(1646598235.716284) can1 1EF#00000000
(1646598235.716506) can1 2C3#061E06A00FFF
(1646598235.716731) can1 2D1#000000000000
(1646598235.716953) can1 2D3#0303
(1646598235.717534) can1 0C7#03FE0000
(1646598235.717767) can1 0F9#00004000000000FF
(1646598235.718040) can1 199#0FFF0B82F47E00FF
(1646598235.724968) can1 19D#80003FFE010000FF
(1646598235.725201) can1 1AF#000001
(1646598235.725423) can1 1F5#0F0F000100000300
(1646598235.727517) can1 0C9#0000000700400800
(1646598235.727750) can1 191#061E061E05B40000
(1646598235.728023) can1 1ED#0190000000003F78
(1646598235.728246) can1 1EF#00000000
(1646598235.729928) can1 0C7#03FE0000
(1646598235.730160) can1 0F9#00004000000000FF
(1646598235.730383) can1 199#4FFF0B82F47D00FF
(1646598235.739964) can1 0C9#0000000A00400800
(1646598235.740197) can1 191#061E061E05B40000
(1646598235.740475) can1 1A1#00100100000000
(1646598235.740703) can1 1C3#061E061E00000000
(1646598235.740973) can1 1ED#0190000000003F78
(1646598235.741197) can1 1EF#00000000
(1646598235.742472) can1 0C7#03FE0000
(1646598235.742704) can1 0F9#00004000000000FF
(1646598235.742977) can1 199#8FFF0B82F47C00FF
(1646598235.743856) can1 1F3#80A0
(1646598235.744299) can1 1E1#00FD130060
(1646598235.744531) can1 0F1#34850040
(1646598235.744755) can1 1F1#AE0E000008000078
(1646598235.750011) can1 19D#C0003FFD010000FF
(1646598235.750243) can1 1AF#000001
(1646598235.750467) can1 1F5#0F0F000100000300
(1646598235.752512) can1 0C9#0000000D00400800
(1646598235.752745) can1 191#061E061E05B40000
(1646598235.753015) can1 1ED#0190000000003F78
(1646598235.753238) can1 1EF#00000000
(1646598235.754925) can1 0C7#03FE0000
(1646598235.755158) can1 0F9#00004000000000FF
(1646598235.755381) can1 199#CFFF0B82F47B00FF
(1646598235.764963) can1 0C9#0000000000400800
(1646598235.765196) can1 191#061E061E05B40000
(1646598235.765457) can1 1A1#00100100000000
(1646598235.765733) can1 1C3#061E061E00000000
(1646598235.765970) can1 1ED#0190000000003F78
(1646598235.766193) can1 1EF#00000000
(1646598235.766418) can1 2C3#061E06A00FFF
(1646598235.766639) can1 2D1#000000000000
(1646598235.766864) can1 2D3#0303
(1646598235.767087) can1 3C1#076528A0771F48E2
(1646598235.767310) can1 3D1#0033800000000000
(1646598235.767535) can1 0C7#03FE0000
(1646598235.767764) can1 0F9#00004000000000FF
(1646598235.767988) can1 199#0FFF0B82F47E00FF
(1646598235.771351) can1 3E9#0000200080006000
(1646598235.774967) can1 19D#00000000010000FF
(1646598235.775200) can1 1AF#000001
(1646598235.775423) can1 1F5#0F0F000100000300
(1646598235.776604) can1 1E1#0000100000
(1646598235.776836) can1 0F1#00850040
(1646598235.777060) can1 1F1#AE0E000008000078
(1646598235.777593) can1 0C9#0000000700400800
(1646598235.777826) can1 191#061E061E05B40000
(1646598235.778095) can1 1ED#0190000000003F78
(1646598235.778319) can1 1EF#00000000
(1646598235.779980) can1 0C7#03FE0000
(1646598235.780213) can1 0F9#00004000000000FF
(1646598235.780436) can1 199#4FFF0B82F47D00FF
(1646598235.789958) can1 0C9#0000000A00400800
(1646598235.790191) can1 191#061E061E05B40000
(1646598235.790471) can1 1A1#00100100000000
(1646598235.790695) can1 1C3#061E061E00000000
