(1649282381.756818) can0 402#FE023FFFFFFFFFFF
(1649282381.756818) can0 3E6#0E2115
(1649282381.756818) can0 2DF#0E9203E80FA00A7A
(1649282381.756818) can0 142#000000000000
(1649282381.756818) can0 1E1#0000FFFF00000000
(1649282381.756818) can0 249#FFFF0CCF0000
(1649282381.756818) can0 1E7#7000000000000000
(1649282381.756818) can0 221#010000000000
(1649282381.756818) can0 2D3#010E180200000000
(1649282381.756818) can0 1A5#2000FFFFFF007800
(1649282381.756818) can0 208#0080651E1E002D
(1649282381.756818) can0 217#767C0E008DFD
(1649282381.756818) can0 244#01000B0480
(1649282381.756818) can0 20B#0000
(1649282381.756818) can0 2D6#0100000000000000
(1649282381.756818) can0 283#0000000000000000
(1649282381.756818) can0 211#FFFFFFFFFFFFFFFF
(1649282381.756818) can0 292#FFFFFF0000FFFF
(1649282381.756818) can0 2DA#61119BA0FFFF
(1649282381.756818) can0 2DD#05000000
(1649282381.756818) can0 2DE#019B000000000000
(1649282381.756818) can0 416#FE163FFFFFFFFFFF
(1649282381.756818) can0 2DB#E507401C00000105
(1649282381.756818) can0 286#033800000000
(1649282381.756818) can0 402#FE023FFFFFFFFFFF
(1649282381.756818) can0 348#0000000000000000
(1649282381.756818) can0 2D2#000300
(1649282381.756818) can0 20E#00050700FFFF0C
(1649282381.756818) can0 2CE#FFFF000000000000
(1649282381.756818) can0 3D9#000A0A0A0A0AFF
(1649282381.756818) can0 211#FFFFFFFFFFFFFFFF
(1649282381.756818) can0 20B#0100
(1649282381.756818) can0 3B3#00FFFFFF00FFFFFF
(1649282381.756818) can0 244#01000B0480
(1649282381.756818) can0 21D#4111297562E52E81
(1649282381.756818) can0 20E#00050700FFFF0C
(1649282381.756818) can0 414#FE143FFFFFFFFFFF
(1649282381.756818) can0 3B0#1D3000001D300000
(1649282381.756818) can0 21E#390014116B9E809E
(1649282381.756818) can0 214#FFFFFF00FFFF00
(1649282381.756818) can0 2E5#0F
(1649282381.756818) can0 308#00FFFF
(1649282381.756818) can0 3A3#000000000000
(1649282381.756818) can0 270#0000
(1649282381.756818) can0 2B0#02000000
(1649282381.756818) can0 2E1#00
(1649282381.756818) can0 392#0C00000000000000
(1649282381.756818) can0 21F#0100500000000040
(1649282381.756818) can0 286#0338C0000000
(1649282381.756818) can0 2EB#720000FF
(1649282381.756818) can0 2E9#00000000
(1649282381.756818) can0 25F#C17DA80E0000
(1649282381.756818) can0 2A8#000000000000
(1649282381.756818) can0 2E5#00
(1649282381.756818) can0 308#110000
(1649282381.756818) can0 293#1000000000FFFFFF
(1649282381.756818) can0 43E#FE3E3FFFFFFFFFFF
(1649282381.756818) can0 217#767C0E008DFD
(1649282381.756818) can0 2B0#02000000
(1649282381.756818) can0 1E1#0000FFFF00000000
(1649282381.756818) can0 2E1#00
(1649282381.756818) can0 208#0080651E1E002D
(1649282381.756818) can0 211#FFFFFFFFFFFFFFFF
(1649282381.756818) can0 3E9#DF01
(1649282381.756818) can0 402#FD143FFFFFFFFFFF
(1649282381.756818) can0 291#1D000530000007
(1649282381.756818) can0 20B#0100
(1649282381.756818) can0 2E3#000000
(1649282381.756818) can0 290#0116010F07000000
(1649282381.756818) can0 286#0338C0000000
(1649282381.756818) can0 21B#1F0000000034001F
(1649282381.756818) can0 270#0000
(1649282381.756818) can0 2EB#720000FF
(1649282381.756818) can0 2CE#FFFF000000000000
(1649282381.756818) can0 2B0#02000000
(1649282381.756818) can0 211#FFFFFFFFFFFFFFFF
(1649282381.756818) can0 249#001002C04404
(1649282381.756818) can0 2E7#001C000000000000
(1649282381.756818) can0 214#2BE25200176D00
(1649282381.756818) can0 249#001002C04A08
(1649282381.756818) can0 2EB#720000FF
(1649282381.756818) can0 20E#00054700FFFF0C
(1649282381.756818) can0 2A8#000000000000
(1649282381.756818) can0 217#767C0E008DFD
(1649282381.756818) can0 1E1#0000FFFF00000000
(1649282381.756818) can0 414#FD3E3FFFFFFFFFFF
(1649282381.756818) can0 208#0080651E1E002D
(1649282381.756818) can0 211#FFFFFFFFFFFFFFFF
(1649282381.756818) can0 20B#0100
(1649282381.756818) can0 416#FE3E3FFFFFFFFFFF
(1649282381.756818) can0 286#0338C0000000
(1649282381.756818) can0 2EB#720000FF
(1649282381.756818) can0 2CE#FFFF000000000000
(1649282381.756818) can0 211#FFFFFFFFFFFFFFFF
(1649282381.756818) can0 3E9#DF01
(1649282381.756818) can0 214#2BE25200176D00
(1649282381.756818) can0 2EB#720000FF
(1649282381.756818) can0 2A8#000000000000
(1649282381.756818) can0 43E#FD023FFFFFFFFFFF
(1649282381.756818) can0 217#767C0E008DFD
(1649282381.756818) can0 1E1#0000FFFF00000000
(1649282381.756818) can0 208#0080651E1E002D
(1649282381.756818) can0 211#FFFFFFFFFFFFFFFF
(1649282381.756818) can0 20B#0100
(1649282381.756818) can0 286#0338C0000000
(1649282381.756818) can0 2EB#720000FF
(1649282381.756818) can0 2CE#FFFF000000000000
(1649282381.756818) can0 211#FFFFFFFFFFFFFFFF
(1649282381.756818) can0 214#2BE25200176D00
(1649282381.756818) can0 402#FD143FFFFFFFFFFF
(1649282381.756818) can0 2EB#720000FF
(1649282381.756818) can0 2A8#000000000000
(1649282381.756818) can0 217#767C0E008DFD
(1649282381.756818) can0 1E1#0000FFFF00000000
(1649282381.756818) can0 208#0080651E1E002D
(1649282381.756818) can0 211#FFFFFFFFFFFFFFFF
(1649282381.756818) can0 20B#0100
(1649282381.756818) can0 286#0338C0000000
(1649282381.756818) can0 2EB#720000FF
(1649282381.756818) can0 2CE#FFFF000000000000
(1649282381.756818) can0 211#FFFFFFFFFFFFFFFF
(1649282381.756818) can0 414#FD163FFFFFFFFFFF
(1649282381.756818) can0 214#2BE25200176D00
(1649282381.756818) can0 20E#10054700FFFF0C
(1649282381.756818) can0 2EB#720000FF
(1649282381.756818) can0 2A8#000000000000
(1649282381.756818) can0 3E9#9E01
(1649282381.756818) can0 292#FFFFFF0000FFFF
(1649282381.756818) can0 1E1#0000FFFF00000000
(1649282381.756818) can0 1A5#3F00FFFFFF007800
(1649282381.756818) can0 208#0080651E1E002D
(1649282381.756818) can0 217#767C0E008DFD
(1649282381.756818) can0 211#FFFFFFFFFFFFFFFF
(1649282381.756818) can0 20E#13054700FFFF0C
(1649282381.756818) can0 20B#0100
(1649282381.756818) can0 286#0338C0000000
(1649282381.756818) can0 348#0000000000000000
(1649282381.756818) can0 2EB#720000FF
(1649282381.756818) can0 2CE#FFFF000000000000
(1649282381.756818) can0 211#FFFFFFFFFFFFFFFF
(1649282381.756818) can0 20E#13054700FFFF0C
(1649282381.756818) can0 416#FD3E3FFFFFFFFFFF
(1649282381.756818) can0 244#01000B0480
(1649282381.756818) can0 214#2BE25200176D00
(1649282381.756818) can0 308#110000
(1649282381.756818) can0 3A3#000000000000
(1649282381.756818) can0 2EB#720000FF
(1649282381.756818) can0 2A8#000000000000
(1649282381.756818) can0 217#767C0E008DFD
(1649282381.756818) can0 1E1#0000FFFF00000000
(1649282381.756818) can0 2E1#00
(1649282381.756818) can0 208#0080651E1E002D
(1649282381.756818) can0 211#FFFFFFFFFFFFFFFF
(1649282381.756818) can0 20B#0100
(1649282381.756818) can0 2E3#000000
(1649282381.756818) can0 286#0338C0000000
(1649282381.756818) can0 2EB#720000FF
(1649282381.756818) can0 2CE#FFFF000000000000
(1649282381.756818) can0 211#FFFFFFFFFFFFFFFF
(1649282381.756818) can0 43E#FD023FFFFFFFFFFF
(1649282381.756818) can0 214#2BE25200176D00
(1649282381.756818) can0 2EB#720000FF
(1649282381.756818) can0 291#1D0D0530000007
(1649282381.756818) can0 2A8#000000000000
(1649282381.756818) can0 217#767C0E008DFD
(1649282381.756818) can0 1E1#0000FFFF00000000
(1649282381.756818) can0 208#0080651E1E002D
(1649282381.756818) can0 211#FFFFFFFFFFFFFFFF
(1649282381.756818) can0 20B#0100
(1649282381.756818) can0 286#0338C0000000
(1649282381.756818) can0 2EB#720000FF
(1649282381.756818) can0 2CE#FFFF000000000000
(1649282381.756818) can0 2D9#80C227C427C0FF
(1649282381.756818) can0 3E6#0E2115
(1649282381.756818) can0 211#FFFFFFFFFFFFFFFF
(1649282381.756818) can0 402#FD143FFFFFFFFFFF
(1649282381.756818) can0 214#2BE25200176D00
(1649282381.756818) can0 2EB#720000FF
(1649282381.756818) can0 2A8#000000000000
(1649282381.756818) can0 217#767C0E008DFD
(1649282381.756818) can0 1E1#0000FFFF00000000
(1649282381.756818) can0 208#0080651E1E002D
(1649282381.756818) can0 211#FFFFFFFFFFFFFFFF
(1649282381.756818) can0 20B#0100
(1649282381.756818) can0 286#0338C0000000
(1649282381.756818) can0 2EB#720000FF
(1649282381.756818) can0 2CE#FFFF000000000000
(1649282381.756818) can0 211#FFFFFFFFFFFFFFFF
(1649282381.756818) can0 414#FD163FFFFFFFFFFF
(1649282381.756818) can0 214#2BE25200176D00
(1649282381.756818) can0 2EB#720000FF
(1649282381.756818) can0 2A8#000000000000
(1649282381.756818) can0 217#767C0E008DFD
(1649282381.756818) can0 1E1#0000FFFF00000000
(1649282381.756818) can0 208#0080651E1E002D
(1649282381.756818) can0 211#FFFFFFFFFFFFFFFF
(1649282381.756818) can0 20B#0100
(1649282381.756818) can0 286#0338C0000000
(1649282381.756818) can0 2EB#720000FF
(1649282381.756818) can0 2CE#FFFF000000000000
(1649282381.756818) can0 211#FFFFFFFFFFFFFFFF
(1649282381.756818) can0 416#FD3E3FFFFFFFFFFF
(1649282381.756818) can0 214#2BE25200176D00
(1649282381.756818) can0 2EB#720000FF
(1649282381.756818) can0 2A8#000000000000
(1649282381.756818) can0 292#FFFFFF0000FFFF
(1649282381.756818) can0 142#000000000000
(1649282381.756818) can0 1E1#0000FFFF00000000
(1649282381.756818) can0 249#001002C04A08
(1649282381.756818) can0 1E7#7000000000000000
(1649282381.756818) can0 1A5#3F00FFFFFF007800
(1649282381.756818) can0 208#0080651E1E002D
(1649282381.756818) can0 217#767C0E008DFD
(1649282381.756818) can0 211#FFFFFFFFFFFFFFFF
(1649282381.756818) can0 283#0000000000000000
(1649282381.756818) can0 20B#0100
(1649282381.756818) can0 286#0338C0000000
(1649282381.756818) can0 20E#930547C0FFFF0C
(1649282381.756818) can0 348#0000000000000000
(1649282381.756818) can0 2D2#000300
(1649282381.756818) can0 2EB#720000FF
(1649282381.756818) can0 2CE#FFFF000000000000
(1649282381.756818) can0 43E#FD023FFFFFFFFFFF
(1649282381.756818) can0 3D9#000A0A0A0A0AFF
(1649282381.756818) can0 211#FFFFFFFFFFFFFFFF
(1649282381.756818) can0 20E#930547C0FFFF0C
(1649282381.756818) can0 3B3#00FFFFFF00FFFFFF
(1649282381.756818) can0 244#01000B0480
(1649282381.756818) can0 3B0#1D3000001D300000
(1649282381.756818) can0 214#2BE25200176D00
(1649282381.756818) can0 308#110000
(1649282381.756818) can0 3A3#000000000000
(1649282381.756818) can0 392#0C00000000000000
(1649282381.756818) can0 2EB#720000FF
(1649282381.756818) can0 2E9#00000000
(1649282381.756818) can0 2A8#000000000000
(1649282381.756818) can0 293#1000000000FFFFFF
(1649282381.756818) can0 217#767C0EC08DFD
(1649282381.756818) can0 1E1#0000FFFF00000000
(1649282381.756818) can0 2E1#00
(1649282381.756818) can0 208#0080651E1E002D
(1649282381.756818) can0 211#FFFFFFFFFFFFFFFF
(1649282381.756818) can0 291#1D0D0530000007
(1649282381.756818) can0 20B#0100
(1649282381.756818) can0 2E3#000000
(1649282381.756818) can0 290#0116010F07000000
(1649282381.756818) can0 286#0338C0000000
(1649282381.756818) can0 21B#1F0000000034001F
(1649282381.756818) can0 270#0000
(1649282381.756818) can0 2EB#720000FF
(1649282381.756818) can0 2CE#FFFF000000000000
(1649282381.756818) can0 402#FD143FFFFFFFFFFF
(1649282381.756818) can0 2B0#02000000
(1649282381.756818) can0 211#FFFFFFFFFFFFFFFF
(1649282381.756818) can0 2E7#001C000000000000
(1649282381.756818) can0 214#2BE25200176D00
(1649282381.756818) can0 2EB#720000FF
(1649282381.756818) can0 2A8#000000000000
(1649282381.756818) can0 217#767C0EC08DFD
(1649282381.756818) can0 1E1#0000FFFF00000000
(1649282381.756818) can0 208#0080651E1E002D
(1649282381.756818) can0 211#FFFFFFFFFFFFFFFF
(1649282381.756818) can0 20B#0100
(1649282381.756818) can0 286#0338C0000000
(1649282381.756818) can0 2EB#720000FF
(1649282381.756818) can0 2CE#FFFF000000000000
(1649282381.756818) can0 414#FD163FFFFFFFFFFF
(1649282381.756818) can0 211#FFFFFFFFFFFFFFFF
(1649282381.756818) can0 214#2BE25200176D00
(1649282381.756818) can0 2EB#720000FF
(1649282381.756818) can0 2A8#000000000000
(1649282381.756818) can0 217#767C0EC08DFD
(1649282381.756818) can0 1E1#0000FFFF00000000
(1649282381.756818) can0 208#0080651E1E002D
(1649282381.756818) can0 211#FFFFFFFFFFFFFFFF
(1649282381.756818) can0 20B#0100
(1649282381.756818) can0 286#0338C0000000
(1649282381.756818) can0 2EB#720000FF
(1649282381.756818) can0 416#FD3E3FFFFFFFFFFF
(1649282381.756818) can0 2CE#FFFF000000000000
(1649282381.756818) can0 211#FFFFFFFFFFFFFFFF
(1649282381.756818) can0 214#2BE25200176D00
(1649282381.756818) can0 2EB#720000FF
(1649282381.756818) can0 2A8#000000000000
(1649282381.756818) can0 217#767C0EC08DFD
(1649282381.756818) can0 1E1#0000FFFF00000000
(1649282381.756818) can0 208#0080651E1E002D
(1649282381.756818) can0 211#FFFFFFFFFFFFFFFF
(1649282381.756818) can0 20B#0100
(1649282381.756818) can0 286#0338C0000000
(1649282381.756818) can0 43E#FD023FFFFFFFFFFF
(1649282381.756818) can0 2EB#720000FF
(1649282381.756818) can0 2CE#FFFF000000000000
(1649282381.756818) can0 211#FFFFFFFFFFFFFFFF
(1649282381.756818) can0 214#2BE25200176D00
(1649282381.756818) can0 2EB#720000FF
(1649282381.756818) can0 2A8#000000000000
(1649282381.756818) can0 292#FFFFFF0000FFFF
(1649282381.756818) can0 1E1#0000FFFF00000000
(1649282381.756818) can0 208#0080651E1E002D
(1649282381.756818) can0 217#767C0EC08DFD
(1649282381.756818) can0 211#FFFFFFFFFFFFFFFF
(1649282381.756818) can0 20B#0100
(1649282381.756818) can0 286#0338C0000000
(1649282381.756818) can0 402#FD143FFFFFFFFFFF
(1649282381.756818) can0 348#0000000000000000
(1649282381.756818) can0 2EB#720000FF
(1649282381.756818) can0 2CE#FFFF000000000000
(1649282381.756818) can0 211#FFFFFFFFFFFFFFFF
(1649282381.756818) can0 20E#930547C0FFFF0C
(1649282381.756818) can0 244#01000B0480
(1649282381.756818) can0 214#2BE25200176D00
(1649282381.756818) can0 308#110000
(1649282381.756818) can0 3A3#000000000000
(1649282381.756818) can0 2EB#720000FF
(1649282381.756818) can0 2A8#000000000000
(1649282381.756818) can0 217#767C0EC08DFD
(1649282381.756818) can0 2E1#00
(1649282381.756818) can0 1E1#0000FFFF00000000
(1649282381.756818) can0 208#0080651E1E002D
(1649282381.756818) can0 211#FFFFFFFFFFFFFFFF
(1649282381.756818) can0 20B#0100
(1649282381.756818) can0 2E3#000000
(1649282381.756818) can0 286#0338C0000000
(1649282381.756818) can0 414#FD163FFFFFFFFFFF
(1649282381.756818) can0 2EB#720000FF
(1649282381.756818) can0 2CE#FFFF000000000000
(1649282381.756818) can0 211#FFFFFFFFFFFFFFFF
(1649282381.756818) can0 214#2BE25200176D00
(1649282381.756818) can0 2EB#720000FF
(1649282381.756818) can0 2A8#000000000000
(1649282381.756818) can0 217#767C0EC08DFD
(1649282381.756818) can0 1E1#0000FFFF00000000
(1649282381.756818) can0 208#0080651E1E002D
(1649282381.756818) can0 211#FFFFFFFFFFFFFFFF
(1649282381.756818) can0 20B#0100
(1649282381.756818) can0 416#FD3E3FFFFFFFFFFF
(1649282381.756818) can0 286#0338C0000000
(1649282381.756818) can0 2EB#720000FF
(1649282381.756818) can0 2CE#FFFF000000000000
(1649282381.756818) can0 2D9#80C227C427C0FF
(1649282381.756818) can0 3E6#0E2116
(1649282381.756818) can0 211#FFFFFFFFFFFFFFFF
(1649282381.756818) can0 214#2BE25200176D00
(1649282381.756818) can0 2EB#720000FF
(1649282381.756818) can0 2A8#000000000000
(1649282381.756818) can0 217#767C0EC08DFD
(1649282381.756818) can0 1E1#0000FFFF00000000
(1649282381.756818) can0 43E#FD023FFFFFFFFFFF
(1649282381.756818) can0 208#0080651E1E002D
(1649282381.756818) can0 211#FFFFFFFFFFFFFFFF
(1649282381.756818) can0 20B#0100
(1649282381.756818) can0 286#0338C0000000
(1649282381.756818) can0 2EB#720000FF
(1649282381.756818) can0 2CE#FFFF000000000000
(1649282381.756818) can0 211#FFFFFFFFFFFFFFFF
(1649282381.756818) can0 214#2BE25200176D00
(1649282381.756818) can0 2EB#720000FF
(1649282381.756818) can0 2A8#000000000000
(1649282381.756818) can0 217#767C0EC08DFD
(1649282381.756818) can0 1E1#0000FFFF00000000
(1649282381.756818) can0 208#0080651E1E002D
(1649282381.756818) can0 211#FFFFFFFFFFFFFFFF
(1649282381.756818) can0 402#FD143FFFFFFFFFFF
(1649282381.756818) can0 20B#0100
(1649282381.756818) can0 286#0338C0000000
(1649282381.756818) can0 2EB#720000FF
(1649282381.756818) can0 2CE#FFFF000000000000
(1649282381.756818) can0 211#FFFFFFFFFFFFFFFF
(1649282381.756818) can0 214#2BE25200176D00
(1649282381.756818) can0 2EB#720000FF
(1649282381.756818) can0 2A8#000000000000
(1649282381.756818) can0 3E9#9E01
(1649282381.756818) can0 2DE#019B000000000000
(1649282381.756818) can0 414#FD163FFFFFFFFFFF
(1649282381.756818) can0 142#000000000000
(1649282381.756818) can0 1E1#0000FFFF00000000
(1649282381.756818) can0 249#001002C04A08
(1649282381.756818) can0 1E7#7000000000000000
(1649282381.756818) can0 221#010000000000
(1649282381.756818) can0 2D3#010E180200000000
(1649282381.756818) can0 1A5#3F00FFFFFF007800
(1649282381.756818) can0 208#0080651E1E002D
(1649282381.756818) can0 217#767C0EC08DFD
(1649282381.756818) can0 20B#0100
(1649282381.756818) can0 2D6#0100000000000000
(1649282381.756818) can0 283#0000000000000000
(1649282381.756818) can0 211#FFFFFFFFFFFFFFFF
(1649282381.756818) can0 292#FFFFFF0000FFFF
(1649282381.756818) can0 2DD#05000000
(1649282381.756818) can0 2DB#E507401C00000105
(1649282381.756818) can0 286#0338C0000000
(1649282381.756818) can0 348#0000000000000000
(1649282381.756818) can0 2EB#720000FF
(1649282381.756818) can0 2D2#000300
(1649282381.756818) can0 2CE#FFFF000000000000
(1649282381.756818) can0 3D9#000A0A0A0A0AFF
(1649282381.756818) can0 211#FFFFFFFFFFFFFFFF
(1649282381.756818) can0 20E#930547C0FFFF0C
(1649282381.756818) can0 3B3#00FFFFFF00FFFFFF
(1649282381.756818) can0 244#01000B0480
(1649282381.756818) can0 21D#4111297562E52E81
(1649282381.756818) can0 3B0#1D3000001D300000
(1649282381.756818) can0 21E#390014116B9E809E
(1649282381.756818) can0 214#2BE25200176D00
(1649282381.756818) can0 142#FF0000000000
(1649282381.756818) can0 2E5#00
(1649282381.756818) can0 308#110000
(1649282381.756818) can0 3A3#000000000000
(1649282381.756818) can0 392#0C00000000000000
(1649282381.756818) can0 21F#0100500000000040
(1649282381.756818) can0 2EB#720000FF
(1649282381.756818) can0 2E9#00000000
(1649282381.756818) can0 25F#C17DA80E0000
(1649282381.756818) can0 2A8#000000000000
(1649282381.756818) can0 416#FD3E3FFFFFFFFFFF
(1649282381.756818) can0 217#767C0EC08DFD
(1649282381.756818) can0 2E1#00
(1649282381.756818) can0 1E1#0000FFFF00000000
(1649282381.756818) can0 208#0080651E1E002D
(1649282381.756818) can0 211#FFFFFFFFFFFFFFFF
(1649282381.756818) can0 291#1D0D0530000007
(1649282381.756818) can0 20B#0100
(1649282381.756818) can0 2E3#000000
(1649282381.756818) can0 290#0116010F07000000
(1649282381.756818) can0 286#0338C0000000
(1649282381.756818) can0 21B#1F0000000034001F
(1649282381.756818) can0 293#1000000000FFFFFF
(1649282381.756818) can0 270#0000
(1649282381.756818) can0 2EB#720000FF
(1649282381.756818) can0 2CE#FFFF00000000C03F
(1649282381.756818) can0 2B0#02000000
(1649282381.756818) can0 211#FFFFFFFFFFFFFFFF
(1649282381.756818) can0 2E7#001C000000000000
(1649282381.756818) can0 214#2BE25200176D00
(1649282381.756818) can0 2EB#720000FF
(1649282381.756818) can0 43E#FD023FFFFFFFFFFF
(1649282381.756818) can0 2A8#000000000000
(1649282381.756818) can0 217#767C0EC08DFD
(1649282381.756818) can0 1E1#0000FFFF00000000
(1649282381.756818) can0 208#0080651E1E002D
(1649282381.756818) can0 211#FFFFFFFFFFFFFFFF
(1649282381.756818) can0 20B#0100
(1649282381.756818) can0 286#0338C0000000
(1649282381.756818) can0 2EB#720000FF
(1649282381.756818) can0 2CE#FFFF00000000C03F
(1649282381.756818) can0 211#FFFFFFFFFFFFFFFF
(1649282381.756818) can0 214#2BE25200176D00
(1649282381.756818) can0 2EB#720000FF
(1649282381.756818) can0 402#FD143FFFFFFFFFFF
(1649282381.756818) can0 2A8#000000000000
(1649282381.756818) can0 217#767C0EC08DFD
(1649282381.756818) can0 1E1#0000FFFF00000000
(1649282381.756818) can0 208#0080651E1E002D
(1649282381.756818) can0 211#FFFFFFFFFFFFFFFF
(1649282381.756818) can0 20B#0100
(1649282381.756818) can0 286#0338C0000000
(1649282381.756818) can0 2EB#720000FF
(1649282381.756818) can0 2CE#FFFF00000000C03F
(1649282381.756818) can0 211#FFFFFFFFFFFFFFFF
(1649282381.756818) can0 214#2BE25200176D00
(1649282381.756818) can0 414#FD163FFFFFFFFFFF
(1649282381.756818) can0 2EB#720000FF
(1649282381.756818) can0 2A8#000000000000
(1649282381.756818) can0 217#767C0EC08DFD
(1649282381.756818) can0 1E1#0000FFFF00000000
(1649282381.756818) can0 208#0080651E1E002D
(1649282381.756818) can0 211#FFFFFFFFFFFFFFFF
(1649282381.756818) can0 20B#0100
(1649282381.756818) can0 286#0338C0000000
(1649282381.756818) can0 2EB#720000FF
(1649282381.756818) can0 2CE#FFFF00000000C03F
(1649282381.756818) can0 211#FFFFFFFFFFFFFFFF
(1649282381.756818) can0 214#2BE25200176D00
(1649282381.756818) can0 416#FD3E3FFFFFFFFFFF
(1649282381.756818) can0 2EB#720000FF
(1649282381.756818) can0 2A8#000000000000
(1649282381.756818) can0 292#FFFFFF0000FFFF
(1649282381.756818) can0 1E1#0000FFFF00000000
(1649282381.756818) can0 208#0080651E1E002D
(1649282381.756818) can0 217#767C0EC08DFD
(1649282381.756818) can0 211#FFFFFFFFFFFFFFFF
(1649282381.756818) can0 20B#0100
(1649282381.756818) can0 286#0338C0000000
(1649282381.756818) can0 348#0000000000000000
(1649282381.756818) can0 2EB#720000FF
(1649282381.756818) can0 2CE#FFFF00000000C03F
(1649282381.756818) can0 211#FFFFFFFFFFFFFFFF
(1649282381.756818) can0 20E#930547C0FFFF0C
(1649282381.756818) can0 244#01000B0480
(1649282381.756818) can0 43E#FD023FFFFFFFFFFF
(1649282381.756818) can0 214#2BE25200176D00
(1649282381.756818) can0 308#110000
(1649282381.756818) can0 3A3#000000000000
(1649282381.756818) can0 2EB#720000FF
(1649282381.756818) can0 2A8#000000000000
(1649282381.756818) can0 217#767C0EC08DFD
(1649282381.756818) can0 2E1#00
(1649282381.756818) can0 1E1#0000FFFF00000000
(1649282381.756818) can0 208#0080651E1E002D
(1649282381.756818) can0 211#FFFFFFFFFFFFFFFF
(1649282381.756818) can0 20B#0100
(1649282381.756818) can0 2E3#000000
(1649282381.756818) can0 286#0338C0000000
(1649282381.756818) can0 2EB#720000FF
(1649282381.756818) can0 2CE#FFFF00000000C03F
(1649282381.756818) can0 211#FFFFFFFFFFFFFFFF
(1649282381.756818) can0 402#FD143FFFFFFFFFFF
(1649282381.756818) can0 214#2BE25200176D00
(1649282381.756818) can0 2EB#720000FF
(1649282381.756818) can0 2A8#000000000000
(1649282381.756818) can0 217#767C0EC08DFD
(1649282381.756818) can0 1E1#0000FFFF00000000
(1649282381.756818) can0 208#0080651E1E002D
(1649282381.756818) can0 211#FFFFFFFFFFFFFFFF
(1649282381.756818) can0 20B#0100
(1649282381.756818) can0 286#0338C0000000
(1649282381.756818) can0 2EB#720000FF
(1649282381.756818) can0 2CE#FFFF00000000C03F
(1649282381.756818) can0 2D9#80C227C427C0FF
(1649282381.756818) can0 3E6#0E2117
(1649282381.756818) can0 211#FFFFFFFFFFFFFFFF
(1649282381.756818) can0 414#FD163FFFFFFFFFFF
(1649282381.756818) can0 214#2BE25200176D00
(1649282381.756818) can0 2EB#720000FF
(1649282381.756818) can0 2A8#000000000000
(1649282381.756818) can0 217#767C0EC08DFD
(1649282381.756818) can0 1E1#0000FFFF00000000
(1649282381.756818) can0 208#0080651E1E002D
(1649282381.756818) can0 211#FFFFFFFFFFFFFFFF
(1649282381.756818) can0 20B#0100
(1649282381.756818) can0 286#0338C0000000
(1649282381.756818) can0 2EB#720000FF
(1649282381.756818) can0 2CE#FFFF00000000C03F
(1649282381.756818) can0 211#FFFFFFFFFFFFFFFF
(1649282381.756818) can0 416#FD3E3FFFFFFFFFFF
(1649282381.756818) can0 214#2BE25200176D00
(1649282381.756818) can0 2EB#720000FF
(1649282381.756818) can0 2A8#000000000000
(1649282381.756818) can0 217#767C0EC08DFD
(1649282381.756818) can0 1E1#0000FFFF00000000
(1649282381.756818) can0 208#0080651E1E002D
(1649282381.756818) can0 211#FFFFFFFFFFFFFFFF
(1649282381.756818) can0 20B#0100
(1649282381.756818) can0 286#0338C0000000
(1649282381.756818) can0 2EB#720000FF
(1649282381.756818) can0 2CE#FFFF00000000C03F
(1649282381.756818) can0 43E#FD023FFFFFFFFFFF
(1649282381.756818) can0 211#FFFFFFFFFFFFFFFF
(1649282381.756818) can0 214#2BE25200176D00
(1649282381.756818) can0 2EB#720000FF
(1649282381.756818) can0 2A8#000000000000
(1649282381.756818) can0 292#FFFFFF0000FFFF
(1649282381.756818) can0 142#FF0000000000
(1649282381.756818) can0 1E1#0000FFFF00000000
(1649282381.756818) can0 249#001002C04A08
(1649282381.756818) can0 1E7#7000000000000000
(1649282381.756818) can0 1A5#3F00FFFFFF007800
(1649282381.756818) can0 208#0080651E1E002D
(1649282381.756818) can0 217#767C0EC08DFD
(1649282381.756818) can0 211#FFFFFFFFFFFFFFFF
(1649282381.756818) can0 283#0000000000000000
(1649282381.756818) can0 20B#0100
(1649282381.756818) can0 286#0338C0000000
(1649282381.756818) can0 348#0000000000000000
(1649282381.756818) can0 2EB#720000FF
(1649282381.756818) can0 2D2#000300
(1649282381.756818) can0 2CE#FFFF00000000C03F
(1649282381.756818) can0 402#FD143FFFFFFFFFFF
(1649282381.756818) can0 3D9#000A0A0A0A0AFF
(1649282381.756818) can0 211#FFFFFFFFFFFFFFFF
(1649282381.756818) can0 20E#930547C0FFFF0C
(1649282381.756818) can0 3B3#00FFFFFF00FFFFFF
(1649282381.756818) can0 244#01000B0480
(1649282381.756818) can0 3B0#1D3000001D300000
(1649282381.756818) can0 214#2BE25200176D00
(1649282381.756818) can0 308#110000
(1649282381.756818) can0 3A3#000000000000
(1649282381.756818) can0 392#0C00000000000000
(1649282381.756818) can0 2EB#720000FF
(1649282381.756818) can0 2E9#00000000
(1649282381.756818) can0 2A8#000000000000
(1649282381.756818) can0 293#1000000000FFFFFF
(1649282381.756818) can0 217#767C0EC08DFD
(1649282381.756818) can0 2E1#00
(1649282381.756818) can0 1E1#0000FFFF00000000
(1649282381.756818) can0 208#0080651E1E002D
(1649282381.756818) can0 211#FFFFFFFFFFFFFFFF
(1649282381.756818) can0 291#1D0D0530000007
(1649282381.756818) can0 20B#0100
(1649282381.756818) can0 2E3#000000
(1649282381.756818) can0 290#0116010F07000000
(1649282381.756818) can0 286#0338C0000000
(1649282381.756818) can0 21B#1F0000000034001F
(1649282381.756818) can0 270#0000
(1649282381.756818) can0 2EB#720000FF
(1649282381.756818) can0 2CE#FFFF00000000C03F
(1649282381.756818) can0 414#FD163FFFFFFFFFFF
(1649282381.756818) can0 2B0#02000000
(1649282381.756818) can0 211#FFFFFFFFFFFFFFFF
(1649282381.756818) can0 2E7#001C000000000000
(1649282381.756818) can0 214#2BE25200176D00
(1649282381.756818) can0 2EB#720000FF
(1649282381.756818) can0 2A8#000000000000
(1649282381.756818) can0 217#767C0EC08DFD
(1649282381.756818) can0 1E1#0000FFFF00000000
(1649282381.756818) can0 208#0080651E1E002D
(1649282381.756818) can0 211#FFFFFFFFFFFFFFFF
(1649282381.756818) can0 20B#0100
(1649282381.756818) can0 286#0338C0000000
(1649282381.756818) can0 2EB#720000FF
(1649282381.756818) can0 416#FD3E3FFFFFFFFFFF
(1649282381.756818) can0 2CE#FFFF00000000C03F
(1649282381.756818) can0 211#FFFFFFFFFFFFFFFF
(1649282381.756818) can0 214#2BE25200176D00
(1649282381.756818) can0 2EB#720000FF
(1649282381.756818) can0 2A8#000000000000
(1649282381.756818) can0 217#767C0EC08DFD
(1649282381.756818) can0 1E1#0000FFFF00000000
(1649282381.756818) can0 208#0080651E1E002D
(1649282381.756818) can0 211#FFFFFFFFFFFFFFFF
(1649282381.756818) can0 20B#0100
(1649282381.756818) can0 286#0338C0000000
(1649282381.756818) can0 43E#FD023FFFFFFFFFFF
(1649282381.756818) can0 2EB#720000FF
(1649282381.756818) can0 2CE#FFFF00000000C03F
(1649282381.756818) can0 211#FFFFFFFFFFFFFFFF
(1649282381.756818) can0 214#2BE25200176D00
(1649282381.756818) can0 2EB#720000FF
(1649282381.756818) can0 2A8#000000000000
(1649282381.756818) can0 217#767C0EC08DFD
(1649282381.756818) can0 1E1#0000FFFF00000000
(1649282381.756818) can0 208#0080651E1E002D
(1649282381.756818) can0 211#FFFFFFFFFFFFFFFF
(1649282381.756818) can0 20B#0100
(1649282381.756818) can0 286#0338C0000000
(1649282381.756818) can0 402#FD143FFFFFFFFFFF
(1649282381.756818) can0 2EB#720000FF
(1649282381.756818) can0 2CE#FFFF00000000C03F
(1649282381.756818) can0 211#FFFFFFFFFFFFFFFF
(1649282381.756818) can0 214#2BE25200176D00
(1649282381.756818) can0 2EB#720000FF
(1649282381.756818) can0 2A8#000000000000
(1649282381.756818) can0 3E9#9E01
(1649282381.756818) can0 292#FFFFFF0000FFFF
(1649282381.756818) can0 1E1#0000FFFF00000000
(1649282381.756818) can0 208#0080651E1E002D
(1649282381.756818) can0 217#767C0EC08DFD
(1649282381.756818) can0 211#FFFFFFFFFFFFFFFF
(1649282381.756818) can0 20B#0100
(1649282381.756818) can0 286#0338C0000000
(1649282381.756818) can0 414#FD163FFFFFFFFFFF
(1649282381.756818) can0 348#0000000000000000
(1649282381.756818) can0 2EB#720000FF
(1649282381.756818) can0 2CE#FFFF00000000C03F
(1649282381.756818) can0 211#FFFFFFFFFFFFFFFF
(1649282381.756818) can0 20E#930547C0FFFF0C
(1649282381.756818) can0 244#01000B0480
(1649282381.756818) can0 214#2BE25200176D00
(1649282381.756818) can0 308#110000
(1649282381.756818) can0 3A3#000000000000
(1649282381.756818) can0 2EB#720000FF
(1649282381.756818) can0 2A8#000000000000
(1649282381.756818) can0 2E1#00
(1649282381.756818) can0 217#767C0EC08DFD
(1649282381.756818) can0 1E1#0000FFFF00000000
(1649282381.756818) can0 208#0080651E1E002D
(1649282381.756818) can0 211#FFFFFFFFFFFFFFFF
(1649282381.756818) can0 20B#0100
(1649282381.756818) can0 2E3#000000
(1649282381.756818) can0 416#FD3E3FFFFFFFFFFF
(1649282381.756818) can0 286#0338C0000000
(1649282381.756818) can0 2EB#720000FF
(1649282381.756818) can0 2CE#FFFF00000000C03F
(1649282381.756818) can0 211#FFFFFFFFFFFFFFFF
(1649282381.756818) can0 214#2BE25200176D00
(1649282381.756818) can0 2EB#720000FF
(1649282381.756818) can0 2A8#000000000000
(1649282381.756818) can0 217#767C0EC08DFD
(1649282381.756818) can0 1E1#0000FFFF00000000
(1649282381.756818) can0 208#0080651E1E002D
(1649282381.756818) can0 211#FFFFFFFFFFFFFFFF
(1649282381.756818) can0 43E#FD023FFFFFFFFFFF
(1649282381.756818) can0 20B#0100
(1649282381.756818) can0 286#0338C0000000
(1649282381.756818) can0 2EB#720000FF
(1649282381.756818) can0 2CE#FFFF00000000C03F
(1649282381.756818) can0 2D9#80C227C427C0FF
(1649282381.756818) can0 3E6#0E2118
(1649282381.756818) can0 211#FFFFFFFFFFFFFFFF
(1649282381.756818) can0 214#2BE25200176D00
(1649282381.756818) can0 2EB#720000FF
(1649282381.756818) can0 2A8#000000000000
(1649282381.756818) can0 217#767C0EC08DFD
(1649282381.756818) can0 1E1#0000FFFF00000000
(1649282381.756818) can0 208#0080651E1E002D
(1649282381.756818) can0 211#FFFFFFFFFFFFFFFF
(1649282381.756818) can0 402#FD143FFFFFFFFFFF
(1649282381.756818) can0 20B#0100
(1649282381.756818) can0 286#0338C0000000
(1649282381.756818) can0 2EB#720000FF
(1649282381.756818) can0 2CE#FFFF00000000C03F
(1649282381.756818) can0 211#FFFFFFFFFFFFFFFF
(1649282381.756818) can0 214#2BE25200176D00
(1649282381.756818) can0 2EB#720000FF
(1649282381.756818) can0 2A8#000000000000
(1649282381.756818) can0 414#FD163FFFFFFFFFFF
(1649282381.756818) can0 217#767C0EC08DFD
(1649282381.756818) can0 1E1#0000FFFF00000000
(1649282381.756818) can0 208#0080651E1E002D
(1649282381.756818) can0 211#FFFFFFFFFFFFFFFF
(1649282381.756818) can0 20B#0100
(1649282381.756818) can0 286#0338C0000000
(1649282381.756818) can0 2EB#720000FF
(1649282381.756818) can0 2CE#FFFF00000000C03F
(1649282381.756818) can0 211#FFFFFFFFFFFFFFFF
(1649282381.756818) can0 214#2BE25200176D00
(1649282381.756818) can0 2EB#720000FF
(1649282381.756818) can0 2A8#000000000000
(1649282381.756818) can0 416#FD3E3FFFFFFFFFFF
(1649282381.756818) can0 2DF#0E9203E80FA00A7A
(1649282381.756818) can0 142#FF0000000000
(1649282381.756818) can0 1E1#0000FFFF00000000
(1649282381.756818) can0 249#001002C04A08
(1649282381.756818) can0 1E7#7000000000000000
(1649282381.756818) can0 221#010000000000
(1649282381.756818) can0 2D3#010E180200000000
(1649282381.756818) can0 1A5#3F00FFFFFF007800
(1649282381.756818) can0 208#0080651E1E002D
(1649282381.756818) can0 217#767C0EC08DFD
(1649282381.756818) can0 211#FFFFFFFFFFFFFFFF
(1649282381.756818) can0 20B#0100
(1649282381.756818) can0 2D6#0100000000000000
(1649282381.756818) can0 283#0000000000000000
(1649282381.756818) can0 292#FFFFFF0000FFFF
(1649282381.756818) can0 2DA#61119BA0FFFF
(1649282381.756818) can0 2DD#05000000
(1649282381.756818) can0 2DE#019B000000000000
(1649282381.756818) can0 2DB#E507401C00000105
(1649282381.756818) can0 286#0338C0000000
(1649282381.756818) can0 2EB#720000FF
(1649282381.756818) can0 348#0000000000000000
(1649282381.756818) can0 2D2#000300
(1649282381.756818) can0 2CE#FFFF00000000C03F
(1649282381.756818) can0 3D9#000A0A0A0A0AFF
(1649282381.756818) can0 211#FFFFFFFFFFFFFFFF
(1649282381.756818) can0 20E#930547C0FFFF0C
(1649282381.756818) can0 3B3#00FFFFFF00FFFFFF
(1649282381.756818) can0 244#01000B0480
(1649282381.756818) can0 21D#4111297562E52E81
(1649282381.756818) can0 3B0#1D3000001D300000
(1649282381.756818) can0 214#2BE25200176D00
(1649282381.756818) can0 21E#390014116B9E809E
(1649282381.756818) can0 2E5#00
(1649282381.756818) can0 308#110000
(1649282381.756818) can0 3A3#000000000000
(1649282381.756818) can0 392#0C00000000000000
(1649282381.756818) can0 2EB#720000FF
(1649282381.756818) can0 21F#0100500000000040
(1649282381.756818) can0 43E#FD023FFFFFFFFFFF
(1649282381.756818) can0 2E9#00000000
(1649282381.756818) can0 2A8#000000000000
(1649282381.756818) can0 25F#C17DA80E0000
(1649282381.756818) can0 293#1000000000FFFFFF
(1649282381.756818) can0 2E1#00
(1649282381.756818) can0 217#767C0EC08DFD
(1649282381.756818) can0 1E1#0000FFFF00000000
(1649282381.756818) can0 208#0080651E1E002D
(1649282381.756818) can0 211#FFFFFFFFFFFFFFFF
(1649282381.756818) can0 291#1D0D0530000007
(1649282381.756818) can0 2E3#000000
(1649282381.756818) can0 20B#0100
(1649282381.756818) can0 290#0116010F07000000
(1649282381.756818) can0 21B#1F0000000034001F
(1649282381.756818) can0 286#0338C0000000
(1649282381.756818) can0 270#0000
(1649282381.756818) can0 2EB#720000FF
(1649282381.756818) can0 2B0#02000000
(1649282381.756818) can0 2CE#FFFF00000000C03F
(1649282381.756818) can0 2E7#001C000000000000
(1649282381.756818) can0 211#FFFFFFFFFFFFFFFF
(1649282381.756818) can0 214#2BE25200176D00
(1649282381.756818) can0 2EB#720000FF
(1649282381.756818) can0 402#FD143FFFFFFFFFFF
(1649282381.756818) can0 2A8#000000000000
(1649282381.756818) can0 217#767C0EC08DFD
(1649282381.756818) can0 1E1#0000FFFF00000000
(1649282381.756818) can0 208#0080651E1E002D
(1649282381.756818) can0 211#FFFFFFFFFFFFFFFF
(1649282381.756818) can0 20B#0100
(1649282381.756818) can0 286#0338C0000000
(1649282381.756818) can0 2EB#720000FF
(1649282381.756818) can0 2CE#FFFF00000000C03F
(1649282381.756818) can0 211#FFFFFFFFFFFFFFFF
(1649282381.756818) can0 214#2BE25200176D00
(1649282381.756818) can0 414#FD163FFFFFFFFFFF
(1649282381.756818) can0 2EB#720000FF
(1649282381.756818) can0 2A8#000000000000
(1649282381.756818) can0 217#767C0EC08DFD
(1649282381.756818) can0 1E1#0000FFFF00000000
(1649282381.756818) can0 208#0080651E1E002D
(1649282381.756818) can0 211#FFFFFFFFFFFFFFFF
(1649282381.756818) can0 20B#0100
(1649282381.756818) can0 286#0338C0000000
(1649282381.756818) can0 2EB#720000FF
(1649282381.756818) can0 2CE#FFFF00000000C03F
(1649282381.756818) can0 211#FFFFFFFFFFFFFFFF
(1649282381.756818) can0 214#2BE25200176D00
(1649282381.756818) can0 416#FD3E3FFFFFFFFFFF
(1649282381.756818) can0 2EB#720000FF
(1649282381.756818) can0 2A8#000000000000
(1649282381.756818) can0 217#767C0EC08DFD
(1649282381.756818) can0 1E1#0000FFFF00000000
(1649282381.756818) can0 208#0080651E1E002D
(1649282381.756818) can0 211#FFFFFFFFFFFFFFFF
(1649282381.756818) can0 20B#0100
(1649282381.756818) can0 286#0338C0000000
(1649282381.756818) can0 2EB#720000FF
(1649282381.756818) can0 2CE#FFFF00000000C03F
(1649282381.756818) can0 211#FFFFFFFFFFFFFFFF
(1649282381.756818) can0 43E#FD023FFFFFFFFFFF
(1649282381.756818) can0 214#2BE25200176D00
(1649282381.756818) can0 2EB#720000FF
(1649282381.756818) can0 2A8#000000000000
(1649282381.756818) can0 292#FFFFFF0000FFFF
(1649282381.756818) can0 1E1#0000FFFF00000000
(1649282381.756818) can0 208#0080651E1E002D
(1649282381.756818) can0 217#767C0EC08DFD
(1649282381.756818) can0 211#FFFFFFFFFFFFFFFF
(1649282381.756818) can0 20B#0100
(1649282381.756818) can0 286#0338C0000000
(1649282381.756818) can0 2EB#720000FF
(1649282381.756818) can0 348#0000000000000000
(1649282381.756818) can0 2CE#FFFF00000000C03F
(1649282381.756818) can0 211#FFFFFFFFFFFFFFFF
(1649282381.756818) can0 20E#930547C0FFFF0C
(1649282381.756818) can0 244#01000B0480
(1649282381.756818) can0 402#FD143FFFFFFFFFFF
(1649282381.756818) can0 214#2BE25200176D00
(1649282381.756818) can0 308#110000
(1649282381.756818) can0 3A3#000000000000
(1649282381.756818) can0 2EB#720000FF
(1649282381.756818) can0 2A8#000000000000
(1649282381.756818) can0 2E1#00
(1649282381.756818) can0 217#767C0EC08DFD
(1649282381.756818) can0 1E1#0000FFFF00000000
(1649282381.756818) can0 208#0080651E1E002D
(1649282381.756818) can0 211#FFFFFFFFFFFFFFFF
(1649282381.756818) can0 2E3#000000
(1649282381.756818) can0 20B#0100
(1649282381.756818) can0 286#0338C0000000
(1649282381.756818) can0 2EB#720000FF
(1649282381.756818) can0 2CE#FFFF00000000C03F
(1649282381.756818) can0 211#FFFFFFFFFFFFFFFF
(1649282381.756818) can0 414#FD163FFFFFFFFFFF
(1649282381.756818) can0 214#2BE25200176D00
(1649282381.756818) can0 2EB#720000FF
(1649282381.756818) can0 2A8#000000000000
(1649282381.756818) can0 217#767C0EC08DFD
(1649282381.756818) can0 1E1#0000FFFF00000000
(1649282381.756818) can0 208#0080651E1E002D
(1649282381.756818) can0 211#FFFFFFFFFFFFFFFF
(1649282381.756818) can0 20B#0100
(1649282381.756818) can0 286#0338C0000000
(1649282381.756818) can0 2EB#720000FF
(1649282381.756818) can0 2CE#FFFF00000000C03F
(1649282381.756818) can0 2D9#80C227C427C0FF
(1649282381.756818) can0 3E6#0E2119
(1649282381.756818) can0 211#FFFFFFFFFFFFFFFF
(1649282381.756818) can0 416#FD3E3FFFFFFFFFFF
(1649282381.756818) can0 214#2BE25200176D00
(1649282381.756818) can0 2EB#720000FF
(1649282381.756818) can0 2A8#000000000000
(1649282381.756818) can0 217#767C0EC08DFD
(1649282381.756818) can0 1E1#0000FFFF00000000
(1649282381.756818) can0 208#0080651E1E002D
(1649282381.756818) can0 211#FFFFFFFFFFFFFFFF
(1649282381.756818) can0 20B#0100
(1649282381.756818) can0 286#0338C0000000
(1649282381.756818) can0 2EB#720000FF
(1649282381.756818) can0 2CE#FFFF00000000C03F
(1649282381.756818) can0 43E#FD023FFFFFFFFFFF
(1649282381.756818) can0 211#FFFFFFFFFFFFFFFF
(1649282381.756818) can0 214#2BE25200176D00
(1649282381.756818) can0 2EB#720000FF
(1649282381.756818) can0 2A8#000000000000
(1649282381.756818) can0 217#767C0EC08DFD
(1649282381.756818) can0 1E1#0000FFFF00000000
(1649282381.756818) can0 208#0080651E1E002D
(1649282381.756818) can0 211#FFFFFFFFFFFFFFFF
(1649282381.756818) can0 20B#0100
(1649282381.756818) can0 286#0338C0000000
(1649282381.756818) can0 2EB#720000FF
(1649282381.756818) can0 2CE#FFFF00000000C03F
(1649282381.756818) can0 402#FD143FFFFFFFFFFF
(1649282381.756818) can0 211#FFFFFFFFFFFFFFFF
(1649282381.756818) can0 214#2BE25200176D00
(1649282381.756818) can0 2EB#720000FF
(1649282381.756818) can0 2A8#000000000000
(1649282381.756818) can0 3E9#9E01
(1649282381.756818) can0 292#FFFFFF0000FFFF
(1649282381.756818) can0 142#FF0000000000
(1649282381.756818) can0 1E1#0000FFFF00000000
(1649282381.756818) can0 249#001002C04A08
(1649282381.756818) can0 1E7#7000000000000000
(1649282381.756818) can0 1A5#3F00FFFFFF007800
(1649282381.756818) can0 208#0080651E1E002D
(1649282381.756818) can0 217#767C0EC08DFD
(1649282381.756818) can0 211#FFFFFFFFFFFFFFFF
(1649282381.756818) can0 283#0000000000000000
(1649282381.756818) can0 20B#0100
(1649282381.756818) can0 286#0338C0000000
(1649282381.756818) can0 2EB#720000FF
(1649282381.756818) can0 348#0000000000000000
(1649282381.756818) can0 2D2#000300
(1649282381.756818) can0 414#FD163FFFFFFFFFFF
(1649282381.756818) can0 2CE#FFFF00000000C03F
(1649282381.756818) can0 3D9#000A0A0A0A0AFF
(1649282381.756818) can0 211#FFFFFFFFFFFFFFFF
(1649282381.756818) can0 20E#930547C0FFFF0C
(1649282381.756818) can0 3B3#00FFFFFF00FFFFFF
(1649282381.756818) can0 244#01000B0480
(1649282381.756818) can0 3B0#1D3000001D300000
(1649282381.756818) can0 214#2BE25200176D00
(1649282381.756818) can0 308#110000
(1649282381.756818) can0 3A3#000000000000
(1649282381.756818) can0 392#0C00000000000000
(1649282381.756818) can0 2EB#720000FF
(1649282381.756818) can0 2E9#00000000
(1649282381.756818) can0 2A8#000000000000
(1649282381.756818) can0 293#1000000000FFFFFF
(1649282381.756818) can0 2E1#00
(1649282381.756818) can0 217#767C0EC08DFD
(1649282381.756818) can0 1E1#0000FFFF00000000
(1649282381.756818) can0 208#0080651E1E002D
(1649282381.756818) can0 211#FFFFFFFFFFFFFFFF
(1649282381.756818) can0 291#1D0D0530000007
(1649282381.756818) can0 2E3#000000
(1649282381.756818) can0 20B#0100
(1649282381.756818) can0 290#0116010F07000000
(1649282381.756818) can0 21B#1F0000000034001F
(1649282381.756818) can0 286#0338C0000000
(1649282381.756818) can0 270#0000
(1649282381.756818) can0 2EB#720000FF
(1649282381.756818) can0 416#FD3EBFFFFFFFFFFF
(1649282381.756818) can0 2B0#02000000
(1649282381.756818) can0 2CE#FFFF00000000C03F
(1649282381.756818) can0 2E7#001C000000000000
(1649282381.756818) can0 211#FFFFFFFFFFFFFFFF
(1649282381.756818) can0 214#2BE25200176D00
(1649282381.756818) can0 2EB#720000FF
(1649282381.756818) can0 2A8#000000000000
(1649282381.756818) can0 217#767C0EC08DFD
(1649282381.756818) can0 1E1#0000FFFF00000000
(1649282381.756818) can0 208#0080651E1E002D
(1649282381.756818) can0 211#FFFFFFFFFFFFFFFF
(1649282381.756818) can0 20B#0100
(1649282381.756818) can0 286#0338C0000000
(1649282381.756818) can0 43E#FD02BFFFFFFFFFFF
(1649282381.756818) can0 2EB#720000FF
(1649282381.756818) can0 2CE#FFFF00000000C03F
(1649282381.756818) can0 211#FFFFFFFFFFFFFFFF
(1649282381.756818) can0 214#2BE25200176D00
(1649282381.756818) can0 2EB#720000FF
(1649282381.756818) can0 2A8#000000000000
(1649282381.756818) can0 217#767C0EC08DFD
(1649282381.756818) can0 1E1#0000FFFF00000000
(1649282381.756818) can0 208#0080651E1E002D
(1649282381.756818) can0 211#FFFFFFFFFFFFFFFF
(1649282381.756818) can0 20B#0100
(1649282381.756818) can0 286#0338C0000000
(1649282381.756818) can0 402#FD143FFFFFFFFFFF
(1649282381.756818) can0 2EB#720000FF
(1649282381.756818) can0 2CE#FFFF00000000C03F
(1649282381.756818) can0 211#FFFFFFFFFFFFFFFF
(1649282381.756818) can0 214#2BE25200176D00
(1649282381.756818) can0 2EB#720000FF
(1649282381.756818) can0 2A8#000000000000
(1649282381.756818) can0 217#767C0EC08DFD
(1649282381.756818) can0 1E1#0000FFFF00000000
(1649282381.756818) can0 208#0080651E1E002D
(1649282381.756818) can0 211#FFFFFFFFFFFFFFFF
(1649282381.756818) can0 20B#0100
(1649282381.756818) can0 414#FD16BFFFFFFFFFFF
(1649282381.756818) can0 286#0338C0000000
(1649282381.756818) can0 2EB#720000FF
(1649282381.756818) can0 2CE#FFFF00000000C03F
(1649282381.756818) can0 211#FFFFFFFFFFFFFFFF
(1649282381.756818) can0 214#2BE25200176D00
(1649282381.756818) can0 2EB#720000FF
(1649282381.756818) can0 2A8#000000000000
(1649282381.756818) can0 292#FFFFFF0000FFFF
(1649282381.756818) can0 1E1#0000FFFF00000000
(1649282381.756818) can0 208#0080651E1E002D
(1649282381.756818) can0 217#767C0EC08DFD
(1649282381.756818) can0 211#FFFFFFFFFFFFFFFF
(1649282381.756818) can0 20B#0100
(1649282381.756818) can0 416#FD3EBFFFFFFFFFFF
(1649282381.756818) can0 286#0338C0000000
(1649282381.756818) can0 2EB#720000FF
(1649282381.756818) can0 348#0FFF0FFF00000000
(1649282381.756818) can0 2CE#FFFF00000000C03F
(1649282381.756818) can0 211#FFFFFFFFFFFFFFFF
(1649282381.756818) can0 20E#930547C0FFFF0C
(1649282381.756818) can0 244#01000B0480
(1649282381.756818) can0 214#2BE25200176D00
(1649282381.756818) can0 308#110000
(1649282381.756818) can0 3A3#000000000000
(1649282381.756818) can0 2EB#720000FF
(1649282381.756818) can0 2A8#000000000000
(1649282381.756818) can0 2E1#00
(1649282381.756818) can0 217#767C0EC08DFD
(1649282381.756818) can0 1E1#0000FFFF00000000
(1649282381.756818) can0 208#0080651E1E002D
(1649282381.756818) can0 211#FFFFFFFFFFFFFFFF
(1649282381.756818) can0 43E#FD02BFFFFFFFFFFF
(1649282381.756818) can0 2E3#000000
(1649282381.756818) can0 20B#0100
(1649282381.756818) can0 286#0338C0000000
(1649282381.756818) can0 2EB#720000FF
(1649282381.756818) can0 2CE#FFFF00000000C03F
(1649282381.756818) can0 211#FFFFFFFFFFFFFFFF
(1649282381.756818) can0 214#2BE25200176D00
(1649282381.756818) can0 2EB#720000FF
(1649282381.756818) can0 2A8#000000000000
(1649282381.756818) can0 217#767C0EC08DFD
(1649282381.756818) can0 1E1#0000FFFF00000000
(1649282381.756818) can0 208#0080651E1E002D
(1649282381.756818) can0 211#FFFFFFFFFFFFFFFF
(1649282381.756818) can0 402#FD143FFFFFFFFFFF
(1649282381.756818) can0 20B#0100
(1649282381.756818) can0 286#0338C0000000
(1649282381.756818) can0 2EB#720000FF
(1649282381.756818) can0 2CE#FFFF00000000C03F
(1649282381.756818) can0 2D9#80C227C427C0FF
(1649282381.756818) can0 3E6#0E211A
(1649282381.756818) can0 211#FFFFFFFFFFFFFFFF
(1649282381.756818) can0 214#2BE25200176D00
(1649282381.756818) can0 2EB#720000FF
(1649282381.756818) can0 2A8#000000000000
(1649282381.756818) can0 414#FD16BFFFFFFFFFFF
(1649282381.756818) can0 217#767C0EC08DFD
(1649282381.756818) can0 1E1#0000FFFF00000000
(1649282381.756818) can0 208#0080651E1E002D
(1649282381.756818) can0 211#FFFFFFFFFFFFFFFF
(1649282381.756818) can0 20B#0100
(1649282381.756818) can0 286#0338C0000000
(1649282381.756818) can0 2EB#720000FF
(1649282381.756818) can0 2CE#FFFF00000000C03F
(1649282381.756818) can0 211#FFFFFFFFFFFFFFFF
(1649282381.756818) can0 214#2BE25200176D00
(1649282381.756818) can0 2EB#720000FF
(1649282381.756818) can0 2A8#000000000000
(1649282381.756818) can0 416#FD3EBFFFFFFFFFFF
(1649282381.756818) can0 217#767C0EC08CFD
(1649282381.756818) can0 1E1#0000FFFF00000000
(1649282381.756818) can0 208#0080651E1E002D
(1649282381.756818) can0 211#FFFFFFFFFFFFFFFF
(1649282381.756818) can0 20B#0100
(1649282381.756818) can0 286#0338C0000000
(1649282381.756818) can0 2EB#720000FF
(1649282381.756818) can0 2CE#FFFF00000000C03F
(1649282381.756818) can0 211#FFFFFFFFFFFFFFFF
(1649282381.756818) can0 214#2BE25200176D00
(1649282381.756818) can0 2EB#720000FF
(1649282381.756818) can0 43E#FD02BFFFFFFFFFFF
(1649282381.756818) can0 2A8#000000000000
(1649282381.756818) can0 2DE#019B000000000000
(1649282381.756818) can0 142#FF0000000000
(1649282381.756818) can0 1E1#0000FFFF00000000
(1649282381.756818) can0 249#001002C04A08
(1649282381.756818) can0 1E7#7000000000000000
(1649282381.756818) can0 221#010000000000
(1649282381.756818) can0 2D3#010E180200000000
(1649282381.756818) can0 1A5#3F00FFFFFF007800
(1649282381.756818) can0 208#0080651E1E002D
(1649282381.756818) can0 217#767C0EC08CFD
(1649282381.756818) can0 211#FFFFFFFFFFFFFFFF
(1649282381.756818) can0 20B#0100
(1649282381.756818) can0 2D6#0100000000000000
(1649282381.756818) can0 283#0000000000000000
(1649282381.756818) can0 292#FFFFFF0000FFFF
(1649282381.756818) can0 2DD#05000000
(1649282381.756818) can0 2DB#E507401C00000105
(1649282381.756818) can0 286#0338C0000000
(1649282381.756818) can0 2EB#720000FF
(1649282381.756818) can0 348#0FFF0FFF00000000
(1649282381.756818) can0 2D2#000300
(1649282381.756818) can0 2CE#FFFF00000000C03F
(1649282381.756818) can0 3D9#000A0A0A0A0AFF
(1649282381.756818) can0 211#FFFFFFFFFFFFFFFF
(1649282381.756818) can0 20E#930547C0FFFF0C
(1649282381.756818) can0 3B3#00FFFFFF00FFFFFF
(1649282381.756818) can0 244#01000B0480
(1649282381.756818) can0 21D#4111297562E52E81
(1649282381.756818) can0 3B0#1D3000001D300000
(1649282381.756818) can0 214#2BE25200176D00
(1649282381.756818) can0 2E5#00
(1649282381.756818) can0 21E#390014116B9E809E
(1649282381.756818) can0 308#110000
(1649282381.756818) can0 3A3#000000000000
(1649282381.756818) can0 392#0C00000000000000
(1649282381.756818) can0 2EB#720000FF
(1649282381.756818) can0 21F#0100500000000040
(1649282381.756818) can0 402#FD143FFFFFFFFFFF
(1649282381.756818) can0 2E9#00000000
(1649282381.756818) can0 2A8#000000000000
(1649282381.756818) can0 25F#C17DA80E0000
(1649282381.756818) can0 293#1000000000FFFFFF
(1649282381.756818) can0 2E1#00
(1649282381.756818) can0 217#767C0EC08DFD
(1649282381.756818) can0 1E1#0000FFFF00000000
(1649282381.756818) can0 208#0080651E1E002D
(1649282381.756818) can0 211#FFFFFFFFFFFFFFFF
(1649282381.756818) can0 291#1D0D0530000007
(1649282381.756818) can0 2E3#000000
(1649282381.756818) can0 20B#0100
(1649282381.756818) can0 290#0116010F07000000
(1649282381.756818) can0 21B#1F0000000034001F
(1649282381.756818) can0 286#0338C0000000
(1649282381.756818) can0 270#0000
(1649282381.756818) can0 2EB#720000FF
(1649282381.756818) can0 2B0#02000000
(1649282381.756818) can0 2CE#FFFF00000000C03F
(1649282381.756818) can0 2E7#001C000000000000
(1649282381.756818) can0 211#FFFFFFFFFFFFFFFF
(1649282381.756818) can0 214#2BE25200176D00
(1649282381.756818) can0 414#FD16BFFFFFFFFFFF
(1649282381.756818) can0 2EB#720000FF
(1649282381.756818) can0 2A8#000000000000
(1649282381.756818) can0 217#767C0EC08CFD
(1649282381.756818) can0 1E1#0000FFFF00000000
(1649282381.756818) can0 208#0080651E1E002D
(1649282381.756818) can0 211#FFFFFFFFFFFFFFFF
(1649282381.756818) can0 20B#0100
(1649282381.756818) can0 286#0338C0000000
(1649282381.756818) can0 2EB#720000FF
(1649282381.756818) can0 2CE#FFFF00000000C03F
(1649282381.756818) can0 211#FFFFFFFFFFFFFFFF
(1649282381.756818) can0 214#2BE25200176D00
(1649282381.756818) can0 416#FD3EBFFFFFFFFFFF
(1649282381.756818) can0 2EB#720000FF
(1649282381.756818) can0 2A8#000000000000
(1649282381.756818) can0 217#767C0EC08CFD
(1649282381.756818) can0 1E1#0000FFFF00000000
(1649282381.756818) can0 208#0080651E1E002D
(1649282381.756818) can0 211#FFFFFFFFFFFFFFFF
(1649282381.756818) can0 20B#0100
(1649282381.756818) can0 286#0338C0000000
(1649282381.756818) can0 2EB#720000FF
(1649282381.756818) can0 2CE#FFFF00000000C03F
(1649282381.756818) can0 211#FFFFFFFFFFFFFFFF
(1649282381.756818) can0 43E#FD02BFFFFFFFFFFF
(1649282381.756818) can0 214#2BE25200176D00
(1649282381.756818) can0 2EB#720000FF
(1649282381.756818) can0 2A8#000000000000
(1649282381.756818) can0 217#767C0EC08CFD
(1649282381.756818) can0 1E1#0000FFFF00000000
(1649282381.756818) can0 208#0080651E1E002D
(1649282381.756818) can0 211#FFFFFFFFFFFFFFFF
(1649282381.756818) can0 20B#0100
(1649282381.756818) can0 286#0338C0000000
(1649282381.756818) can0 2EB#720000FF
(1649282381.756818) can0 2CE#FFFF00000000C03F
(1649282381.756818) can0 211#FFFFFFFFFFFFFFFF
(1649282381.756818) can0 402#FD143FFFFFFFFFFF
(1649282381.756818) can0 214#2BE25200176D00
(1649282381.756818) can0 2EB#720000FF
(1649282381.756818) can0 2A8#000000000000
(1649282381.756818) can0 3E9#9E01
(1649282381.756818) can0 292#FFFFFF0000FFFF
(1649282381.756818) can0 1E1#0000FFFF00000000
(1649282381.756818) can0 208#0080651E1E002D
(1649282381.756818) can0 217#767C0EC08CFD
(1649282381.756818) can0 211#FFFFFFFFFFFFFFFF
(1649282381.756818) can0 20B#0100
(1649282381.756818) can0 286#0338C0000000
(1649282381.756818) can0 2EB#720000FF
(1649282381.756818) can0 348#0FFF0FFF00000000
(1649282381.756818) can0 2CE#FFFF00000000C03F
(1649282381.756818) can0 211#FFFFFFFFFFFFFFFF
(1649282381.756818) can0 20E#930547C0FFFF0C
(1649282381.756818) can0 414#FD16BFFFFFFFFFFF
(1649282381.756818) can0 244#01000B0480
(1649282381.756818) can0 214#2BE25200176D00
(1649282381.756818) can0 308#110000
(1649282381.756818) can0 3A3#000000000000
(1649282381.756818) can0 2EB#720000FF
(1649282381.756818) can0 2A8#000000000000
(1649282381.756818) can0 2E1#00
(1649282381.756818) can0 217#767C0EC08CFD
(1649282381.756818) can0 1E1#0000FFFF00000000
(1649282381.756818) can0 208#0080651E1E002D
(1649282381.756818) can0 211#FFFFFFFFFFFFFFFF
(1649282381.756818) can0 2E3#000000
(1649282381.756818) can0 20B#0100
(1649282381.756818) can0 286#0338C0000000
(1649282381.756818) can0 2EB#720000FF
(1649282381.756818) can0 2CE#FFFF00000000C03F
(1649282381.756818) can0 211#FFFFFFFFFFFFFFFF
(1649282381.756818) can0 416#FD3EBFFFFFFFFFFF
(1649282381.756818) can0 214#2BE25200176D00
(1649282381.756818) can0 2EB#720000FF
(1649282381.756818) can0 2A8#000000000000
(1649282381.756818) can0 217#767C0EC08CFD
(1649282381.756818) can0 1E1#0000FFFF00000000
(1649282381.756818) can0 208#0080651E1E002D
(1649282381.756818) can0 211#FFFFFFFFFFFFFFFF
(1649282381.756818) can0 20B#0100
(1649282381.756818) can0 286#0338C0000000
(1649282381.756818) can0 2EB#720000FF
(1649282381.756818) can0 2CE#FFFF00000000C03F
(1649282381.756818) can0 2D9#80C227C427C0FF
(1649282381.756818) can0 3E6#0E211B
(1649282381.756818) can0 43E#FD02BFFFFFFFFFFF
(1649282381.756818) can0 211#FFFFFFFFFFFFFFFF
(1649282381.756818) can0 214#2BE25200176D00
(1649282381.756818) can0 2EB#720000FF
(1649282381.756818) can0 2A8#000000000000
(1649282381.756818) can0 217#767C0EC08CFD
(1649282381.756818) can0 1E1#0000FFFF00000000
(1649282381.756818) can0 208#0080651E1E002D
(1649282381.756818) can0 211#FFFFFFFFFFFFFFFF
(1649282381.756818) can0 20B#0100
(1649282381.756818) can0 286#0338C0000000
(1649282381.756818) can0 2EB#720000FF
(1649282381.756818) can0 2CE#FFFF00000000C03F
(1649282381.756818) can0 402#FD143FFFFFFFFFFF
(1649282381.756818) can0 211#FFFFFFFFFFFFFFFF
(1649282381.756818) can0 214#2BE25200176D00
(1649282381.756818) can0 2EB#720000FF
(1649282381.756818) can0 2A8#000000000000
(1649282381.756818) can0 217#767C0EC08CFD
(1649282381.756818) can0 1E1#0000FFFF00000000
(1649282381.756818) can0 208#0080651E1E002D
(1649282381.756818) can0 211#FFFFFFFFFFFFFFFF
(1649282381.756818) can0 20B#0100
(1649282381.756818) can0 286#0338C0000000
(1649282381.756818) can0 2EB#720000FF
(1649282381.756818) can0 414#FD16BFFFFFFFFFFF
(1649282381.756818) can0 2CE#FFFF00000000C03F
(1649282381.756818) can0 211#FFFFFFFFFFFFFFFF
(1649282381.756818) can0 214#2BE25200176D00
(1649282381.756818) can0 2EB#720000FF
(1649282381.756818) can0 2A8#000000000000
(1649282381.756818) can0 292#FFFFFF0000FFFF
(1649282381.756818) can0 142#FF0000000000
(1649282381.756818) can0 1E1#0000FFFF00000000
(1649282381.756818) can0 249#001002C04A08
(1649282381.756818) can0 1E7#7000000000000000
(1649282381.756818) can0 1A5#3F00FFFFFF007800
(1649282381.756818) can0 208#0080651E1E002D
(1649282381.756818) can0 217#767C0EC08CFD
(1649282381.756818) can0 211#FFFFFFFFFFFFFFFF
(1649282381.756818) can0 283#0000000000000000
(1649282381.756818) can0 20B#0100
(1649282381.756818) can0 286#0338C0000000
(1649282381.756818) can0 2EB#720000FF
(1649282381.756818) can0 348#0FFF0FFF00000000
(1649282381.756818) can0 2D2#000300
(1649282381.756818) can0 416#FD3EBFFFFFFFFFFF
(1649282381.756818) can0 2CE#FFFF00000000C03F
(1649282381.756818) can0 3D9#000A0A0A0A0AFF
(1649282381.756818) can0 211#FFFFFFFFFFFFFFFF
(1649282381.756818) can0 20E#930547C0FFFF0C
(1649282381.756818) can0 3B3#00FFFFFF00FFFFFF
(1649282381.756818) can0 244#01000B0480
(1649282381.756818) can0 3B0#1D3000001D300000
(1649282381.756818) can0 214#2BE25200176D00
(1649282381.756818) can0 308#110000
(1649282381.756818) can0 3A3#000000000000
(1649282381.756818) can0 392#0C00000000000000
(1649282381.756818) can0 2EB#720000FF
(1649282381.756818) can0 2E9#00000000
(1649282381.756818) can0 2A8#000000000000
(1649282381.756818) can0 293#1000000000FFFFFF
(1649282381.756818) can0 2E1#00
(1649282381.756818) can0 217#767C0EC08CFD
(1649282381.756818) can0 1E1#0000FFFF00000000
(1649282381.756818) can0 208#0080651E1E002D
(1649282381.756818) can0 211#FFFFFFFFFFFFFFFF
(1649282381.756818) can0 291#1D0D0530000007
(1649282381.756818) can0 2E3#000000
(1649282381.756818) can0 20B#0100
(1649282381.756818) can0 290#0116010F07000000
(1649282381.756818) can0 21B#1F0000000034001F
(1649282381.756818) can0 286#0338C0000000
(1649282381.756818) can0 270#0000
(1649282381.756818) can0 43E#FD02BFFFFFFFFFFF
(1649282381.756818) can0 2EB#720000FF
(1649282381.756818) can0 2B0#02000000
(1649282381.756818) can0 2CE#FFFF00000000C03F
(1649282381.756818) can0 2E7#001C000000000000
(1649282381.756818) can0 211#FFFFFFFFFFFFFFFF
(1649282381.756818) can0 214#2BE25200176D00
(1649282381.756818) can0 2EB#720000FF
(1649282381.756818) can0 2A8#000000000000
(1649282381.756818) can0 217#767C0EC08CFD
(1649282381.756818) can0 1E1#0000FFFF00000000
(1649282381.756818) can0 208#0080651E1E002D
(1649282381.756818) can0 211#FFFFFFFFFFFFFFFF
(1649282381.756818) can0 20B#0100
(1649282381.756818) can0 286#0338C0000000
(1649282381.756818) can0 402#FD143FFFFFFFFFFF
(1649282381.756818) can0 2EB#720000FF
(1649282381.756818) can0 2CE#FFFF00000000C03F
(1649282381.756818) can0 211#FFFFFFFFFFFFFFFF
(1649282381.756818) can0 214#2BE25200176D00
(1649282381.756818) can0 2EB#720000FF
(1649282381.756818) can0 2A8#000000000000
(1649282381.756818) can0 217#767C0EC08CFD
(1649282381.756818) can0 1E1#0000FFFF00000000
(1649282381.756818) can0 208#0080651E1E002D
(1649282381.756818) can0 211#FFFFFFFFFFFFFFFF
(1649282381.756818) can0 20B#0100
(1649282381.756818) can0 414#FD16BFFFFFFFFFFF
(1649282381.756818) can0 286#0338C0000000
(1649282381.756818) can0 2EB#720000FF
(1649282381.756818) can0 2CE#FFFF00000000C03F
(1649282381.756818) can0 211#FFFFFFFFFFFFFFFF
(1649282381.756818) can0 214#2BE25200176D00
(1649282381.756818) can0 2EB#720000FF
(1649282381.756818) can0 2A8#000000000000
(1649282381.756818) can0 217#767C0EC08CFD
(1649282381.756818) can0 1E1#0000FFFF00000000
(1649282381.756818) can0 208#0080651E1E002D
(1649282381.756818) can0 211#FFFFFFFFFFFFFFFF
(1649282381.756818) can0 20B#0100
(1649282381.756818) can0 416#FD3EBFFFFFFFFFFF
(1649282381.756818) can0 286#0338C0000000
(1649282381.756818) can0 2EB#720000FF
(1649282381.756818) can0 2CE#FFFF00000000C03F
(1649282381.756818) can0 211#FFFFFFFFFFFFFFFF
(1649282381.756818) can0 214#2BE25200176D00
(1649282381.756818) can0 2EB#720000FF
(1649282381.756818) can0 2A8#000000000000
(1649282381.756818) can0 292#FFFFFF0000FFFF
(1649282381.756818) can0 1E1#0000FFFF00000000
(1649282381.756818) can0 208#0080651E1E002D
(1649282381.756818) can0 217#767C0EC08CFD
(1649282381.756818) can0 211#FFFFFFFFFFFFFFFF
(1649282381.756818) can0 43E#FD02BFFFFFFFFFFF
(1649282381.756818) can0 20B#0100
(1649282381.756818) can0 286#0338C0000000
(1649282381.756818) can0 2EB#720000FF
(1649282381.756818) can0 348#0FFF0FFF00000000
(1649282381.756818) can0 2CE#FFFF00000000C03F
(1649282381.756818) can0 211#FFFFFFFFFFFFFFFF
(1649282381.756818) can0 20E#930547C0FFFF0C
(1649282381.756818) can0 244#01000B0480
(1649282381.756818) can0 214#2BE25200176D00
(1649282381.756818) can0 308#110000
(1649282381.756818) can0 3A3#000000000000
(1649282381.756818) can0 2EB#720000FF
(1649282381.756818) can0 2A8#000000000000
(1649282381.756818) can0 2E1#00
(1649282381.756818) can0 217#767C0EC08CFD
(1649282381.756818) can0 1E1#0000FFFF00000000
(1649282381.756818) can0 208#0080651E1E002D
(1649282381.756818) can0 211#FFFFFFFFFFFFFFFF
(1649282381.756818) can0 402#FD143FFFFFFFFFFF
(1649282381.756818) can0 2E3#000000
(1649282381.756818) can0 20B#0100
(1649282381.756818) can0 286#0338C0000000
(1649282381.756818) can0 2EB#720000FF
(1649282381.756818) can0 2CE#FFFF00000000C03F
(1649282381.756818) can0 211#FFFFFFFFFFFFFFFF
(1649282381.756818) can0 214#2BE25200176D00
(1649282381.756818) can0 2EB#720000FF
(1649282381.756818) can0 2A8#000000000000
(1649282381.756818) can0 414#FD16BFFFFFFFFFFF
(1649282381.756818) can0 217#767C0EC08CFD
(1649282381.756818) can0 1E1#0000FFFF00000000
(1649282381.756818) can0 208#0080651E1E002D
(1649282381.756818) can0 211#FFFFFFFFFFFFFFFF
(1649282381.756818) can0 20B#0100
(1649282381.756818) can0 286#0338C0000000
(1649282381.756818) can0 2EB#720000FF
(1649282381.756818) can0 2D9#80C227C427C0FF
(1649282381.756818) can0 3E6#0E211C
(1649282381.756818) can0 2CE#FFFF00000000C03F
(1649282381.756818) can0 211#FFFFFFFFFFFFFFFF
(1649282381.756818) can0 214#2BE25200176D00
(1649282381.756818) can0 2EB#720000FF
(1649282381.756818) can0 2A8#000000000000
(1649282381.756818) can0 416#FD3EBFFFFFFFFFFF
(1649282381.756818) can0 217#767C0EC08CFD
(1649282381.756818) can0 1E1#0000FFFF00000000
(1649282381.756818) can0 208#0080651E1E002D
(1649282381.756818) can0 211#FFFFFFFFFFFFFFFF
(1649282381.756818) can0 20B#0100
(1649282381.756818) can0 286#0338C0000000
(1649282381.756818) can0 2EB#720000FF
(1649282381.756818) can0 2CE#FFFF00000000C03F
(1649282381.756818) can0 211#FFFFFFFFFFFFFFFF
(1649282381.756818) can0 214#2BE25200176D00
(1649282381.756818) can0 2EB#720000FF
(1649282381.756818) can0 2A8#000000000000
(1649282381.756818) can0 43E#FD02BFFFFFFFFFFF
(1649282381.756818) can0 217#767C0EC08CFD
(1649282381.756818) can0 1E1#0000FFFF00000000
(1649282381.756818) can0 208#0080651E1E002D
(1649282381.756818) can0 211#FFFFFFFFFFFFFFFF
(1649282381.756818) can0 20B#0100
(1649282381.756818) can0 286#0338C0000000
(1649282381.756818) can0 2EB#720000FF
(1649282381.756818) can0 2CE#FFFF00000000C03F
(1649282381.756818) can0 211#FFFFFFFFFFFFFFFF
(1649282381.756818) can0 214#2BE25200176D00
(1649282381.756818) can0 2EB#720000FF
(1649282381.756818) can0 402#FD143FFFFFFFFFFF
(1649282381.756818) can0 2A8#000000000000
(1649282381.756818) can0 2DF#0E9203E80FA00A7A
(1649282381.756818) can0 3E9#9E01
(1649282381.756818) can0 142#FF0000000000
(1649282381.756818) can0 1E1#0000FFFF00000000
(1649282381.756818) can0 249#001002C04A08
(1649282381.756818) can0 1E7#7000000000000000
(1649282381.756818) can0 221#010000000000
(1649282381.756818) can0 2D3#010E180200000000
(1649282381.756818) can0 1A5#3F00FFFFFF007800
(1649282381.756818) can0 208#0080651E1E002D
(1649282381.756818) can0 217#767C0EC08CFD
(1649282381.756818) can0 211#FFFFFFFFFFFFFFFF
(1649282381.756818) can0 20B#0100
(1649282381.756818) can0 2D6#0100000000000000
(1649282381.756818) can0 283#0000000000000000
(1649282381.756818) can0 292#FFFFFF0000FFFF
(1649282381.756818) can0 2DA#61119BA0FFFF
(1649282381.756818) can0 2DD#05000000
(1649282381.756818) can0 2DE#019B000000000000
(1649282381.756818) can0 2DB#E507401C00000105
(1649282381.756818) can0 286#0338C0000000
(1649282381.756818) can0 2EB#720000FF
(1649282381.756818) can0 348#0FFF0FFF00000000
(1649282381.756818) can0 2D2#000300
(1649282381.756818) can0 2CE#FFFF00000000C03F
(1649282381.756818) can0 3D9#000A0A0A0A0AFF
(1649282381.756818) can0 211#FFFFFFFFFFFFFFFF
(1649282381.756818) can0 20E#930547C0FFFF0C
(1649282381.756818) can0 3B3#00FFFFFF00FFFFFF
(1649282381.756818) can0 244#01000B0480
(1649282381.756818) can0 21D#4111297562E52E81
(1649282381.756818) can0 3B0#1D3000001D300000
(1649282381.756818) can0 214#2BE25200176D00
(1649282381.756818) can0 2E5#00
(1649282381.756818) can0 308#110000
(1649282381.756818) can0 21E#390014116B9E809E
(1649282381.756818) can0 3A3#000000000000
(1649282381.756818) can0 392#0C00000000000000
(1649282381.756818) can0 414#FD16BFFFFFFFFFFF
(1649282381.756818) can0 2EB#720000FF
(1649282381.756818) can0 21F#0100500000000040
(1649282381.756818) can0 2E9#00000000
(1649282381.756818) can0 2A8#000000000000
(1649282381.756818) can0 25F#C17DA80E0000
(1649282381.756818) can0 293#1000000000FFFFFF
(1649282381.756818) can0 2E1#00
(1649282381.756818) can0 217#767C0EC08CFD
(1649282381.756818) can0 1E1#0000FFFF00000000
(1649282381.756818) can0 208#0080651E1E002D
(1649282381.756818) can0 211#FFFFFFFFFFFFFFFF
(1649282381.756818) can0 291#1D0D0530000007
(1649282381.756818) can0 2E3#000000
(1649282381.756818) can0 20B#0100
(1649282381.756818) can0 290#0116010F07000000
(1649282381.756818) can0 21B#1F0000000034001F
(1649282381.756818) can0 286#0338C0000000
(1649282381.756818) can0 270#0000
(1649282381.756818) can0 2EB#720000FF
(1649282381.756818) can0 2B0#02000000
(1649282381.756818) can0 2CE#FFFF00000000C03F
(1649282381.756818) can0 2E7#001C000000000000
(1649282381.756818) can0 211#FFFFFFFFFFFFFFFF
(1649282381.756818) can0 214#2BE25200176D00
(1649282381.756818) can0 416#FD3EBFFFFFFFFFFF
(1649282381.756818) can0 2EB#720000FF
(1649282381.756818) can0 2A8#000000000000
(1649282381.756818) can0 217#767C0EC08CFD
(1649282381.756818) can0 1E1#0000FFFF00000000
(1649282381.756818) can0 208#0080651E1E002D
(1649282381.756818) can0 211#FFFFFFFFFFFFFFFF
(1649282381.756818) can0 20B#0100
(1649282381.756818) can0 286#0338C0000000
(1649282381.756818) can0 2EB#720000FF
(1649282381.756818) can0 2CE#FFFF00000000C03F
(1649282381.756818) can0 211#FFFFFFFFFFFFFFFF
(1649282381.756818) can0 214#2BE25200176D00
(1649282381.756818) can0 43E#FD02BFFFFFFFFFFF
(1649282381.756818) can0 2EB#720000FF
(1649282381.756818) can0 2A8#000000000000
(1649282381.756818) can0 217#767C0EC08CFD
(1649282381.756818) can0 1E1#0000FFFF00000000
(1649282381.756818) can0 208#0080651E1E002D
(1649282381.756818) can0 211#FFFFFFFFFFFFFFFF
(1649282381.756818) can0 20B#0100
(1649282381.756818) can0 286#0338C0000000
(1649282381.756818) can0 2EB#720000FF
(1649282381.756818) can0 2CE#FFFF00000000C03F
(1649282381.756818) can0 211#FFFFFFFFFFFFFFFF
(1649282381.756818) can0 402#FD143FFFFFFFFFFF
(1649282381.756818) can0 214#2BE25200176D00
(1649282381.756818) can0 2EB#720000FF
(1649282381.756818) can0 2A8#000000000000
(1649282381.756818) can0 217#767C0EC08CFD
(1649282381.756818) can0 1E1#0000FFFF00000000
(1649282381.756818) can0 208#0080651E1E002D
(1649282381.756818) can0 211#FFFFFFFFFFFFFFFF
(1649282381.756818) can0 20B#0100
(1649282381.756818) can0 286#0338C0000000
(1649282381.756818) can0 2EB#720000FF
(1649282381.756818) can0 2CE#FFFF00000000C03F
(1649282381.756818) can0 211#FFFFFFFFFFFFFFFF
(1649282381.756818) can0 414#FD16BFFFFFFFFFFF
(1649282381.756818) can0 214#2BE25200176D00
(1649282381.756818) can0 2EB#720000FF
(1649282381.756818) can0 2A8#000000000000
(1649282381.756818) can0 292#FFFFFF0000FFFF
(1649282381.756818) can0 1E1#0000FFFF00000000
(1649282381.756818) can0 208#0080651E1E002D
(1649282381.756818) can0 217#767C0EC08CFD
(1649282381.756818) can0 211#FFFFFFFFFFFFFFFF
(1649282381.756818) can0 20B#0100
(1649282381.756818) can0 286#0338C0000000
(1649282381.756818) can0 2EB#720000FF
(1649282381.756818) can0 348#0FFF0FFF00000000
(1649282381.756818) can0 2CE#FFFF00000000C03F
(1649282381.756818) can0 211#FFFFFFFFFFFFFFFF
(1649282381.756818) can0 20E#930547C0FFFF0C
(1649282381.756818) can0 416#FD3EBFFFFFFFFFFF
(1649282381.756818) can0 244#01000B0480
(1649282381.756818) can0 214#2BE25200176D00
(1649282381.756818) can0 308#110000
(1649282381.756818) can0 3A3#000000000000
(1649282381.756818) can0 2EB#720000FF
(1649282381.756818) can0 2A8#000000000000
(1649282381.756818) can0 2E1#00
(1649282381.756818) can0 217#767C0EC08CFD
(1649282381.756818) can0 1E1#0000FFFF00000000
(1649282381.756818) can0 208#0080651E1E002D
(1649282381.756818) can0 211#FFFFFFFFFFFFFFFF
(1649282381.756818) can0 2E3#000000
(1649282381.756818) can0 20B#0100
(1649282381.756818) can0 286#0338C0000000
(1649282381.756818) can0 2EB#720000FF
(1649282381.756818) can0 2CE#FFFF00000000C03F
(1649282381.756818) can0 211#FFFFFFFFFFFFFFFF
(1649282381.756818) can0 43E#FD02BFFFFFFFFFFF
(1649282381.756818) can0 214#2BE25200176D00
(1649282381.756818) can0 2EB#720000FF
(1649282381.756818) can0 2A8#000000000000
(1649282381.756818) can0 217#767C0EC08CFD
(1649282381.756818) can0 1E1#0000FFFF00000000
(1649282381.756818) can0 208#0080651E1E002D
(1649282381.756818) can0 211#FFFFFFFFFFFFFFFF
(1649282381.756818) can0 20B#0100
(1649282381.756818) can0 286#0338C0000000
(1649282381.756818) can0 2EB#720000FF
(1649282381.756818) can0 2D9#80C227C427C0FF
(1649282381.756818) can0 3E6#0E211D
(1649282381.756818) can0 2CE#FFFF00000000C03F
(1649282381.756818) can0 402#FD143FFFFFFFFFFF
(1649282381.756818) can0 211#FFFFFFFFFFFFFFFF
(1649282381.756818) can0 214#2BE25200176D00
(1649282381.756818) can0 2EB#720000FF
(1649282381.756818) can0 2A8#000000000000
(1649282381.756818) can0 217#767C0EC08CFD
(1649282381.756818) can0 1E1#0000FFFF00000000
(1649282381.756818) can0 208#0080651E1E002D
(1649282381.756818) can0 211#FFFFFFFFFFFFFFFF
(1649282381.756818) can0 20B#0100
(1649282381.756818) can0 286#0338C0000000
(1649282381.756818) can0 2EB#720000FF
(1649282381.756818) can0 414#FD16BFFFFFFFFFFF
(1649282381.756818) can0 2CE#FFFF00000000C03F
(1649282381.756818) can0 211#FFFFFFFFFFFFFFFF
(1649282381.756818) can0 214#2BE25200176D00
(1649282381.756818) can0 2EB#720000FF
(1649282381.756818) can0 2A8#000000000000
(1649282381.756818) can0 217#767C0EC08CFD
(1649282381.756818) can0 1E1#0000FFFF00000000
(1649282381.756818) can0 208#0080651E1E002D
(1649282381.756818) can0 211#FFFFFFFFFFFFFFFF
(1649282381.756818) can0 20B#0100
(1649282381.756818) can0 286#0338C0000000
(1649282381.756818) can0 2EB#720000FF
(1649282381.756818) can0 416#FD3EBFFFFFFFFFFF
(1649282381.756818) can0 2CE#FFFF00000000C03F
(1649282381.756818) can0 211#FFFFFFFFFFFFFFFF
(1649282381.756818) can0 214#2BE25200176D00
(1649282381.756818) can0 2EB#720000FF
(1649282381.756818) can0 2A8#000000000000
(1649282381.756818) can0 292#FFFFFF0000FFFF
(1649282381.756818) can0 142#FF0000000000
(1649282381.756818) can0 1E1#0000FFFF00000000
(1649282381.756818) can0 249#001002C04A08
(1649282381.756818) can0 1E7#7000000000000000
(1649282381.756818) can0 1A5#3F00FFFFFF007800
(1649282381.756818) can0 208#0080651E1E002D
(1649282381.756818) can0 217#767C0EC08CFD
(1649282381.756818) can0 211#FFFFFFFFFFFFFFFF
(1649282381.756818) can0 283#0000000000000000
(1649282381.756818) can0 20B#0100
(1649282381.756818) can0 286#0338C0000000
(1649282381.756818) can0 2EB#720000FF
(1649282381.756818) can0 348#0FFF0FFF00000000
(1649282381.756818) can0 2D2#000300
(1649282381.756818) can0 43E#FD02BFFFFFFFFFFF
(1649282381.756818) can0 2CE#FFFF00000000C03F
(1649282381.756818) can0 3D9#000A0A0A0A0AFF
(1649282381.756818) can0 211#FFFFFFFFFFFFFFFF
(1649282381.756818) can0 20E#930547C0FFFF0C
(1649282381.756818) can0 3B3#00FFFFFF00FFFFFF
(1649282381.756818) can0 244#01000B0480
(1649282381.756818) can0 3B0#1D3000001D300000
(1649282381.756818) can0 214#2BE25200176D00
(1649282381.756818) can0 308#110000
(1649282381.756818) can0 3A3#000000000000
(1649282381.756818) can0 392#0C00000000000000
(1649282381.756818) can0 2EB#720000FF
(1649282381.756818) can0 2E9#00000000
(1649282381.756818) can0 2A8#000000000000
(1649282381.756818) can0 293#1000000000FFFFFF
(1649282381.756818) can0 2E1#00
(1649282381.756818) can0 217#767C0EC08CFD
(1649282381.756818) can0 1E1#0000FFFF00000000
(1649282381.756818) can0 208#0080651E1E002D
(1649282381.756818) can0 211#FFFFFFFFFFFFFFFF
(1649282381.756818) can0 291#1D0D0530000007
(1649282381.756818) can0 2E3#000000
(1649282381.756818) can0 20B#0100
(1649282381.756818) can0 290#0116010F07000000
(1649282381.756818) can0 21B#1F0000000034001F
(1649282381.756818) can0 286#0338C0000000
(1649282381.756818) can0 402#FD143FFFFFFFFFFF
(1649282381.756818) can0 270#0000
(1649282381.756818) can0 2EB#720000FF
(1649282381.756818) can0 2B0#02000000
(1649282381.756818) can0 2CE#FFFF00000000C03F
(1649282381.756818) can0 2E7#001C000000000000
(1649282381.756818) can0 211#FFFFFFFFFFFFFFFF
(1649282381.756818) can0 214#2BE25200176D00
(1649282381.756818) can0 2EB#720000FF
(1649282381.756818) can0 2A8#000000000000
(1649282381.756818) can0 217#767C0EC08CFD
(1649282381.756818) can0 1E1#0000FFFF00000000
(1649282381.756818) can0 208#0080651E1E002D
(1649282381.756818) can0 211#FFFFFFFFFFFFFFFF
(1649282381.756818) can0 20B#0100
(1649282381.756818) can0 414#FD16BFFFFFFFFFFF
(1649282381.756818) can0 286#0338C0000000
(1649282381.756818) can0 2EB#720000FF
(1649282381.756818) can0 2CE#FFFF00000000C03F
(1649282381.756818) can0 211#FFFFFFFFFFFFFFFF
(1649282381.756818) can0 214#2BE25200176D00
(1649282381.756818) can0 2EB#720000FF
(1649282381.756818) can0 2A8#000000000000
(1649282381.756818) can0 217#767C0EC08CFD
(1649282381.756818) can0 1E1#0000FFFF00000000
(1649282381.756818) can0 208#0080651E1E002D
(1649282381.756818) can0 211#FFFFFFFFFFFFFFFF
(1649282381.756818) can0 20B#0100
(1649282381.756818) can0 416#FD3EBFFFFFFFFFFF
(1649282381.756818) can0 286#0338C0000000
(1649282381.756818) can0 2EB#720000FF
(1649282381.756818) can0 2CE#FFFF00000000C03F
(1649282381.756818) can0 211#FFFFFFFFFFFFFFFF
(1649282381.756818) can0 214#2BE25200176D00
(1649282381.756818) can0 2EB#720000FF
(1649282381.756818) can0 2A8#000000000000
(1649282381.756818) can0 217#767C0EC08CFD
(1649282381.756818) can0 1E1#0000FFFF00000000
(1649282381.756818) can0 208#0080651E1E002D
(1649282381.756818) can0 211#FFFFFFFFFFFFFFFF
(1649282381.756818) can0 20B#0100
(1649282381.756818) can0 43E#FD02BFFFFFFFFFFF
(1649282381.756818) can0 286#0338C0000000
(1649282381.756818) can0 2EB#720000FF
(1649282381.756818) can0 2CE#FFFF00000000C03F
(1649282381.756818) can0 211#FFFFFFFFFFFFFFFF
(1649282381.756818) can0 214#2BE25200176D00
(1649282381.756818) can0 2EB#720000FF
(1649282381.756818) can0 2A8#000000000000
(1649282381.756818) can0 292#FFFFFF0000FFFF
(1649282381.756818) can0 1E1#0000FFFF00000000
(1649282381.756818) can0 208#0080651E1E002D
(1649282381.756818) can0 3E9#9E01
(1649282381.756818) can0 217#767C0EC08CFD
(1649282381.756818) can0 211#FFFFFFFFFFFFFFFF
(1649282381.756818) can0 402#FD143FFFFFFFFFFF
(1649282381.756818) can0 20B#0100
(1649282381.756818) can0 286#0338C0000000
(1649282381.756818) can0 2EB#720000FF
(1649282381.756818) can0 348#0FFF0FFF00000000
(1649282381.756818) can0 2CE#FFFF00000000C03F
(1649282381.756818) can0 211#FFFFFFFFFFFFFFFF
(1649282381.756818) can0 20E#930547C0FFFF0C
(1649282381.756818) can0 244#01000B0480
(1649282381.756818) can0 214#2BE25200176D00
(1649282381.756818) can0 308#110000
(1649282381.756818) can0 3A3#000000000000
(1649282381.756818) can0 2EB#720000FF
(1649282381.756818) can0 2A8#000000000000
(1649282381.756818) can0 414#FD16BFFFFFFFFFFF
(1649282381.756818) can0 2E1#00
(1649282381.756818) can0 217#767C0EC08CFD
(1649282381.756818) can0 1E1#0000FFFF00000000
(1649282381.756818) can0 208#0080651E1E002D
(1649282381.756818) can0 211#FFFFFFFFFFFFFFFF
(1649282381.756818) can0 2E3#000000
(1649282381.756818) can0 20B#0100
(1649282381.756818) can0 286#0338C0000000
(1649282381.756818) can0 2EB#720000FF
(1649282381.756818) can0 2CE#FFFF00000000C03F
(1649282381.756818) can0 211#FFFFFFFFFFFFFFFF
(1649282381.756818) can0 214#2BE25200176D00
(1649282381.756818) can0 2EB#720000FF
(1649282381.756818) can0 2A8#000000000000
(1649282381.756818) can0 416#FD3EBFFFFFFFFFFF
(1649282381.756818) can0 217#767C0EC08CFD
(1649282381.756818) can0 1E1#0000FFFF00000000
(1649282381.756818) can0 208#0080651E1E002D
(1649282381.756818) can0 211#FFFFFFFFFFFFFFFF
(1649282381.756818) can0 20B#0100
(1649282381.756818) can0 286#0338C0000000
(1649282381.756818) can0 2EB#720000FF
(1649282381.756818) can0 2D9#80C227C427C0FF
(1649282381.756818) can0 3E6#0E211E
(1649282381.756818) can0 2CE#FFFF00000000C03F
(1649282381.756818) can0 211#FFFFFFFFFFFFFFFF
(1649282381.756818) can0 214#2BE25200176D00
(1649282381.756818) can0 2EB#720000FF
(1649282381.756818) can0 2A8#000000000000
(1649282381.756818) can0 43E#FD02BFFFFFFFFFFF
(1649282381.756818) can0 217#767C0EC08CFD
(1649282381.756818) can0 1E1#0000FFFF00000000
(1649282381.756818) can0 208#0080651E1E002D
(1649282381.756818) can0 211#FFFFFFFFFFFFFFFF
(1649282381.756818) can0 20B#0100
(1649282381.756818) can0 286#0338C0000000
(1649282381.756818) can0 2EB#720000FF
(1649282381.756818) can0 2CE#FFFF00000000C03F
(1649282381.756818) can0 211#FFFFFFFFFFFFFFFF
(1649282381.756818) can0 214#2BE25200176D00
(1649282381.756818) can0 2EB#720000FF
(1649282381.756818) can0 402#FD143FFFFFFFFFFF
(1649282381.756818) can0 2A8#000000000000
(1649282381.756818) can0 217#767C0EC08CFD
(1649282381.756818) can0 1E1#0000FFFF00000000
(1649282381.756818) can0 208#0080651E1E002D
(1649282381.756818) can0 211#FFFFFFFFFFFFFFFF
(1649282381.756818) can0 20B#0100
(1649282381.756818) can0 286#0338C0000000
(1649282381.756818) can0 2EB#720000FF
(1649282381.756818) can0 2CE#FFFF00000000C03F
(1649282381.756818) can0 211#FFFFFFFFFFFFFFFF
(1649282381.756818) can0 214#2BE25200176D00
(1649282381.756818) can0 414#FD16BFFFFFFFFFFF
(1649282381.756818) can0 2EB#720000FF
(1649282381.756818) can0 2A8#000000000000
(1649282381.756818) can0 2DE#019B000000000000
(1649282381.756818) can0 142#FF0000000000
(1649282381.756818) can0 1E1#0000FFFF00000000
(1649282381.756818) can0 249#001002C04A08
(1649282381.756818) can0 1E7#7000000000000000
(1649282381.756818) can0 221#010000000000
(1649282381.756818) can0 2D3#010E180200000000
(1649282381.756818) can0 1A5#3F00FFFFFF007800
(1649282381.756818) can0 208#0080651E1E002D
(1649282381.756818) can0 217#767C0EC08CFD
(1649282381.756818) can0 211#FFFFFFFFFFFFFFFF
(1649282381.756818) can0 20B#0100
(1649282381.756818) can0 2D6#0100000000000000
(1649282381.756818) can0 283#0000000000000000
(1649282381.756818) can0 292#FFFFFF0000FFFF
(1649282381.756818) can0 2DD#05000000
(1649282381.756818) can0 2DB#E507401C00000105
(1649282381.756818) can0 286#0338C0000000
(1649282381.756818) can0 2EB#720000FF
(1649282381.756818) can0 348#0FFF0FFF00000000
(1649282381.756818) can0 2D2#000300
(1649282381.756818) can0 2CE#FFFF00000000C03F
(1649282381.756818) can0 3D9#000A0A0A0A0AFF
(1649282381.756818) can0 211#FFFFFFFFFFFFFFFF
(1649282381.756818) can0 20E#930547C0FFFF0C
(1649282381.756818) can0 3B3#00FFFFFF00FFFFFF
(1649282381.756818) can0 244#01000B0480
(1649282381.756818) can0 21D#4111297562E52E81
(1649282381.756818) can0 214#2BE25200176D00
(1649282381.756818) can0 3B0#1D3000001D300000
(1649282381.756818) can0 2E5#00
(1649282381.756818) can0 308#110000
(1649282381.756818) can0 21E#390014116B9E809E
(1649282381.756818) can0 3A3#000000000000
(1649282381.756818) can0 2EB#720000FF
(1649282381.756818) can0 416#FD3EBFFFFFFFFFFF
(1649282381.756818) can0 21F#0100500000000040
(1649282381.756818) can0 2A8#000000000000
(1649282381.756818) can0 2E9#00000000
(1649282381.756818) can0 25F#C17DA80E0000
(1649282381.756818) can0 2E1#00
(1649282381.756818) can0 293#1000000000FFFFFF
(1649282381.756818) can0 217#767C0EC08CFD
(1649282381.756818) can0 1E1#0000FFFF00000000
(1649282381.756818) can0 208#0080651E1E002D
(1649282381.756818) can0 211#FFFFFFFFFFFFFFFF
(1649282381.756818) can0 2E3#000000
(1649282381.756818) can0 291#1D0D0530000007
(1649282381.756818) can0 20B#0100
(1649282381.756818) can0 21B#1F0000000034001F
(1649282381.756818) can0 290#0116010F07000000
(1649282381.756818) can0 286#0338C0000000
(1649282381.756818) can0 270#0000
(1649282381.756818) can0 392#0C00000000000000
(1649282381.756818) can0 2EB#720000FF
(1649282381.756818) can0 2B0#02000000
(1649282381.756818) can0 2CE#FFFF00000000C03F
(1649282381.756818) can0 2E7#001C000000000000
(1649282381.756818) can0 211#FFFFFFFFFFFFFFFF
(1649282381.756818) can0 214#2BE25200176D00
(1649282381.756818) can0 43E#FD02BFFFFFFFFFFF
(1649282381.756818) can0 2EB#720000FF
(1649282381.756818) can0 2A8#000000000000
(1649282381.756818) can0 217#767C0EC08CFD
(1649282381.756818) can0 1E1#0000FFFF00000000
(1649282381.756818) can0 208#0080651E1E002D
(1649282381.756818) can0 211#FFFFFFFFFFFFFFFF
(1649282381.756818) can0 20B#0100
(1649282381.756818) can0 286#0338C0000000
(1649282381.756818) can0 2EB#720000FF
(1649282381.756818) can0 2CE#FFFF00000000C03F
(1649282381.756818) can0 211#FFFFFFFFFFFFFFFF
(1649282381.756818) can0 402#FD143FFFFFFFFFFF
(1649282381.756818) can0 214#2BE25200176D00
(1649282381.756818) can0 2EB#720000FF
(1649282381.756818) can0 2A8#000000000000
(1649282381.756818) can0 217#767C0EC08CFD
(1649282381.756818) can0 1E1#0000FFFF00000000
(1649282381.756818) can0 208#0080651E1E002D
(1649282381.756818) can0 211#FFFFFFFFFFFFFFFF
(1649282381.756818) can0 20B#0100
(1649282381.756818) can0 286#0338C0000000
(1649282381.756818) can0 2EB#720000FF
(1649282381.756818) can0 2CE#FFFF00000000C03F
(1649282381.756818) can0 211#FFFFFFFFFFFFFFFF
(1649282381.756818) can0 414#FD16BFFFFFFFFFFF
(1649282381.756818) can0 214#2BE25200176D00
(1649282381.756818) can0 2EB#720000FF
(1649282381.756818) can0 2A8#000000000000
(1649282381.756818) can0 217#767C0EC08CFD
(1649282381.756818) can0 1E1#0000FFFF00000000
(1649282381.756818) can0 208#0080651E1E002D
(1649282381.756818) can0 211#FFFFFFFFFFFFFFFF
(1649282381.756818) can0 20B#0100
(1649282381.756818) can0 286#0338C0000000
(1649282381.756818) can0 2EB#720000FF
(1649282381.756818) can0 2CE#FFFF00000000C03F
(1649282381.756818) can0 211#FFFFFFFFFFFFFFFF
(1649282381.756818) can0 416#FD3EBFFFFFFFFFFF
(1649282381.756818) can0 214#2BE25200176D00
(1649282381.756818) can0 2EB#720000FF
(1649282381.756818) can0 2A8#000000000000
(1649282381.756818) can0 292#FFFFFF0000FFFF
(1649282381.756818) can0 1E1#0000FFFF00000000
(1649282381.756818) can0 208#0080651E1E002D
(1649282381.756818) can0 217#767C0EC08CFD
(1649282381.756818) can0 211#FFFFFFFFFFFFFFFF
(1649282381.756818) can0 20B#0100
(1649282381.756818) can0 286#0338C0000000
(1649282381.756818) can0 2EB#720000FF
(1649282381.756818) can0 348#0FFF0FFF00000000
(1649282381.756818) can0 2CE#FFFF00000000C03F
(1649282381.756818) can0 211#FFFFFFFFFFFFFFFF
(1649282381.756818) can0 20E#930547C0FFFF0C
(1649282381.756818) can0 43E#FD02BFFFFFFFFFFF
(1649282381.756818) can0 244#01000B0480
(1649282381.756818) can0 214#2BE25200176D00
(1649282381.756818) can0 308#110000
(1649282381.756818) can0 3A3#000000000000
(1649282381.756818) can0 2EB#720000FF
(1649282381.756818) can0 2A8#000000000000
(1649282381.756818) can0 2E1#00
(1649282381.756818) can0 217#767C0EC08CFD
(1649282381.756818) can0 1E1#0000FFFF00000000
(1649282381.756818) can0 208#0080651E1E002D
(1649282381.756818) can0 211#FFFFFFFFFFFFFFFF
(1649282381.756818) can0 2E3#000000
(1649282381.756818) can0 20B#0100
(1649282381.756818) can0 286#0338C0000000
(1649282381.756818) can0 2EB#720000FF
(1649282381.756818) can0 2CE#FFFF00000000C03F
(1649282381.756818) can0 402#FD143FFFFFFFFFFF
(1649282381.756818) can0 211#FFFFFFFFFFFFFFFF
(1649282381.756818) can0 214#2BE25200176D00
(1649282381.756818) can0 2EB#720000FF
(1649282381.756818) can0 2A8#000000000000
(1649282381.756818) can0 217#767C0EC08CFD
(1649282381.756818) can0 1E1#0000FFFF00000000
(1649282381.756818) can0 208#0080651E1E002D
(1649282381.756818) can0 211#FFFFFFFFFFFFFFFF
(1649282381.756818) can0 20B#0100
(1649282381.756818) can0 286#0338C0000000
(1649282381.756818) can0 2EB#720000FF
(1649282381.756818) can0 414#FD16BFFFFFFFFFFF
(1649282381.756818) can0 2D9#80C227C427C0FF
(1649282381.756818) can0 3E6#0E211F
(1649282381.756818) can0 2CE#FFFF00000000C03F
(1649282381.756818) can0 211#FFFFFFFFFFFFFFFF
(1649282381.756818) can0 214#2BE25200176D00
(1649282381.756818) can0 2EB#720000FF
(1649282381.756818) can0 2A8#000000000000
(1649282381.756818) can0 217#767C0EC08CFD
(1649282381.756818) can0 1E1#0000FFFF00000000
(1649282381.756818) can0 208#0080651E1E002D
(1649282381.756818) can0 211#FFFFFFFFFFFFFFFF
(1649282381.756818) can0 20B#0100
(1649282381.756818) can0 286#0338C0000000
(1649282381.756818) can0 2EB#720000FF
(1649282381.756818) can0 416#FD3EBFFFFFFFFFFF
(1649282381.756818) can0 2CE#FFFF00000000C03F
(1649282381.756818) can0 211#FFFFFFFFFFFFFFFF
(1649282381.756818) can0 214#2BE25200176D00
(1649282381.756818) can0 2EB#720000FF
(1649282381.756818) can0 2A8#000000000000
(1649282381.756818) can0 217#767C0EC08CFD
(1649282381.756818) can0 1E1#0000FFFF00000000
(1649282381.756818) can0 208#0080651E1E002D
(1649282381.756818) can0 211#FFFFFFFFFFFFFFFF
(1649282381.756818) can0 20B#0100
(1649282381.756818) can0 286#0338C0000000
(1649282381.756818) can0 2EB#720000FF
(1649282381.756818) can0 43E#FD02BFFFFFFFFFFF
(1649282381.756818) can0 2CE#FFFF00000000C03F
(1649282381.756818) can0 211#FFFFFFFFFFFFFFFF
(1649282381.756818) can0 214#2BE25200176D00
(1649282381.756818) can0 2EB#720000FF
(1649282381.756818) can0 2A8#000000000000
(1649282381.756818) can0 292#FFFFFF0000FFFF
(1649282381.756818) can0 142#FF0000000000
(1649282381.756818) can0 1E1#0000FFFF00000000
(1649282381.756818) can0 249#001002C04A08
(1649282381.756818) can0 1E7#7000000000000000
(1649282381.756818) can0 1A5#3F00FFFFFF007800
(1649282381.756818) can0 3E9#9E01
(1649282381.756818) can0 208#0080651E1E002D
(1649282381.756818) can0 217#767C0EC08CFD
(1649282381.756818) can0 211#FFFFFFFFFFFFFFFF
(1649282381.756818) can0 283#0000000000000000
(1649282381.756818) can0 20B#0100
(1649282381.756818) can0 286#0338C0000000
(1649282381.756818) can0 402#FD143FFFFFFFFFFF
(1649282381.756818) can0 2EB#720000FF
(1649282381.756818) can0 348#0FFF0FFF00000000
(1649282381.756818) can0 2D2#000300
(1649282381.756818) can0 2CE#FFFF00000000C03F
(1649282381.756818) can0 3D9#000A0A0A0A0AFF
(1649282381.756818) can0 211#FFFFFFFFFFFFFFFF
(1649282381.756818) can0 20E#930547C0FFFF0C
(1649282381.756818) can0 3B3#00FFFFFF00FFFFFF
(1649282381.756818) can0 244#01000B0480
(1649282381.756818) can0 214#2BE25200176D00
(1649282381.756818) can0 3B0#1D3000001D300000
(1649282381.756818) can0 308#110000
(1649282381.756818) can0 3A3#000000000000
(1649282381.756818) can0 2EB#720000FF
(1649282381.756818) can0 392#0C00000000000000
(1649282381.756818) can0 2A8#000000000000
(1649282381.756818) can0 2E9#00000000
(1649282381.756818) can0 2E1#00
(1649282381.756818) can0 293#1000000000FFFFFF
(1649282381.756818) can0 217#767C0EC08CFD
(1649282381.756818) can0 1E1#0000FFFF00000000
(1649282381.756818) can0 208#0080651E1E002D
(1649282381.756818) can0 211#FFFFFFFFFFFFFFFF
(1649282381.756818) can0 2E3#000000
(1649282381.756818) can0 291#1D0D0530000007
(1649282381.756818) can0 20B#0100
(1649282381.756818) can0 414#FD16BFFFFFFFFFFF
(1649282381.756818) can0 290#0116010F07000000
(1649282381.756818) can0 21B#1F0000000034001F
(1649282381.756818) can0 286#0338C0000000
(1649282381.756818) can0 270#0000
(1649282381.756818) can0 2EB#720000FF
(1649282381.756818) can0 2B0#02000000
(1649282381.756818) can0 2CE#FFFF00000000C03F
(1649282381.756818) can0 2E7#001C000000000000
(1649282381.756818) can0 211#FFFFFFFFFFFFFFFF
(1649282381.756818) can0 214#2BE25200176D00
(1649282381.756818) can0 2EB#720000FF
(1649282381.756818) can0 2A8#000000000000
(1649282381.756818) can0 217#767C0EC08CFD
(1649282381.756818) can0 1E1#0000FFFF00000000
(1649282381.756818) can0 208#0080651E1E002D
(1649282381.756818) can0 211#FFFFFFFFFFFFFFFF
(1649282381.756818) can0 20B#0100
(1649282381.756818) can0 416#FD3EBFFFFFFFFFFF
(1649282381.756818) can0 286#0338C0000000
(1649282381.756818) can0 2EB#720000FF
(1649282381.756818) can0 2CE#FFFF00000000C03F
(1649282381.756818) can0 211#FFFFFFFFFFFFFFFF
(1649282381.756818) can0 214#2BE25200176D00
(1649282381.756818) can0 2EB#720000FF
(1649282381.756818) can0 2A8#000000000000
(1649282381.756818) can0 217#767C0EC08CFD
(1649282381.756818) can0 1E1#0000FFFF00000000
(1649282381.756818) can0 208#0080651E1E002D
(1649282381.756818) can0 211#FFFFFFFFFFFFFFFF
(1649282381.756818) can0 20B#0100
(1649282381.756818) can0 43E#FD02BFFFFFFFFFFF
(1649282381.756818) can0 286#0338C0000000
(1649282381.756818) can0 2EB#720000FF
(1649282381.756818) can0 2CE#FFFF00000000C03F
(1649282381.756818) can0 211#FFFFFFFFFFFFFFFF
(1649282381.756818) can0 214#2BE25200176D00
(1649282381.756818) can0 2EB#720000FF
(1649282381.756818) can0 2A8#000000000000
(1649282381.756818) can0 217#767C0EC08CFD
(1649282381.756818) can0 1E1#0000FFFF00000000
(1649282381.756818) can0 208#0080651E1E002D
(1649282381.756818) can0 211#FFFFFFFFFFFFFFFF
(1649282381.756818) can0 402#FD143FFFFFFFFFFF
(1649282381.756818) can0 20B#0100
(1649282381.756818) can0 286#0338C0000000
(1649282381.756818) can0 2EB#720000FF
(1649282381.756818) can0 2CE#FFFF00000000C03F
(1649282381.756818) can0 211#FFFFFFFFFFFFFFFF
(1649282381.756818) can0 214#2BE25200176D00
(1649282381.756818) can0 2EB#720000FF
(1649282381.756818) can0 2A8#000000000000
(1649282381.756818) can0 414#FD16BFFFFFFFFFFF
(1649282381.756818) can0 292#FFFFFF0000FFFF
(1649282381.756818) can0 1E1#0000FFFF00000000
(1649282381.756818) can0 208#0080651E1E002D
(1649282381.756818) can0 217#767C0EC08CFD
(1649282381.756818) can0 211#FFFFFFFFFFFFFFFF
(1649282381.756818) can0 20B#0100
(1649282381.756818) can0 286#0338C0000000
(1649282381.756818) can0 2EB#720000FF
(1649282381.756818) can0 348#0FFF0FFF00000000
(1649282381.756818) can0 2CE#FFFF00000000C03F
(1649282381.756818) can0 211#FFFFFFFFFFFFFFFF
(1649282381.756818) can0 20E#930547C0FFFF0C
(1649282381.756818) can0 244#01000B0480
(1649282381.756818) can0 214#2BE25200176D00
(1649282381.756818) can0 308#110000
(1649282381.756818) can0 3A3#000000000000
(1649282381.756818) can0 2EB#720000FF
(1649282381.756818) can0 2A8#000000000000
(1649282381.756818) can0 2E1#00
(1649282381.756818) can0 416#FD3EBFFFFFFFFFFF
(1649282381.756818) can0 217#767C0EC08CFD
(1649282381.756818) can0 1E1#0000FFFF00000000
(1649282381.756818) can0 208#0080651E1E002D
(1649282381.756818) can0 211#FFFFFFFFFFFFFFFF
(1649282381.756818) can0 2E3#000000
(1649282381.756818) can0 20B#0100
(1649282381.756818) can0 286#0338C0000000
(1649282381.756818) can0 2EB#720000FF
(1649282381.756818) can0 2CE#FFFF00000000C03F
(1649282381.756818) can0 211#FFFFFFFFFFFFFFFF
(1649282381.756818) can0 214#2BE25200176D00
(1649282381.756818) can0 2EB#720000FF
(1649282381.756818) can0 2A8#000000000000
(1649282381.756818) can0 43E#FD02BFFFFFFFFFFF
(1649282381.756818) can0 217#767C0EC08CFD
(1649282381.756818) can0 1E1#0000FFFF00000000
(1649282381.756818) can0 208#0080651E1E002D
(1649282381.756818) can0 211#FFFFFFFFFFFFFFFF
(1649282381.756818) can0 20B#0100
(1649282381.756818) can0 286#0338C0000000
(1649282381.756818) can0 2EB#720000FF
(1649282381.756818) can0 2CE#FFFF00000000C03F
(1649282381.756818) can0 211#FFFFFFFFFFFFFFFF
(1649282381.756818) can0 214#2BE25200176D00
(1649282381.756818) can0 2EB#720000FF
(1649282381.756818) can0 402#FD143FFFFFFFFFFF
(1649282381.756818) can0 2A8#000000000000
(1649282381.756818) can0 217#767C0EC08CFD
(1649282381.756818) can0 1E1#0000FFFF00000000
(1649282381.756818) can0 208#0080651E1E002D
(1649282381.756818) can0 211#FFFFFFFFFFFFFFFF
(1649282381.756818) can0 20B#0100
(1649282381.756818) can0 286#0338C0000000
(1649282381.756818) can0 2EB#720000FF
(1649282381.756818) can0 2CE#FFFF00000000C03F
(1649282381.756818) can0 211#FFFFFFFFFFFFFFFF
(1649282381.756818) can0 214#2BE25200176D00
(1649282381.756818) can0 414#FD16BFFFFFFFFFFF
(1649282381.756818) can0 2EB#720000FF
(1649282381.756818) can0 2A8#000000000000
(1649282381.756818) can0 217#767C0EC08CFD
(1649282381.756818) can0 1E1#0000FFFF00000000
(1649282381.756818) can0 208#0080651E1E002D
(1649282381.756818) can0 211#FFFFFFFFFFFFFFFF
(1649282381.756818) can0 20B#0100
(1649282381.756818) can0 286#0338C0000000
(1649282381.756818) can0 2EB#720000FF
(1649282381.756818) can0 2CE#FFFF00000000C03F
(1649282381.756818) can0 211#FFFFFFFFFFFFFFFF
(1649282381.756818) can0 214#2BE25200176D00
(1649282381.756818) can0 2EB#720000FF
(1649282381.756818) can0 416#FD3EBFFFFFFFFFFF
(1649282381.756818) can0 2A8#000000000000
(1649282381.756818) can0 2DF#0E9203E80FA00A7A
(1649282381.756818) can0 142#FF0000000000
(1649282381.756818) can0 1E1#0000FFFF00000000
(1649282381.756818) can0 249#001002C04A08
(1649282381.756818) can0 1E7#7000000000000000
(1649282381.756818) can0 221#010000000000
(1649282381.756818) can0 2D3#010E180200000000
(1649282381.756818) can0 1A5#3F00FFFFFF007800
(1649282381.756818) can0 208#0080651E1E002D
(1649282381.756818) can0 217#767C0EC08CFD
(1649282381.756818) can0 211#FFFFFFFFFFFFFFFF
(1649282381.756818) can0 2D6#0100000000000000
(1649282381.756818) can0 20B#0100
(1649282381.756818) can0 283#0000000000000000
(1649282381.756818) can0 292#FFFFFF0000FFFF
(1649282381.756818) can0 2DA#61119BA0FFFF
(1649282381.756818) can0 2DD#05000000
(1649282381.756818) can0 2DE#019B000000000000
(1649282381.756818) can0 2DB#E507401C00000105
(1649282381.756818) can0 286#0338C0000000
(1649282381.756818) can0 2EB#720000FF
(1649282381.756818) can0 348#0FFF0FFF00000000
(1649282381.756818) can0 2D2#000300
(1649282381.756818) can0 2CE#FFFF00000000C03F
(1649282381.756818) can0 3D9#000A0A0A0A0AFF
(1649282381.756818) can0 211#FFFFFFFFFFFFFFFF
(1649282381.756818) can0 20E#930547C0FFFF0C
(1649282381.756818) can0 3B3#00FFFFFF00FFFFFF
(1649282381.756818) can0 244#01000B0480
(1649282381.756818) can0 21D#4111297562E52E81
(1649282381.756818) can0 214#2BE25200176D00
(1649282381.756818) can0 3B0#1D3000001D300000
(1649282381.756818) can0 2E5#00
(1649282381.756818) can0 308#110000
(1649282381.756818) can0 3A3#000000000000
(1649282381.756818) can0 21E#390014116B9E809E
(1649282381.756818) can0 43E#FD02BFFFFFFFFFFF
(1649282381.756818) can0 2EB#720000FF
(1649282381.756818) can0 392#0C00000000000000
(1649282381.756818) can0 21F#0100500000000040
(1649282381.756818) can0 2A8#000000000000
(1649282381.756818) can0 2E9#00000000
(1649282381.756818) can0 25F#C17DA80E0000
(1649282381.756818) can0 2E1#00
(1649282381.756818) can0 293#1000000000FFFFFF
(1649282381.756818) can0 217#767C0EC08CFD
(1649282381.756818) can0 1E1#0000FFFF00000000
(1649282381.756818) can0 208#0080651E1E002D
(1649282381.756818) can0 211#FFFFFFFFFFFFFFFF
(1649282381.756818) can0 2E3#000000
(1649282381.756818) can0 291#1D0D0530000007
(1649282381.756818) can0 20B#0100
(1649282381.756818) can0 21B#1F0000000034001F
(1649282381.756818) can0 290#0116010F07000000
(1649282381.756818) can0 286#0338C0000000
(1649282381.756818) can0 270#0000
(1649282381.756818) can0 2EB#720000FF
(1649282381.756818) can0 2B0#02000000
(1649282381.756818) can0 2CE#FFFF00000000C03F
(1649282381.756818) can0 2E7#001C000000000000
(1649282381.756818) can0 211#FFFFFFFFFFFFFFFF
(1649282381.756818) can0 402#FD143FFFFFFFFFFF
(1649282381.756818) can0 214#2BE25200176D00
(1649282381.756818) can0 2EB#720000FF
(1649282381.756818) can0 2A8#000000000000
(1649282381.756818) can0 217#767C0EC08CFD
(1649282381.756818) can0 1E1#0000FFFF00000000
(1649282381.756818) can0 208#0080651E1E002D
(1649282381.756818) can0 211#FFFFFFFFFFFFFFFF
(1649282381.756818) can0 20B#0100
(1649282381.756818) can0 286#0338C0000000
(1649282381.756818) can0 2EB#720000FF
(1649282381.756818) can0 2CE#FFFF00000000C03F
(1649282381.756818) can0 211#FFFFFFFFFFFFFFFF
(1649282381.756818) can0 414#FD16BFFFFFFFFFFF
(1649282381.756818) can0 214#2BE25200176D00
(1649282381.756818) can0 2EB#720000FF
(1649282381.756818) can0 2A8#000000000000
(1649282381.756818) can0 217#767C0EC08CFD
(1649282381.756818) can0 1E1#0000FFFF00000000
(1649282381.756818) can0 208#0080651E1E002D
(1649282381.756818) can0 211#FFFFFFFFFFFFFFFF
(1649282381.756818) can0 20B#0100
(1649282381.756818) can0 286#0338C0000000
(1649282381.756818) can0 2EB#720000FF
(1649282381.756818) can0 2CE#FFFF00000000C03F
(1649282381.756818) can0 211#FFFFFFFFFFFFFFFF
(1649282381.756818) can0 416#FD3EBFFFFFFFFFFF
(1649282381.756818) can0 214#2BE25200176D00
(1649282381.756818) can0 2EB#720000FF
(1649282381.756818) can0 2A8#000000000000
(1649282381.756818) can0 217#767C0EC08CFD
(1649282381.756818) can0 1E1#0000FFFF00000000
(1649282381.756818) can0 208#0080651E1E002D
(1649282381.756818) can0 211#FFFFFFFFFFFFFFFF
(1649282381.756818) can0 20B#0100
(1649282381.756818) can0 286#0338C0000000
(1649282381.756818) can0 2EB#720000FF
(1649282381.756818) can0 2CE#FFFF00000000C03F
(1649282381.756818) can0 211#FFFFFFFFFFFFFFFF
(1649282381.756818) can0 43E#FD02BFFFFFFFFFFF
(1649282381.756818) can0 214#2BE25200176D00
(1649282381.756818) can0 2EB#720000FF
(1649282381.756818) can0 2A8#000000000000
(1649282381.756818) can0 292#FFFFFF0000FFFF
(1649282381.756818) can0 1E1#0000FFFF00000000
(1649282381.756818) can0 208#0080651E1E002D
(1649282381.756818) can0 217#767C0EC08CFD
(1649282381.756818) can0 211#FFFFFFFFFFFFFFFF
(1649282381.756818) can0 3E9#9E01
(1649282381.756818) can0 20B#0100
(1649282381.756818) can0 286#0338C0000000
(1649282381.756818) can0 2EB#720000FF
(1649282381.756818) can0 348#0FFF0FFF00000000
(1649282381.756818) can0 2CE#FFFF00000000C03F
(1649282381.756818) can0 402#FD14BFFFFFFFFFFF
(1649282381.756818) can0 211#FFFFFFFFFFFFFFFF
(1649282381.756818) can0 20E#930547C0FFFF0C
(1649282381.756818) can0 244#01000B0480
(1649282381.756818) can0 214#2BE25200176D00
(1649282381.756818) can0 308#110000
(1649282381.756818) can0 3A3#000000000000
(1649282381.756818) can0 2EB#720000FF
(1649282381.756818) can0 2A8#000000000000
(1649282381.756818) can0 2E1#00
(1649282381.756818) can0 217#767C0EC08CFD
(1649282381.756818) can0 1E1#0000FFFF00000000
(1649282381.756818) can0 208#0080651E1E002D
(1649282381.756818) can0 211#FFFFFFFFFFFFFFFF
(1649282381.756818) can0 2E3#000000
(1649282381.756818) can0 20B#0100
(1649282381.756818) can0 286#0338C0000000
(1649282381.756818) can0 2EB#720000FF
(1649282381.756818) can0 414#FD16FFFFFFFFFFFF
(1649282381.756818) can0 402#FE023FFFFFFFFFFF
(1649282381.756818) can0 3E6#0E220B
(1649282381.756818) can0 2DF#0E9203E80FA00A7A
(1649282381.756818) can0 142#000000000000
(1649282381.756818) can0 1E1#0000FFFF00000000
(1649282381.756818) can0 249#FFFF0CCF0000
(1649282381.756818) can0 1E7#7000000000000000
(1649282381.756818) can0 221#010000000000
(1649282381.756818) can0 2D3#010E180200000000
(1649282381.756818) can0 1A5#2000FFFFFF007800
(1649282381.756818) can0 414#FE143FFFFFFFFFFF
(1649282381.756818) can0 208#00A2651E1E002D
(1649282381.756818) can0 217#777C0F008DFD
(1649282381.756818) can0 20B#6100
(1649282381.756818) can0 2D6#0100000000000000
(1649282381.756818) can0 283#0000000000000000
(1649282381.756818) can0 211#FFFFFFFFFFFFFFFF
(1649282381.756818) can0 292#FFFFFF0000FFFF
(1649282381.756818) can0 2DA#61119BA0FFFF
(1649282381.756818) can0 2DD#05000000
(1649282381.756818) can0 2DE#019B000000000000
(1649282381.756818) can0 214#2BE25200176D00
(1649282381.756818) can0 402#FE023FFFFFFFFFFF
(1649282381.756818) can0 2E5#00
(1649282381.756818) can0 416#FE163FFFFFFFFFFF
(1649282381.756818) can0 2DB#E507401C00000105
(1649282381.756818) can0 308#110000
(1649282381.756818) can0 286#033800000000
(1649282381.756818) can0 3A3#000000000000
(1649282381.756818) can0 2EB#720000FF
(1649282381.756818) can0 348#0000000000000000
(1649282381.756818) can0 2D2#003300
(1649282381.756818) can0 20E#00050700FFFF0C
(1649282381.756818) can0 293#1000002000FFFFFF
(1649282381.756818) can0 2A8#000000000000
(1649282381.756818) can0 2E7#041C000000000000
(1649282381.756818) can0 2CE#FFFF000000000000
(1649282381.756818) can0 2E1#00
(1649282381.756818) can0 3D9#000A0A0A0A0AFF
(1649282381.756818) can0 211#FFFFFFFFFFFFFFFF
(1649282381.756818) can0 2E3#000000
(1649282381.756818) can0 3B3#00FFFFFF00FFFFFF
(1649282381.756818) can0 244#01000B0480
(1649282381.756818) can0 21D#4111297562E52E81
(1649282381.756818) can0 20E#00050700FFFF0C
(1649282381.756818) can0 21B#1F0000000034001F
(1649282381.756818) can0 3B0#1D3000001D300000
(1649282381.756818) can0 21E#390014116B9E809E
(1649282381.756818) can0 249#001006C04A08
(1649282381.756818) can0 20B#8100
(1649282381.756818) can0 2D2#213305
(1649282381.756818) can0 270#0000
(1649282381.756818) can0 2EB#720000FF
(1649282381.756818) can0 392#0C00000000000000
(1649282381.756818) can0 21F#0100500000000040
(1649282381.756818) can0 286#0338C0000000
(1649282381.756818) can0 2E9#00000000
(1649282381.756818) can0 25F#C17DA80E0000
(1649282381.756818) can0 293#1000002000FFFFFF
(1649282381.756818) can0 43E#FE3E3FFFFFFFFFFF
(1649282381.756818) can0 2D2#213305
(1649282381.756818) can0 1E1#0000FFFF00000000
(1649282381.756818) can0 208#00A2651E1E002D
(1649282381.756818) can0 217#777B0F008CFD
(1649282381.756818) can0 211#FFFFFFFFFFFFFFFF
(1649282381.756818) can0 3E9#DF01
(1649282381.756818) can0 402#FD143FFFFFFFFFFF
(1649282381.756818) can0 291#1D000530000007
(1649282381.756818) can0 20B#8100
(1649282381.756818) can0 290#0116010F07000000
(1649282381.756818) can0 286#0338C0000000
(1649282381.756818) can0 20E#00050700FFFC0C
(1649282381.756818) can0 2CE#FFFF000000000000
(1649282381.756818) can0 211#0000FFFFFFFFFFFF
(1649282381.756818) can0 20E#0005074046FC0C
(1649282381.756818) can0 219#00314A3442413648
(1649282381.756818) can0 2B0#02000000
(1649282381.756818) can0 214#2BE25200176D00
(1649282381.756818) can0 2A8#000000000000
(1649282381.756818) can0 2E7#041C000000000000
(1649282381.756818) can0 2EB#700000FF
(1649282381.756818) can0 414#FD163FFFFFFFFFFF
(1649282381.756818) can0 217#777B10408CFD
(1649282381.756818) can0 1E1#0000FFFF00000000
(1649282381.756818) can0 286#0300C0000000
(1649282381.756818) can0 208#00A2651E1E002D
(1649282381.756818) can0 20E#0005876046FC0C
(1649282381.756818) can0 211#0000FFFFFFFFFFFF
(1649282381.756818) can0 2D2#210305
(1649282381.756818) can0 20B#8100
(1649282381.756818) can0 249#001006C00C08
(1649282381.756818) can0 2E7#001C000000000000
(1649282381.756818) can0 214#2BE25200176D00
(1649282381.756818) can0 2EB#700000FF
(1649282381.756818) can0 286#030000000000
(1649282381.756818) can0 20E#1705876046FC0C
(1649282381.756818) can0 2A8#000000000000
(1649282381.756818) can0 2CE#0000000073000000
(1649282381.756818) can0 211#0000000000000000
(1649282381.756818) can0 3E9#DF01
(1649282381.756818) can0 208#00A0651E1E002D
(1649282381.756818) can0 20B#A100
(1649282381.756818) can0 2EB#700000FF
(1649282381.756818) can0 416#FD3E3FFFFFFFFFFF
(1649282381.756818) can0 293#1000000000FFFFFF
(1649282381.756818) can0 219#013139414C323230
(1649282381.756818) can0 217#777A10408CFD
(1649282381.756818) can0 1E1#0000500000000000
(1649282381.756818) can0 208#0080651E1E002D
(1649282381.756818) can0 211#0000000000000000
(1649282381.756818) can0 20B#A100
(1649282381.756818) can0 214#2BE25200176D00
(1649282381.756818) can0 286#030000000000
(1649282381.756818) can0 2EB#700000FF
(1649282381.756818) can0 2A8#000000000000
(1649282381.756818) can0 2CE#0000000073000000
(1649282381.756818) can0 211#0000000000000000
(1649282381.756818) can0 2EB#700000FF
(1649282381.756818) can0 43E#FD023FFFFFFFFFFF
(1649282381.756818) can0 219#0230363000000000
(1649282381.756818) can0 2CA#0700C0FF0000
