(0.0) can0 402#FE023FFFFFFFFFFF
(0.0) can0 3E6#0E2115
(0.0) can0 2DF#0E9203E80FA00A7A
(0.0) can0 142#000000000000
(0.0) can0 1E1#0000FFFF00000000
(0.0) can0 249#FFFF0CCF0000
(0.0) can0 1E7#7000000000000000
(0.0) can0 221#010000000000
(0.0) can0 2D3#010E180200000000
(0.0) can0 1A5#2000FFFFFF007800
(0.0) can0 208#0080651E1E002D
(0.0) can0 217#767C0E008DFD
(0.0) can0 244#01000B0480
(0.0) can0 20B#0000
(0.0) can0 2D6#0100000000000000
(0.0) can0 283#0000000000000000
(0.0) can0 211#FFFFFFFFFFFFFFFF
(0.0) can0 292#FFFFFF0000FFFF
(0.0) can0 2DA#61119BA0FFFF
(0.0) can0 2DD#05000000
(0.0) can0 2DE#019B000000000000
(0.0) can0 416#FE163FFFFFFFFFFF
(0.0) can0 2DB#E507401C00000105
(0.0) can0 286#033800000000
(0.0) can0 402#FE023FFFFFFFFFFF
(0.0) can0 348#0000000000000000
(0.0) can0 2D2#000300
(0.0) can0 20E#00050700FFFF0C
(0.0) can0 2CE#FFFF000000000000
(0.0) can0 3D9#000A0A0A0A0AFF
(0.0) can0 211#FFFFFFFFFFFFFFFF
(0.0) can0 20B#0100
(0.0) can0 3B3#00FFFFFF00FFFFFF
(0.0) can0 244#01000B0480
(0.0) can0 21D#4111297562E52E81
(0.0) can0 20E#00050700FFFF0C
(0.0) can0 414#FE143FFFFFFFFFFF
(0.0) can0 3B0#1D3000001D300000
(0.0) can0 21E#390014116B9E809E
(0.0) can0 214#FFFFFF00FFFF00
(0.0) can0 2E5#0F
(0.0) can0 308#00FFFF
(0.0) can0 3A3#000000000000
(0.0) can0 270#0000
(0.0) can0 2B0#02000000
(0.0) can0 2E1#00
(0.0) can0 392#0C00000000000000
(0.0) can0 21F#0100500000000040
(0.0) can0 286#0338C0000000
(0.0) can0 2EB#720000FF
(0.0) can0 2E9#00000000
(0.0) can0 25F#C17DA80E0000
(0.0) can0 2A8#000000000000
(0.0) can0 2E5#00
(0.0) can0 308#110000
(0.0) can0 293#1000000000FFFFFF
(0.0) can0 43E#FE3E3FFFFFFFFFFF
(0.0) can0 217#767C0E008DFD
(0.0) can0 2B0#02000000
(0.0) can0 1E1#0000FFFF00000000
(0.0) can0 2E1#00
(0.0) can0 208#0080651E1E002D
(0.0) can0 211#FFFFFFFFFFFFFFFF
(0.0) can0 3E9#DF01
(0.0) can0 402#FD143FFFFFFFFFFF
(0.0) can0 291#1D000530000007
(0.0) can0 20B#0100
(0.0) can0 2E3#000000
(0.0) can0 290#0116010F07000000
(0.0) can0 286#0338C0000000
(0.0) can0 21B#1F0000000034001F
(0.0) can0 270#0000
(0.0) can0 2EB#720000FF
(0.0) can0 2CE#FFFF000000000000
(0.0) can0 2B0#02000000
(0.0) can0 211#FFFFFFFFFFFFFFFF
(0.0) can0 249#001002C04404
(0.0) can0 2E7#001C000000000000
(0.0) can0 214#2BE25200176D00
(0.0) can0 249#001002C04A08
(0.0) can0 2EB#720000FF
(0.0) can0 20E#00054700FFFF0C
(0.0) can0 2A8#000000000000
(0.0) can0 217#767C0E008DFD
(0.0) can0 1E1#0000FFFF00000000
(0.0) can0 414#FD3E3FFFFFFFFFFF
(0.0) can0 208#0080651E1E002D
(0.0) can0 211#FFFFFFFFFFFFFFFF
(0.0) can0 20B#0100
(0.0) can0 416#FE3E3FFFFFFFFFFF
(0.0) can0 286#0338C0000000
(0.0) can0 2EB#720000FF
(0.0) can0 2CE#FFFF000000000000
(0.0) can0 211#FFFFFFFFFFFFFFFF
(0.0) can0 3E9#DF01
(0.0) can0 214#2BE25200176D00
(0.0) can0 2EB#720000FF
(0.0) can0 2A8#000000000000
(0.0) can0 43E#FD023FFFFFFFFFFF
(0.0) can0 217#767C0E008DFD
(0.0) can0 1E1#0000FFFF00000000
(0.0) can0 208#0080651E1E002D
(0.0) can0 211#FFFFFFFFFFFFFFFF
(0.0) can0 20B#0100
(0.0) can0 286#0338C0000000
(0.0) can0 2EB#720000FF
(0.0) can0 2CE#FFFF000000000000
(0.0) can0 211#FFFFFFFFFFFFFFFF
(0.0) can0 214#2BE25200176D00
(0.0) can0 402#FD143FFFFFFFFFFF
(0.0) can0 2EB#720000FF
(0.0) can0 2A8#000000000000
(0.0) can0 217#767C0E008DFD
(0.0) can0 1E1#0000FFFF00000000
(0.0) can0 208#0080651E1E002D
(0.0) can0 211#FFFFFFFFFFFFFFFF
(0.0) can0 20B#0100
(0.0) can0 286#0338C0000000
(0.0) can0 2EB#720000FF
(0.0) can0 2CE#FFFF000000000000
(0.0) can0 211#FFFFFFFFFFFFFFFF
(0.0) can0 414#FD163FFFFFFFFFFF
(0.0) can0 214#2BE25200176D00
(0.0) can0 20E#10054700FFFF0C
(0.0) can0 2EB#720000FF
(0.0) can0 2A8#000000000000
(0.0) can0 3E9#9E01
(0.0) can0 292#FFFFFF0000FFFF
(0.0) can0 1E1#0000FFFF00000000
(0.0) can0 1A5#3F00FFFFFF007800
(0.0) can0 208#0080651E1E002D
(0.0) can0 217#767C0E008DFD
(0.0) can0 211#FFFFFFFFFFFFFFFF
(0.0) can0 20E#13054700FFFF0C
(0.0) can0 20B#0100
(0.0) can0 286#0338C0000000
(0.0) can0 348#0000000000000000
(0.0) can0 2EB#720000FF
(0.0) can0 2CE#FFFF000000000000
(0.0) can0 211#FFFFFFFFFFFFFFFF
(0.0) can0 20E#13054700FFFF0C
(0.0) can0 416#FD3E3FFFFFFFFFFF
(0.0) can0 244#01000B0480
(0.0) can0 214#2BE25200176D00
(0.0) can0 308#110000
(0.0) can0 3A3#000000000000
(0.0) can0 2EB#720000FF
(0.0) can0 2A8#000000000000
(0.0) can0 217#767C0E008DFD
(0.0) can0 1E1#0000FFFF00000000
(0.0) can0 2E1#00
(0.0) can0 208#0080651E1E002D
(0.0) can0 211#FFFFFFFFFFFFFFFF
(0.0) can0 20B#0100
(0.0) can0 2E3#000000
(0.0) can0 286#0338C0000000
(0.0) can0 2EB#720000FF
(0.0) can0 2CE#FFFF000000000000
(0.0) can0 211#FFFFFFFFFFFFFFFF
(0.0) can0 43E#FD023FFFFFFFFFFF
(0.0) can0 214#2BE25200176D00
(0.0) can0 2EB#720000FF
(0.0) can0 291#1D0D0530000007
(0.0) can0 2A8#000000000000
(0.0) can0 217#767C0E008DFD
(0.0) can0 1E1#0000FFFF00000000
(0.0) can0 208#0080651E1E002D
(0.0) can0 211#FFFFFFFFFFFFFFFF
(0.0) can0 20B#0100
(0.0) can0 286#0338C0000000
(0.0) can0 2EB#720000FF
(0.0) can0 2CE#FFFF000000000000
(0.0) can0 2D9#80C227C427C0FF
(0.0) can0 3E6#0E2115
(0.0) can0 211#FFFFFFFFFFFFFFFF
(0.0) can0 402#FD143FFFFFFFFFFF
(0.0) can0 214#2BE25200176D00
(0.0) can0 2EB#720000FF
(0.0) can0 2A8#000000000000
(0.0) can0 217#767C0E008DFD
(0.0) can0 1E1#0000FFFF00000000
(0.0) can0 208#0080651E1E002D
(0.0) can0 211#FFFFFFFFFFFFFFFF
(0.0) can0 20B#0100
(0.0) can0 286#0338C0000000
(0.0) can0 2EB#720000FF
(0.0) can0 2CE#FFFF000000000000
(0.0) can0 211#FFFFFFFFFFFFFFFF
(0.0) can0 414#FD163FFFFFFFFFFF
(0.0) can0 214#2BE25200176D00
(0.0) can0 2EB#720000FF
(0.0) can0 2A8#000000000000
(0.0) can0 217#767C0E008DFD
(0.0) can0 1E1#0000FFFF00000000
(0.0) can0 208#0080651E1E002D
(0.0) can0 211#FFFFFFFFFFFFFFFF
(0.0) can0 20B#0100
(0.0) can0 286#0338C0000000
(0.0) can0 2EB#720000FF
(0.0) can0 2CE#FFFF000000000000
(0.0) can0 211#FFFFFFFFFFFFFFFF
(0.0) can0 416#FD3E3FFFFFFFFFFF
(0.0) can0 214#2BE25200176D00
(0.0) can0 2EB#720000FF
(0.0) can0 2A8#000000000000
(0.0) can0 292#FFFFFF0000FFFF
(0.0) can0 142#000000000000
(0.0) can0 1E1#0000FFFF00000000
(0.0) can0 249#001002C04A08
(0.0) can0 1E7#7000000000000000
(0.0) can0 1A5#3F00FFFFFF007800
(0.0) can0 208#0080651E1E002D
(0.0) can0 217#767C0E008DFD
(0.0) can0 211#FFFFFFFFFFFFFFFF
(0.0) can0 283#0000000000000000
(0.0) can0 20B#0100
(0.0) can0 286#0338C0000000
(0.0) can0 20E#930547C0FFFF0C
(0.0) can0 348#0000000000000000
(0.0) can0 2D2#000300
(0.0) can0 2EB#720000FF
(0.0) can0 2CE#FFFF000000000000
(0.0) can0 43E#FD023FFFFFFFFFFF
(0.0) can0 3D9#000A0A0A0A0AFF
(0.0) can0 211#FFFFFFFFFFFFFFFF
(0.0) can0 20E#930547C0FFFF0C
(0.0) can0 3B3#00FFFFFF00FFFFFF
(0.0) can0 244#01000B0480
(0.0) can0 3B0#1D3000001D300000
(0.0) can0 214#2BE25200176D00
(0.0) can0 308#110000
(0.0) can0 3A3#000000000000
(0.0) can0 392#0C00000000000000
(0.0) can0 2EB#720000FF
(0.0) can0 2E9#00000000
(0.0) can0 2A8#000000000000
(0.0) can0 293#1000000000FFFFFF
(0.0) can0 217#767C0EC08DFD
(0.0) can0 1E1#0000FFFF00000000
(0.0) can0 2E1#00
(0.0) can0 208#0080651E1E002D
(0.0) can0 211#FFFFFFFFFFFFFFFF
(0.0) can0 291#1D0D0530000007
(0.0) can0 20B#0100
(0.0) can0 2E3#000000
(0.0) can0 290#0116010F07000000
(0.0) can0 286#0338C0000000
(0.0) can0 21B#1F0000000034001F
(0.0) can0 270#0000
(0.0) can0 2EB#720000FF
(0.0) can0 2CE#FFFF000000000000
(0.0) can0 402#FD143FFFFFFFFFFF
(0.0) can0 2B0#02000000
(0.0) can0 211#FFFFFFFFFFFFFFFF
(0.0) can0 2E7#001C000000000000
(0.0) can0 214#2BE25200176D00
(0.0) can0 2EB#720000FF
(0.0) can0 2A8#000000000000
(0.0) can0 217#767C0EC08DFD
(0.0) can0 1E1#0000FFFF00000000
(0.0) can0 208#0080651E1E002D
(0.0) can0 211#FFFFFFFFFFFFFFFF
(0.0) can0 20B#0100
(0.0) can0 286#0338C0000000
(0.0) can0 2EB#720000FF
(0.0) can0 2CE#FFFF000000000000
(0.0) can0 414#FD163FFFFFFFFFFF
(0.0) can0 211#FFFFFFFFFFFFFFFF
(0.0) can0 214#2BE25200176D00
(0.0) can0 2EB#720000FF
(0.0) can0 2A8#000000000000
(0.0) can0 217#767C0EC08DFD
(0.0) can0 1E1#0000FFFF00000000
(0.0) can0 208#0080651E1E002D
(0.0) can0 211#FFFFFFFFFFFFFFFF
(0.0) can0 20B#0100
(0.0) can0 286#0338C0000000
(0.0) can0 2EB#720000FF
(0.0) can0 416#FD3E3FFFFFFFFFFF
(0.0) can0 2CE#FFFF000000000000
(0.0) can0 211#FFFFFFFFFFFFFFFF
(0.0) can0 214#2BE25200176D00
(0.0) can0 2EB#720000FF
(0.0) can0 2A8#000000000000
(0.0) can0 217#767C0EC08DFD
(0.0) can0 1E1#0000FFFF00000000
(0.0) can0 208#0080651E1E002D
(0.0) can0 211#FFFFFFFFFFFFFFFF
(0.0) can0 20B#0100
(0.0) can0 286#0338C0000000
(0.0) can0 43E#FD023FFFFFFFFFFF
(0.0) can0 2EB#720000FF
(0.0) can0 2CE#FFFF000000000000
(0.0) can0 211#FFFFFFFFFFFFFFFF
(0.0) can0 214#2BE25200176D00
(0.0) can0 2EB#720000FF
(0.0) can0 2A8#000000000000
(0.0) can0 292#FFFFFF0000FFFF
(0.0) can0 1E1#0000FFFF00000000
(0.0) can0 208#0080651E1E002D
(0.0) can0 217#767C0EC08DFD
(0.0) can0 211#FFFFFFFFFFFFFFFF
(0.0) can0 20B#0100
(0.0) can0 286#0338C0000000
(0.0) can0 402#FD143FFFFFFFFFFF
(0.0) can0 348#0000000000000000
(0.0) can0 2EB#720000FF
(0.0) can0 2CE#FFFF000000000000
(0.0) can0 211#FFFFFFFFFFFFFFFF
(0.0) can0 20E#930547C0FFFF0C
(0.0) can0 244#01000B0480
(0.0) can0 214#2BE25200176D00
(0.0) can0 308#110000
(0.0) can0 3A3#000000000000
(0.0) can0 2EB#720000FF
(0.0) can0 2A8#000000000000
(0.0) can0 217#767C0EC08DFD
(0.0) can0 2E1#00
(0.0) can0 1E1#0000FFFF00000000
(0.0) can0 208#0080651E1E002D
(0.0) can0 211#FFFFFFFFFFFFFFFF
(0.0) can0 20B#0100
(0.0) can0 2E3#000000
(0.0) can0 286#0338C0000000
(0.0) can0 414#FD163FFFFFFFFFFF
(0.0) can0 2EB#720000FF
(0.0) can0 2CE#FFFF000000000000
(0.0) can0 211#FFFFFFFFFFFFFFFF
(0.0) can0 214#2BE25200176D00
(0.0) can0 2EB#720000FF
(0.0) can0 2A8#000000000000
(0.0) can0 217#767C0EC08DFD
(0.0) can0 1E1#0000FFFF00000000
(0.0) can0 208#0080651E1E002D
(0.0) can0 211#FFFFFFFFFFFFFFFF
(0.0) can0 20B#0100
(0.0) can0 416#FD3E3FFFFFFFFFFF
(0.0) can0 286#0338C0000000
(0.0) can0 2EB#720000FF
(0.0) can0 2CE#FFFF000000000000
(0.0) can0 2D9#80C227C427C0FF
(0.0) can0 3E6#0E2116
(0.0) can0 211#FFFFFFFFFFFFFFFF
(0.0) can0 214#2BE25200176D00
(0.0) can0 2EB#720000FF
(0.0) can0 2A8#000000000000
(0.0) can0 217#767C0EC08DFD
(0.0) can0 1E1#0000FFFF00000000
(0.0) can0 43E#FD023FFFFFFFFFFF
(0.0) can0 208#0080651E1E002D
(0.0) can0 211#FFFFFFFFFFFFFFFF
(0.0) can0 20B#0100
(0.0) can0 286#0338C0000000
(0.0) can0 2EB#720000FF
(0.0) can0 2CE#FFFF000000000000
(0.0) can0 211#FFFFFFFFFFFFFFFF
(0.0) can0 214#2BE25200176D00
(0.0) can0 2EB#720000FF
(0.0) can0 2A8#000000000000
(0.0) can0 217#767C0EC08DFD
(0.0) can0 1E1#0000FFFF00000000
(0.0) can0 208#0080651E1E002D
(0.0) can0 211#FFFFFFFFFFFFFFFF
(0.0) can0 402#FD143FFFFFFFFFFF
(0.0) can0 20B#0100
(0.0) can0 286#0338C0000000
(0.0) can0 2EB#720000FF
(0.0) can0 2CE#FFFF000000000000
(0.0) can0 211#FFFFFFFFFFFFFFFF
(0.0) can0 214#2BE25200176D00
(0.0) can0 2EB#720000FF
(0.0) can0 2A8#000000000000
(0.0) can0 3E9#9E01
(0.0) can0 2DE#019B000000000000
(0.0) can0 414#FD163FFFFFFFFFFF
(0.0) can0 142#000000000000
(0.0) can0 1E1#0000FFFF00000000
(0.0) can0 249#001002C04A08
(0.0) can0 1E7#7000000000000000
(0.0) can0 221#010000000000
(0.0) can0 2D3#010E180200000000
(0.0) can0 1A5#3F00FFFFFF007800
(0.0) can0 208#0080651E1E002D
(0.0) can0 217#767C0EC08DFD
(0.0) can0 20B#0100
(0.0) can0 2D6#0100000000000000
(0.0) can0 283#0000000000000000
(0.0) can0 211#FFFFFFFFFFFFFFFF
(0.0) can0 292#FFFFFF0000FFFF
(0.0) can0 2DD#05000000
(0.0) can0 2DB#E507401C00000105
(0.0) can0 286#0338C0000000
(0.0) can0 348#0000000000000000
(0.0) can0 2EB#720000FF
(0.0) can0 2D2#000300
(0.0) can0 2CE#FFFF000000000000
(0.0) can0 3D9#000A0A0A0A0AFF
(0.0) can0 211#FFFFFFFFFFFFFFFF
(0.0) can0 20E#930547C0FFFF0C
(0.0) can0 3B3#00FFFFFF00FFFFFF
(0.0) can0 244#01000B0480
(0.0) can0 21D#4111297562E52E81
(0.0) can0 3B0#1D3000001D300000
(0.0) can0 21E#390014116B9E809E
(0.0) can0 214#2BE25200176D00
(0.0) can0 142#FF0000000000
(0.0) can0 2E5#00
(0.0) can0 308#110000
(0.0) can0 3A3#000000000000
(0.0) can0 392#0C00000000000000
(0.0) can0 21F#0100500000000040
(0.0) can0 2EB#720000FF
(0.0) can0 2E9#00000000
(0.0) can0 25F#C17DA80E0000
(0.0) can0 2A8#000000000000
(0.0) can0 416#FD3E3FFFFFFFFFFF
(0.0) can0 217#767C0EC08DFD
(0.0) can0 2E1#00
(0.0) can0 1E1#0000FFFF00000000
(0.0) can0 208#0080651E1E002D
(0.0) can0 211#FFFFFFFFFFFFFFFF
(0.0) can0 291#1D0D0530000007
(0.0) can0 20B#0100
(0.0) can0 2E3#000000
(0.0) can0 290#0116010F07000000
(0.0) can0 286#0338C0000000
(0.0) can0 21B#1F0000000034001F
(0.0) can0 293#1000000000FFFFFF
(0.0) can0 270#0000
(0.0) can0 2EB#720000FF
(0.0) can0 2CE#FFFF00000000C03F
(0.0) can0 2B0#02000000
(0.0) can0 211#FFFFFFFFFFFFFFFF
(0.0) can0 2E7#001C000000000000
(0.0) can0 214#2BE25200176D00
(0.0) can0 2EB#720000FF
(0.0) can0 43E#FD023FFFFFFFFFFF
(0.0) can0 2A8#000000000000
(0.0) can0 217#767C0EC08DFD
(0.0) can0 1E1#0000FFFF00000000
(0.0) can0 208#0080651E1E002D
(0.0) can0 211#FFFFFFFFFFFFFFFF
(0.0) can0 20B#0100
(0.0) can0 286#0338C0000000
(0.0) can0 2EB#720000FF
(0.0) can0 2CE#FFFF00000000C03F
(0.0) can0 211#FFFFFFFFFFFFFFFF
(0.0) can0 214#2BE25200176D00
(0.0) can0 2EB#720000FF
(0.0) can0 402#FD143FFFFFFFFFFF
(0.0) can0 2A8#000000000000
(0.0) can0 217#767C0EC08DFD
(0.0) can0 1E1#0000FFFF00000000
(0.0) can0 208#0080651E1E002D
(0.0) can0 211#FFFFFFFFFFFFFFFF
(0.0) can0 20B#0100
(0.0) can0 286#0338C0000000
(0.0) can0 2EB#720000FF
(0.0) can0 2CE#FFFF00000000C03F
(0.0) can0 211#FFFFFFFFFFFFFFFF
(0.0) can0 214#2BE25200176D00
(0.0) can0 414#FD163FFFFFFFFFFF
(0.0) can0 2EB#720000FF
(0.0) can0 2A8#000000000000
(0.0) can0 217#767C0EC08DFD
(0.0) can0 1E1#0000FFFF00000000
(0.0) can0 208#0080651E1E002D
(0.0) can0 211#FFFFFFFFFFFFFFFF
(0.0) can0 20B#0100
(0.0) can0 286#0338C0000000
(0.0) can0 2EB#720000FF
(0.0) can0 2CE#FFFF00000000C03F
(0.0) can0 211#FFFFFFFFFFFFFFFF
(0.0) can0 214#2BE25200176D00
(0.0) can0 416#FD3E3FFFFFFFFFFF
(0.0) can0 2EB#720000FF
(0.0) can0 2A8#000000000000
(0.0) can0 292#FFFFFF0000FFFF
(0.0) can0 1E1#0000FFFF00000000
(0.0) can0 208#0080651E1E002D
(0.0) can0 217#767C0EC08DFD
(0.0) can0 211#FFFFFFFFFFFFFFFF
(0.0) can0 20B#0100
(0.0) can0 286#0338C0000000
(0.0) can0 348#0000000000000000
(0.0) can0 2EB#720000FF
(0.0) can0 2CE#FFFF00000000C03F
(0.0) can0 211#FFFFFFFFFFFFFFFF
(0.0) can0 20E#930547C0FFFF0C
(0.0) can0 244#01000B0480
(0.0) can0 43E#FD023FFFFFFFFFFF
(0.0) can0 214#2BE25200176D00
(0.0) can0 308#110000
(0.0) can0 3A3#000000000000
(0.0) can0 2EB#720000FF
(0.0) can0 2A8#000000000000
(0.0) can0 217#767C0EC08DFD
(0.0) can0 2E1#00
(0.0) can0 1E1#0000FFFF00000000
(0.0) can0 208#0080651E1E002D
(0.0) can0 211#FFFFFFFFFFFFFFFF
(0.0) can0 20B#0100
(0.0) can0 2E3#000000
(0.0) can0 286#0338C0000000
(0.0) can0 2EB#720000FF
(0.0) can0 2CE#FFFF00000000C03F
(0.0) can0 211#FFFFFFFFFFFFFFFF
(0.0) can0 402#FD143FFFFFFFFFFF
(0.0) can0 214#2BE25200176D00
(0.0) can0 2EB#720000FF
(0.0) can0 2A8#000000000000
(0.0) can0 217#767C0EC08DFD
(0.0) can0 1E1#0000FFFF00000000
(0.0) can0 208#0080651E1E002D
(0.0) can0 211#FFFFFFFFFFFFFFFF
(0.0) can0 20B#0100
(0.0) can0 286#0338C0000000
(0.0) can0 2EB#720000FF
(0.0) can0 2CE#FFFF00000000C03F
(0.0) can0 2D9#80C227C427C0FF
(0.0) can0 3E6#0E2117
(0.0) can0 211#FFFFFFFFFFFFFFFF
(0.0) can0 414#FD163FFFFFFFFFFF
(0.0) can0 214#2BE25200176D00
(0.0) can0 2EB#720000FF
(0.0) can0 2A8#000000000000
(0.0) can0 217#767C0EC08DFD
(0.0) can0 1E1#0000FFFF00000000
(0.0) can0 208#0080651E1E002D
(0.0) can0 211#FFFFFFFFFFFFFFFF
(0.0) can0 20B#0100
(0.0) can0 286#0338C0000000
(0.0) can0 2EB#720000FF
(0.0) can0 2CE#FFFF00000000C03F
(0.0) can0 211#FFFFFFFFFFFFFFFF
(0.0) can0 416#FD3E3FFFFFFFFFFF
(0.0) can0 214#2BE25200176D00
(0.0) can0 2EB#720000FF
(0.0) can0 2A8#000000000000
(0.0) can0 217#767C0EC08DFD
(0.0) can0 1E1#0000FFFF00000000
(0.0) can0 208#0080651E1E002D
(0.0) can0 211#FFFFFFFFFFFFFFFF
(0.0) can0 20B#0100
(0.0) can0 286#0338C0000000
(0.0) can0 2EB#720000FF
(0.0) can0 2CE#FFFF00000000C03F
(0.0) can0 43E#FD023FFFFFFFFFFF
(0.0) can0 211#FFFFFFFFFFFFFFFF
(0.0) can0 214#2BE25200176D00
(0.0) can0 2EB#720000FF
(0.0) can0 2A8#000000000000
(0.0) can0 292#FFFFFF0000FFFF
(0.0) can0 142#FF0000000000
(0.0) can0 1E1#0000FFFF00000000
(0.0) can0 249#001002C04A08
(0.0) can0 1E7#7000000000000000
(0.0) can0 1A5#3F00FFFFFF007800
(0.0) can0 208#0080651E1E002D
(0.0) can0 217#767C0EC08DFD
(0.0) can0 211#FFFFFFFFFFFFFFFF
(0.0) can0 283#0000000000000000
(0.0) can0 20B#0100
(0.0) can0 286#0338C0000000
(0.0) can0 348#0000000000000000
(0.0) can0 2EB#720000FF
(0.0) can0 2D2#000300
(0.0) can0 2CE#FFFF00000000C03F
(0.0) can0 402#FD143FFFFFFFFFFF
(0.0) can0 3D9#000A0A0A0A0AFF
(0.0) can0 211#FFFFFFFFFFFFFFFF
(0.0) can0 20E#930547C0FFFF0C
(0.0) can0 3B3#00FFFFFF00FFFFFF
(0.0) can0 244#01000B0480
(0.0) can0 3B0#1D3000001D300000
(0.0) can0 214#2BE25200176D00
(0.0) can0 308#110000
(0.0) can0 3A3#000000000000
(0.0) can0 392#0C00000000000000
(0.0) can0 2EB#720000FF
(0.0) can0 2E9#00000000
(0.0) can0 2A8#000000000000
(0.0) can0 293#1000000000FFFFFF
(0.0) can0 217#767C0EC08DFD
(0.0) can0 2E1#00
(0.0) can0 1E1#0000FFFF00000000
(0.0) can0 208#0080651E1E002D
(0.0) can0 211#FFFFFFFFFFFFFFFF
(0.0) can0 291#1D0D0530000007
(0.0) can0 20B#0100
(0.0) can0 2E3#000000
(0.0) can0 290#0116010F07000000
(0.0) can0 286#0338C0000000
(0.0) can0 21B#1F0000000034001F
(0.0) can0 270#0000
(0.0) can0 2EB#720000FF
(0.0) can0 2CE#FFFF00000000C03F
(0.0) can0 414#FD163FFFFFFFFFFF
(0.0) can0 2B0#02000000
(0.0) can0 211#FFFFFFFFFFFFFFFF
(0.0) can0 2E7#001C000000000000
(0.0) can0 214#2BE25200176D00
(0.0) can0 2EB#720000FF
(0.0) can0 2A8#000000000000
(0.0) can0 217#767C0EC08DFD
(0.0) can0 1E1#0000FFFF00000000
(0.0) can0 208#0080651E1E002D
(0.0) can0 211#FFFFFFFFFFFFFFFF
(0.0) can0 20B#0100
(0.0) can0 286#0338C0000000
(0.0) can0 2EB#720000FF
(0.0) can0 416#FD3E3FFFFFFFFFFF
(0.0) can0 2CE#FFFF00000000C03F
(0.0) can0 211#FFFFFFFFFFFFFFFF
(0.0) can0 214#2BE25200176D00
(0.0) can0 2EB#720000FF
(0.0) can0 2A8#000000000000
(0.0) can0 217#767C0EC08DFD
(0.0) can0 1E1#0000FFFF00000000
(0.0) can0 208#0080651E1E002D
(0.0) can0 211#FFFFFFFFFFFFFFFF
(0.0) can0 20B#0100
(0.0) can0 286#0338C0000000
(0.0) can0 43E#FD023FFFFFFFFFFF
(0.0) can0 2EB#720000FF
(0.0) can0 2CE#FFFF00000000C03F
(0.0) can0 211#FFFFFFFFFFFFFFFF
(0.0) can0 214#2BE25200176D00
(0.0) can0 2EB#720000FF
(0.0) can0 2A8#000000000000
(0.0) can0 217#767C0EC08DFD
(0.0) can0 1E1#0000FFFF00000000
(0.0) can0 208#0080651E1E002D
(0.0) can0 211#FFFFFFFFFFFFFFFF
(0.0) can0 20B#0100
(0.0) can0 286#0338C0000000
(0.0) can0 402#FD143FFFFFFFFFFF
(0.0) can0 2EB#720000FF
(0.0) can0 2CE#FFFF00000000C03F
(0.0) can0 211#FFFFFFFFFFFFFFFF
(0.0) can0 214#2BE25200176D00
(0.0) can0 2EB#720000FF
(0.0) can0 2A8#000000000000
(0.0) can0 3E9#9E01
(0.0) can0 292#FFFFFF0000FFFF
(0.0) can0 1E1#0000FFFF00000000
(0.0) can0 208#0080651E1E002D
(0.0) can0 217#767C0EC08DFD
(0.0) can0 211#FFFFFFFFFFFFFFFF
(0.0) can0 20B#0100
(0.0) can0 286#0338C0000000
(0.0) can0 414#FD163FFFFFFFFFFF
(0.0) can0 348#0000000000000000
(0.0) can0 2EB#720000FF
(0.0) can0 2CE#FFFF00000000C03F
(0.0) can0 211#FFFFFFFFFFFFFFFF
(0.0) can0 20E#930547C0FFFF0C
(0.0) can0 244#01000B0480
(0.0) can0 214#2BE25200176D00
(0.0) can0 308#110000
(0.0) can0 3A3#000000000000
(0.0) can0 2EB#720000FF
(0.0) can0 2A8#000000000000
(0.0) can0 2E1#00
(0.0) can0 217#767C0EC08DFD
(0.0) can0 1E1#0000FFFF00000000
(0.0) can0 208#0080651E1E002D
(0.0) can0 211#FFFFFFFFFFFFFFFF
(0.0) can0 20B#0100
(0.0) can0 2E3#000000
(0.0) can0 416#FD3E3FFFFFFFFFFF
(0.0) can0 286#0338C0000000
(0.0) can0 2EB#720000FF
(0.0) can0 2CE#FFFF00000000C03F
(0.0) can0 211#FFFFFFFFFFFFFFFF
(0.0) can0 214#2BE25200176D00
(0.0) can0 2EB#720000FF
(0.0) can0 2A8#000000000000
(0.0) can0 217#767C0EC08DFD
(0.0) can0 1E1#0000FFFF00000000
(0.0) can0 208#0080651E1E002D
(0.0) can0 211#FFFFFFFFFFFFFFFF
(0.0) can0 43E#FD023FFFFFFFFFFF
(0.0) can0 20B#0100
(0.0) can0 286#0338C0000000
(0.0) can0 2EB#720000FF
(0.0) can0 2CE#FFFF00000000C03F
(0.0) can0 2D9#80C227C427C0FF
(0.0) can0 3E6#0E2118
(0.0) can0 211#FFFFFFFFFFFFFFFF
(0.0) can0 214#2BE25200176D00
(0.0) can0 2EB#720000FF
(0.0) can0 2A8#000000000000
(0.0) can0 217#767C0EC08DFD
(0.0) can0 1E1#0000FFFF00000000
(0.0) can0 208#0080651E1E002D
(0.0) can0 211#FFFFFFFFFFFFFFFF
(0.0) can0 402#FD143FFFFFFFFFFF
(0.0) can0 20B#0100
(0.0) can0 286#0338C0000000
(0.0) can0 2EB#720000FF
(0.0) can0 2CE#FFFF00000000C03F
(0.0) can0 211#FFFFFFFFFFFFFFFF
(0.0) can0 214#2BE25200176D00
(0.0) can0 2EB#720000FF
(0.0) can0 2A8#000000000000
(0.0) can0 414#FD163FFFFFFFFFFF
(0.0) can0 217#767C0EC08DFD
(0.0) can0 1E1#0000FFFF00000000
(0.0) can0 208#0080651E1E002D
(0.0) can0 211#FFFFFFFFFFFFFFFF
(0.0) can0 20B#0100
(0.0) can0 286#0338C0000000
(0.0) can0 2EB#720000FF
(0.0) can0 2CE#FFFF00000000C03F
(0.0) can0 211#FFFFFFFFFFFFFFFF
(0.0) can0 214#2BE25200176D00
(0.0) can0 2EB#720000FF
(0.0) can0 2A8#000000000000
(0.0) can0 416#FD3E3FFFFFFFFFFF
(0.0) can0 2DF#0E9203E80FA00A7A
(0.0) can0 142#FF0000000000
(0.0) can0 1E1#0000FFFF00000000
(0.0) can0 249#001002C04A08
(0.0) can0 1E7#7000000000000000
(0.0) can0 221#010000000000
(0.0) can0 2D3#010E180200000000
(0.0) can0 1A5#3F00FFFFFF007800
(0.0) can0 208#0080651E1E002D
(0.0) can0 217#767C0EC08DFD
(0.0) can0 211#FFFFFFFFFFFFFFFF
(0.0) can0 20B#0100
(0.0) can0 2D6#0100000000000000
(0.0) can0 283#0000000000000000
(0.0) can0 292#FFFFFF0000FFFF
(0.0) can0 2DA#61119BA0FFFF
(0.0) can0 2DD#05000000
(0.0) can0 2DE#019B000000000000
(0.0) can0 2DB#E507401C00000105
(0.0) can0 286#0338C0000000
(0.0) can0 2EB#720000FF
(0.0) can0 348#0000000000000000
(0.0) can0 2D2#000300
(0.0) can0 2CE#FFFF00000000C03F
(0.0) can0 3D9#000A0A0A0A0AFF
(0.0) can0 211#FFFFFFFFFFFFFFFF
(0.0) can0 20E#930547C0FFFF0C
(0.0) can0 3B3#00FFFFFF00FFFFFF
(0.0) can0 244#01000B0480
(0.0) can0 21D#4111297562E52E81
(0.0) can0 3B0#1D3000001D300000
(0.0) can0 214#2BE25200176D00
(0.0) can0 21E#390014116B9E809E
(0.0) can0 2E5#00
(0.0) can0 308#110000
(0.0) can0 3A3#000000000000
(0.0) can0 392#0C00000000000000
(0.0) can0 2EB#720000FF
(0.0) can0 21F#0100500000000040
(0.0) can0 43E#FD023FFFFFFFFFFF
(0.0) can0 2E9#00000000
(0.0) can0 2A8#000000000000
(0.0) can0 25F#C17DA80E0000
(0.0) can0 293#1000000000FFFFFF
(0.0) can0 2E1#00
(0.0) can0 217#767C0EC08DFD
(0.0) can0 1E1#0000FFFF00000000
(0.0) can0 208#0080651E1E002D
(0.0) can0 211#FFFFFFFFFFFFFFFF
(0.0) can0 291#1D0D0530000007
(0.0) can0 2E3#000000
(0.0) can0 20B#0100
(0.0) can0 290#0116010F07000000
(0.0) can0 21B#1F0000000034001F
(0.0) can0 286#0338C0000000
(0.0) can0 270#0000
(0.0) can0 2EB#720000FF
(0.0) can0 2B0#02000000
(0.0) can0 2CE#FFFF00000000C03F
(0.0) can0 2E7#001C000000000000
(0.0) can0 211#FFFFFFFFFFFFFFFF
(0.0) can0 214#2BE25200176D00
(0.0) can0 2EB#720000FF
(0.0) can0 402#FD143FFFFFFFFFFF
(0.0) can0 2A8#000000000000
(0.0) can0 217#767C0EC08DFD
(0.0) can0 1E1#0000FFFF00000000
(0.0) can0 208#0080651E1E002D
(0.0) can0 211#FFFFFFFFFFFFFFFF
(0.0) can0 20B#0100
(0.0) can0 286#0338C0000000
(0.0) can0 2EB#720000FF
(0.0) can0 2CE#FFFF00000000C03F
(0.0) can0 211#FFFFFFFFFFFFFFFF
(0.0) can0 214#2BE25200176D00
(0.0) can0 414#FD163FFFFFFFFFFF
(0.0) can0 2EB#720000FF
(0.0) can0 2A8#000000000000
(0.0) can0 217#767C0EC08DFD
(0.0) can0 1E1#0000FFFF00000000
(0.0) can0 208#0080651E1E002D
(0.0) can0 211#FFFFFFFFFFFFFFFF
(0.0) can0 20B#0100
(0.0) can0 286#0338C0000000
(0.0) can0 2EB#720000FF
(0.0) can0 2CE#FFFF00000000C03F
(0.0) can0 211#FFFFFFFFFFFFFFFF
(0.0) can0 214#2BE25200176D00
(0.0) can0 416#FD3E3FFFFFFFFFFF
(0.0) can0 2EB#720000FF
(0.0) can0 2A8#000000000000
(0.0) can0 217#767C0EC08DFD
(0.0) can0 1E1#0000FFFF00000000
(0.0) can0 208#0080651E1E002D
(0.0) can0 211#FFFFFFFFFFFFFFFF
(0.0) can0 20B#0100
(0.0) can0 286#0338C0000000
(0.0) can0 2EB#720000FF
(0.0) can0 2CE#FFFF00000000C03F
(0.0) can0 211#FFFFFFFFFFFFFFFF
(0.0) can0 43E#FD023FFFFFFFFFFF
(0.0) can0 214#2BE25200176D00
(0.0) can0 2EB#720000FF
(0.0) can0 2A8#000000000000
(0.0) can0 292#FFFFFF0000FFFF
(0.0) can0 1E1#0000FFFF00000000
(0.0) can0 208#0080651E1E002D
(0.0) can0 217#767C0EC08DFD
(0.0) can0 211#FFFFFFFFFFFFFFFF
(0.0) can0 20B#0100
(0.0) can0 286#0338C0000000
(0.0) can0 2EB#720000FF
(0.0) can0 348#0000000000000000
(0.0) can0 2CE#FFFF00000000C03F
(0.0) can0 211#FFFFFFFFFFFFFFFF
(0.0) can0 20E#930547C0FFFF0C
(0.0) can0 244#01000B0480
(0.0) can0 402#FD143FFFFFFFFFFF
(0.0) can0 214#2BE25200176D00
(0.0) can0 308#110000
(0.0) can0 3A3#000000000000
(0.0) can0 2EB#720000FF
(0.0) can0 2A8#000000000000
(0.0) can0 2E1#00
(0.0) can0 217#767C0EC08DFD
(0.0) can0 1E1#0000FFFF00000000
(0.0) can0 208#0080651E1E002D
(0.0) can0 211#FFFFFFFFFFFFFFFF
(0.0) can0 2E3#000000
(0.0) can0 20B#0100
(0.0) can0 286#0338C0000000
(0.0) can0 2EB#720000FF
(0.0) can0 2CE#FFFF00000000C03F
(0.0) can0 211#FFFFFFFFFFFFFFFF
(0.0) can0 414#FD163FFFFFFFFFFF
(0.0) can0 214#2BE25200176D00
(0.0) can0 2EB#720000FF
(0.0) can0 2A8#000000000000
(0.0) can0 217#767C0EC08DFD
(0.0) can0 1E1#0000FFFF00000000
(0.0) can0 208#0080651E1E002D
(0.0) can0 211#FFFFFFFFFFFFFFFF
(0.0) can0 20B#0100
(0.0) can0 286#0338C0000000
(0.0) can0 2EB#720000FF
(0.0) can0 2CE#FFFF00000000C03F
(0.0) can0 2D9#80C227C427C0FF
(0.0) can0 3E6#0E2119
(0.0) can0 211#FFFFFFFFFFFFFFFF
(0.0) can0 416#FD3E3FFFFFFFFFFF
(0.0) can0 214#2BE25200176D00
(0.0) can0 2EB#720000FF
(0.0) can0 2A8#000000000000
(0.0) can0 217#767C0EC08DFD
(0.0) can0 1E1#0000FFFF00000000
(0.0) can0 208#0080651E1E002D
(0.0) can0 211#FFFFFFFFFFFFFFFF
(0.0) can0 20B#0100
(0.0) can0 286#0338C0000000
(0.0) can0 2EB#720000FF
(0.0) can0 2CE#FFFF00000000C03F
(0.0) can0 43E#FD023FFFFFFFFFFF
(0.0) can0 211#FFFFFFFFFFFFFFFF
(0.0) can0 214#2BE25200176D00
(0.0) can0 2EB#720000FF
(0.0) can0 2A8#000000000000
(0.0) can0 217#767C0EC08DFD
(0.0) can0 1E1#0000FFFF00000000
(0.0) can0 208#0080651E1E002D
(0.0) can0 211#FFFFFFFFFFFFFFFF
(0.0) can0 20B#0100
(0.0) can0 286#0338C0000000
(0.0) can0 2EB#720000FF
(0.0) can0 2CE#FFFF00000000C03F
(0.0) can0 402#FD143FFFFFFFFFFF
(0.0) can0 211#FFFFFFFFFFFFFFFF
(0.0) can0 214#2BE25200176D00
(0.0) can0 2EB#720000FF
(0.0) can0 2A8#000000000000
(0.0) can0 3E9#9E01
(0.0) can0 292#FFFFFF0000FFFF
(0.0) can0 142#FF0000000000
(0.0) can0 1E1#0000FFFF00000000
(0.0) can0 249#001002C04A08
(0.0) can0 1E7#7000000000000000
(0.0) can0 1A5#3F00FFFFFF007800
(0.0) can0 208#0080651E1E002D
(0.0) can0 217#767C0EC08DFD
(0.0) can0 211#FFFFFFFFFFFFFFFF
(0.0) can0 283#0000000000000000
(0.0) can0 20B#0100
(0.0) can0 286#0338C0000000
(0.0) can0 2EB#720000FF
(0.0) can0 348#0000000000000000
(0.0) can0 2D2#000300
(0.0) can0 414#FD163FFFFFFFFFFF
(0.0) can0 2CE#FFFF00000000C03F
(0.0) can0 3D9#000A0A0A0A0AFF
(0.0) can0 211#FFFFFFFFFFFFFFFF
(0.0) can0 20E#930547C0FFFF0C
(0.0) can0 3B3#00FFFFFF00FFFFFF
(0.0) can0 244#01000B0480
(0.0) can0 3B0#1D3000001D300000
(0.0) can0 214#2BE25200176D00
(0.0) can0 308#110000
(0.0) can0 3A3#000000000000
(0.0) can0 392#0C00000000000000
(0.0) can0 2EB#720000FF
(0.0) can0 2E9#00000000
(0.0) can0 2A8#000000000000
(0.0) can0 293#1000000000FFFFFF
(0.0) can0 2E1#00
(0.0) can0 217#767C0EC08DFD
(0.0) can0 1E1#0000FFFF00000000
(0.0) can0 208#0080651E1E002D
(0.0) can0 211#FFFFFFFFFFFFFFFF
(0.0) can0 291#1D0D0530000007
(0.0) can0 2E3#000000
(0.0) can0 20B#0100
(0.0) can0 290#0116010F07000000
(0.0) can0 21B#1F0000000034001F
(0.0) can0 286#0338C0000000
(0.0) can0 270#0000
(0.0) can0 2EB#720000FF
(0.0) can0 416#FD3EBFFFFFFFFFFF
(0.0) can0 2B0#02000000
(0.0) can0 2CE#FFFF00000000C03F
(0.0) can0 2E7#001C000000000000
(0.0) can0 211#FFFFFFFFFFFFFFFF
(0.0) can0 214#2BE25200176D00
(0.0) can0 2EB#720000FF
(0.0) can0 2A8#000000000000
(0.0) can0 217#767C0EC08DFD
(0.0) can0 1E1#0000FFFF00000000
(0.0) can0 208#0080651E1E002D
(0.0) can0 211#FFFFFFFFFFFFFFFF
(0.0) can0 20B#0100
(0.0) can0 286#0338C0000000
(0.0) can0 43E#FD02BFFFFFFFFFFF
(0.0) can0 2EB#720000FF
(0.0) can0 2CE#FFFF00000000C03F
(0.0) can0 211#FFFFFFFFFFFFFFFF
(0.0) can0 214#2BE25200176D00
(0.0) can0 2EB#720000FF
(0.0) can0 2A8#000000000000
(0.0) can0 217#767C0EC08DFD
(0.0) can0 1E1#0000FFFF00000000
(0.0) can0 208#0080651E1E002D
(0.0) can0 211#FFFFFFFFFFFFFFFF
(0.0) can0 20B#0100
(0.0) can0 286#0338C0000000
(0.0) can0 402#FD143FFFFFFFFFFF
(0.0) can0 2EB#720000FF
(0.0) can0 2CE#FFFF00000000C03F
(0.0) can0 211#FFFFFFFFFFFFFFFF
(0.0) can0 214#2BE25200176D00
(0.0) can0 2EB#720000FF
(0.0) can0 2A8#000000000000
(0.0) can0 217#767C0EC08DFD
(0.0) can0 1E1#0000FFFF00000000
(0.0) can0 208#0080651E1E002D
(0.0) can0 211#FFFFFFFFFFFFFFFF
(0.0) can0 20B#0100
(0.0) can0 414#FD16BFFFFFFFFFFF
(0.0) can0 286#0338C0000000
(0.0) can0 2EB#720000FF
(0.0) can0 2CE#FFFF00000000C03F
(0.0) can0 211#FFFFFFFFFFFFFFFF
(0.0) can0 214#2BE25200176D00
(0.0) can0 2EB#720000FF
(0.0) can0 2A8#000000000000
(0.0) can0 292#FFFFFF0000FFFF
(0.0) can0 1E1#0000FFFF00000000
(0.0) can0 208#0080651E1E002D
(0.0) can0 217#767C0EC08DFD
(0.0) can0 211#FFFFFFFFFFFFFFFF
(0.0) can0 20B#0100
(0.0) can0 416#FD3EBFFFFFFFFFFF
(0.0) can0 286#0338C0000000
(0.0) can0 2EB#720000FF
(0.0) can0 348#0FFF0FFF00000000
(0.0) can0 2CE#FFFF00000000C03F
(0.0) can0 211#FFFFFFFFFFFFFFFF
(0.0) can0 20E#930547C0FFFF0C
(0.0) can0 244#01000B0480
(0.0) can0 214#2BE25200176D00
(0.0) can0 308#110000
(0.0) can0 3A3#000000000000
(0.0) can0 2EB#720000FF
(0.0) can0 2A8#000000000000
(0.0) can0 2E1#00
(0.0) can0 217#767C0EC08DFD
(0.0) can0 1E1#0000FFFF00000000
(0.0) can0 208#0080651E1E002D
(0.0) can0 211#FFFFFFFFFFFFFFFF
(0.0) can0 43E#FD02BFFFFFFFFFFF
(0.0) can0 2E3#000000
(0.0) can0 20B#0100
(0.0) can0 286#0338C0000000
(0.0) can0 2EB#720000FF
(0.0) can0 2CE#FFFF00000000C03F
(0.0) can0 211#FFFFFFFFFFFFFFFF
(0.0) can0 214#2BE25200176D00
(0.0) can0 2EB#720000FF
(0.0) can0 2A8#000000000000
(0.0) can0 217#767C0EC08DFD
(0.0) can0 1E1#0000FFFF00000000
(0.0) can0 208#0080651E1E002D
(0.0) can0 211#FFFFFFFFFFFFFFFF
(0.0) can0 402#FD143FFFFFFFFFFF
(0.0) can0 20B#0100
(0.0) can0 286#0338C0000000
(0.0) can0 2EB#720000FF
(0.0) can0 2CE#FFFF00000000C03F
(0.0) can0 2D9#80C227C427C0FF
(0.0) can0 3E6#0E211A
(0.0) can0 211#FFFFFFFFFFFFFFFF
(0.0) can0 214#2BE25200176D00
(0.0) can0 2EB#720000FF
(0.0) can0 2A8#000000000000
(0.0) can0 414#FD16BFFFFFFFFFFF
(0.0) can0 217#767C0EC08DFD
(0.0) can0 1E1#0000FFFF00000000
(0.0) can0 208#0080651E1E002D
(0.0) can0 211#FFFFFFFFFFFFFFFF
(0.0) can0 20B#0100
(0.0) can0 286#0338C0000000
(0.0) can0 2EB#720000FF
(0.0) can0 2CE#FFFF00000000C03F
(0.0) can0 211#FFFFFFFFFFFFFFFF
(0.0) can0 214#2BE25200176D00
(0.0) can0 2EB#720000FF
(0.0) can0 2A8#000000000000
(0.0) can0 416#FD3EBFFFFFFFFFFF
(0.0) can0 217#767C0EC08CFD
(0.0) can0 1E1#0000FFFF00000000
(0.0) can0 208#0080651E1E002D
(0.0) can0 211#FFFFFFFFFFFFFFFF
(0.0) can0 20B#0100
(0.0) can0 286#0338C0000000
(0.0) can0 2EB#720000FF
(0.0) can0 2CE#FFFF00000000C03F
(0.0) can0 211#FFFFFFFFFFFFFFFF
(0.0) can0 214#2BE25200176D00
(0.0) can0 2EB#720000FF
(0.0) can0 43E#FD02BFFFFFFFFFFF
(0.0) can0 2A8#000000000000
(0.0) can0 2DE#019B000000000000
(0.0) can0 142#FF0000000000
(0.0) can0 1E1#0000FFFF00000000
(0.0) can0 249#001002C04A08
(0.0) can0 1E7#7000000000000000
(0.0) can0 221#010000000000
(0.0) can0 2D3#010E180200000000
(0.0) can0 1A5#3F00FFFFFF007800
(0.0) can0 208#0080651E1E002D
(0.0) can0 217#767C0EC08CFD
(0.0) can0 211#FFFFFFFFFFFFFFFF
(0.0) can0 20B#0100
(0.0) can0 2D6#0100000000000000
(0.0) can0 283#0000000000000000
(0.0) can0 292#FFFFFF0000FFFF
(0.0) can0 2DD#05000000
(0.0) can0 2DB#E507401C00000105
(0.0) can0 286#0338C0000000
(0.0) can0 2EB#720000FF
(0.0) can0 348#0FFF0FFF00000000
(0.0) can0 2D2#000300
(0.0) can0 2CE#FFFF00000000C03F
(0.0) can0 3D9#000A0A0A0A0AFF
(0.0) can0 211#FFFFFFFFFFFFFFFF
(0.0) can0 20E#930547C0FFFF0C
(0.0) can0 3B3#00FFFFFF00FFFFFF
(0.0) can0 244#01000B0480
(0.0) can0 21D#4111297562E52E81
(0.0) can0 3B0#1D3000001D300000
(0.0) can0 214#2BE25200176D00
(0.0) can0 2E5#00
(0.0) can0 21E#390014116B9E809E
(0.0) can0 308#110000
(0.0) can0 3A3#000000000000
(0.0) can0 392#0C00000000000000
(0.0) can0 2EB#720000FF
(0.0) can0 21F#0100500000000040
(0.0) can0 402#FD143FFFFFFFFFFF
(0.0) can0 2E9#00000000
(0.0) can0 2A8#000000000000
(0.0) can0 25F#C17DA80E0000
(0.0) can0 293#1000000000FFFFFF
(0.0) can0 2E1#00
(0.0) can0 217#767C0EC08DFD
(0.0) can0 1E1#0000FFFF00000000
(0.0) can0 208#0080651E1E002D
(0.0) can0 211#FFFFFFFFFFFFFFFF
(0.0) can0 291#1D0D0530000007
(0.0) can0 2E3#000000
(0.0) can0 20B#0100
(0.0) can0 290#0116010F07000000
(0.0) can0 21B#1F0000000034001F
(0.0) can0 286#0338C0000000
(0.0) can0 270#0000
(0.0) can0 2EB#720000FF
(0.0) can0 2B0#02000000
(0.0) can0 2CE#FFFF00000000C03F
(0.0) can0 2E7#001C000000000000
(0.0) can0 211#FFFFFFFFFFFFFFFF
(0.0) can0 214#2BE25200176D00
(0.0) can0 414#FD16BFFFFFFFFFFF
(0.0) can0 2EB#720000FF
(0.0) can0 2A8#000000000000
(0.0) can0 217#767C0EC08CFD
(0.0) can0 1E1#0000FFFF00000000
(0.0) can0 208#0080651E1E002D
(0.0) can0 211#FFFFFFFFFFFFFFFF
(0.0) can0 20B#0100
(0.0) can0 286#0338C0000000
(0.0) can0 2EB#720000FF
(0.0) can0 2CE#FFFF00000000C03F
(0.0) can0 211#FFFFFFFFFFFFFFFF
(0.0) can0 214#2BE25200176D00
(0.0) can0 416#FD3EBFFFFFFFFFFF
(0.0) can0 2EB#720000FF
(0.0) can0 2A8#000000000000
(0.0) can0 217#767C0EC08CFD
(0.0) can0 1E1#0000FFFF00000000
(0.0) can0 208#0080651E1E002D
(0.0) can0 211#FFFFFFFFFFFFFFFF
(0.0) can0 20B#0100
(0.0) can0 286#0338C0000000
(0.0) can0 2EB#720000FF
(0.0) can0 2CE#FFFF00000000C03F
(0.0) can0 211#FFFFFFFFFFFFFFFF
(0.0) can0 43E#FD02BFFFFFFFFFFF
(0.0) can0 214#2BE25200176D00
(0.0) can0 2EB#720000FF
(0.0) can0 2A8#000000000000
(0.0) can0 217#767C0EC08CFD
(0.0) can0 1E1#0000FFFF00000000
(0.0) can0 208#0080651E1E002D
(0.0) can0 211#FFFFFFFFFFFFFFFF
(0.0) can0 20B#0100
(0.0) can0 286#0338C0000000
(0.0) can0 2EB#720000FF
(0.0) can0 2CE#FFFF00000000C03F
(0.0) can0 211#FFFFFFFFFFFFFFFF
(0.0) can0 402#FD143FFFFFFFFFFF
(0.0) can0 214#2BE25200176D00
(0.0) can0 2EB#720000FF
(0.0) can0 2A8#000000000000
(0.0) can0 3E9#9E01
(0.0) can0 292#FFFFFF0000FFFF
(0.0) can0 1E1#0000FFFF00000000
(0.0) can0 208#0080651E1E002D
(0.0) can0 217#767C0EC08CFD
(0.0) can0 211#FFFFFFFFFFFFFFFF
(0.0) can0 20B#0100
(0.0) can0 286#0338C0000000
(0.0) can0 2EB#720000FF
(0.0) can0 348#0FFF0FFF00000000
(0.0) can0 2CE#FFFF00000000C03F
(0.0) can0 211#FFFFFFFFFFFFFFFF
(0.0) can0 20E#930547C0FFFF0C
(0.0) can0 414#FD16BFFFFFFFFFFF
(0.0) can0 244#01000B0480
(0.0) can0 214#2BE25200176D00
(0.0) can0 308#110000
(0.0) can0 3A3#000000000000
(0.0) can0 2EB#720000FF
(0.0) can0 2A8#000000000000
(0.0) can0 2E1#00
(0.0) can0 217#767C0EC08CFD
(0.0) can0 1E1#0000FFFF00000000
(0.0) can0 208#0080651E1E002D
(0.0) can0 211#FFFFFFFFFFFFFFFF
(0.0) can0 2E3#000000
(0.0) can0 20B#0100
(0.0) can0 286#0338C0000000
(0.0) can0 2EB#720000FF
(0.0) can0 2CE#FFFF00000000C03F
(0.0) can0 211#FFFFFFFFFFFFFFFF
(0.0) can0 416#FD3EBFFFFFFFFFFF
(0.0) can0 214#2BE25200176D00
(0.0) can0 2EB#720000FF
(0.0) can0 2A8#000000000000
(0.0) can0 217#767C0EC08CFD
(0.0) can0 1E1#0000FFFF00000000
(0.0) can0 208#0080651E1E002D
(0.0) can0 211#FFFFFFFFFFFFFFFF
(0.0) can0 20B#0100
(0.0) can0 286#0338C0000000
(0.0) can0 2EB#720000FF
(0.0) can0 2CE#FFFF00000000C03F
(0.0) can0 2D9#80C227C427C0FF
(0.0) can0 3E6#0E211B
(0.0) can0 43E#FD02BFFFFFFFFFFF
(0.0) can0 211#FFFFFFFFFFFFFFFF
(0.0) can0 214#2BE25200176D00
(0.0) can0 2EB#720000FF
(0.0) can0 2A8#000000000000
(0.0) can0 217#767C0EC08CFD
(0.0) can0 1E1#0000FFFF00000000
(0.0) can0 208#0080651E1E002D
(0.0) can0 211#FFFFFFFFFFFFFFFF
(0.0) can0 20B#0100
(0.0) can0 286#0338C0000000
(0.0) can0 2EB#720000FF
(0.0) can0 2CE#FFFF00000000C03F
(0.0) can0 402#FD143FFFFFFFFFFF
(0.0) can0 211#FFFFFFFFFFFFFFFF
(0.0) can0 214#2BE25200176D00
(0.0) can0 2EB#720000FF
(0.0) can0 2A8#000000000000
(0.0) can0 217#767C0EC08CFD
(0.0) can0 1E1#0000FFFF00000000
(0.0) can0 208#0080651E1E002D
(0.0) can0 211#FFFFFFFFFFFFFFFF
(0.0) can0 20B#0100
(0.0) can0 286#0338C0000000
(0.0) can0 2EB#720000FF
(0.0) can0 414#FD16BFFFFFFFFFFF
(0.0) can0 2CE#FFFF00000000C03F
(0.0) can0 211#FFFFFFFFFFFFFFFF
(0.0) can0 214#2BE25200176D00
(0.0) can0 2EB#720000FF
(0.0) can0 2A8#000000000000
(0.0) can0 292#FFFFFF0000FFFF
(0.0) can0 142#FF0000000000
(0.0) can0 1E1#0000FFFF00000000
(0.0) can0 249#001002C04A08
(0.0) can0 1E7#7000000000000000
(0.0) can0 1A5#3F00FFFFFF007800
(0.0) can0 208#0080651E1E002D
(0.0) can0 217#767C0EC08CFD
(0.0) can0 211#FFFFFFFFFFFFFFFF
(0.0) can0 283#0000000000000000
(0.0) can0 20B#0100
(0.0) can0 286#0338C0000000
(0.0) can0 2EB#720000FF
(0.0) can0 348#0FFF0FFF00000000
(0.0) can0 2D2#000300
(0.0) can0 416#FD3EBFFFFFFFFFFF
(0.0) can0 2CE#FFFF00000000C03F
(0.0) can0 3D9#000A0A0A0A0AFF
(0.0) can0 211#FFFFFFFFFFFFFFFF
(0.0) can0 20E#930547C0FFFF0C
(0.0) can0 3B3#00FFFFFF00FFFFFF
(0.0) can0 244#01000B0480
(0.0) can0 3B0#1D3000001D300000
(0.0) can0 214#2BE25200176D00
(0.0) can0 308#110000
(0.0) can0 3A3#000000000000
(0.0) can0 392#0C00000000000000
(0.0) can0 2EB#720000FF
(0.0) can0 2E9#00000000
(0.0) can0 2A8#000000000000
(0.0) can0 293#1000000000FFFFFF
(0.0) can0 2E1#00
(0.0) can0 217#767C0EC08CFD
(0.0) can0 1E1#0000FFFF00000000
(0.0) can0 208#0080651E1E002D
(0.0) can0 211#FFFFFFFFFFFFFFFF
(0.0) can0 291#1D0D0530000007
(0.0) can0 2E3#000000
(0.0) can0 20B#0100
(0.0) can0 290#0116010F07000000
(0.0) can0 21B#1F0000000034001F
(0.0) can0 286#0338C0000000
(0.0) can0 270#0000
(0.0) can0 43E#FD02BFFFFFFFFFFF
(0.0) can0 2EB#720000FF
(0.0) can0 2B0#02000000
(0.0) can0 2CE#FFFF00000000C03F
(0.0) can0 2E7#001C000000000000
(0.0) can0 211#FFFFFFFFFFFFFFFF
(0.0) can0 214#2BE25200176D00
(0.0) can0 2EB#720000FF
(0.0) can0 2A8#000000000000
(0.0) can0 217#767C0EC08CFD
(0.0) can0 1E1#0000FFFF00000000
(0.0) can0 208#0080651E1E002D
(0.0) can0 211#FFFFFFFFFFFFFFFF
(0.0) can0 20B#0100
(0.0) can0 286#0338C0000000
(0.0) can0 402#FD143FFFFFFFFFFF
(0.0) can0 2EB#720000FF
(0.0) can0 2CE#FFFF00000000C03F
(0.0) can0 211#FFFFFFFFFFFFFFFF
(0.0) can0 214#2BE25200176D00
(0.0) can0 2EB#720000FF
(0.0) can0 2A8#000000000000
(0.0) can0 217#767C0EC08CFD
(0.0) can0 1E1#0000FFFF00000000
(0.0) can0 208#0080651E1E002D
(0.0) can0 211#FFFFFFFFFFFFFFFF
(0.0) can0 20B#0100
(0.0) can0 414#FD16BFFFFFFFFFFF
(0.0) can0 286#0338C0000000
(0.0) can0 2EB#720000FF
(0.0) can0 2CE#FFFF00000000C03F
(0.0) can0 211#FFFFFFFFFFFFFFFF
(0.0) can0 214#2BE25200176D00
(0.0) can0 2EB#720000FF
(0.0) can0 2A8#000000000000
(0.0) can0 217#767C0EC08CFD
(0.0) can0 1E1#0000FFFF00000000
(0.0) can0 208#0080651E1E002D
(0.0) can0 211#FFFFFFFFFFFFFFFF
(0.0) can0 20B#0100
(0.0) can0 416#FD3EBFFFFFFFFFFF
(0.0) can0 286#0338C0000000
(0.0) can0 2EB#720000FF
(0.0) can0 2CE#FFFF00000000C03F
(0.0) can0 211#FFFFFFFFFFFFFFFF
(0.0) can0 214#2BE25200176D00
(0.0) can0 2EB#720000FF
(0.0) can0 2A8#000000000000
(0.0) can0 292#FFFFFF0000FFFF
(0.0) can0 1E1#0000FFFF00000000
(0.0) can0 208#0080651E1E002D
(0.0) can0 217#767C0EC08CFD
(0.0) can0 211#FFFFFFFFFFFFFFFF
(0.0) can0 43E#FD02BFFFFFFFFFFF
(0.0) can0 20B#0100
(0.0) can0 286#0338C0000000
(0.0) can0 2EB#720000FF
(0.0) can0 348#0FFF0FFF00000000
(0.0) can0 2CE#FFFF00000000C03F
(0.0) can0 211#FFFFFFFFFFFFFFFF
(0.0) can0 20E#930547C0FFFF0C
(0.0) can0 244#01000B0480
(0.0) can0 214#2BE25200176D00
(0.0) can0 308#110000
(0.0) can0 3A3#000000000000
(0.0) can0 2EB#720000FF
(0.0) can0 2A8#000000000000
(0.0) can0 2E1#00
(0.0) can0 217#767C0EC08CFD
(0.0) can0 1E1#0000FFFF00000000
(0.0) can0 208#0080651E1E002D
(0.0) can0 211#FFFFFFFFFFFFFFFF
(0.0) can0 402#FD143FFFFFFFFFFF
(0.0) can0 2E3#000000
(0.0) can0 20B#0100
(0.0) can0 286#0338C0000000
(0.0) can0 2EB#720000FF
(0.0) can0 2CE#FFFF00000000C03F
(0.0) can0 211#FFFFFFFFFFFFFFFF
(0.0) can0 214#2BE25200176D00
(0.0) can0 2EB#720000FF
(0.0) can0 2A8#000000000000
(0.0) can0 414#FD16BFFFFFFFFFFF
(0.0) can0 217#767C0EC08CFD
(0.0) can0 1E1#0000FFFF00000000
(0.0) can0 208#0080651E1E002D
(0.0) can0 211#FFFFFFFFFFFFFFFF
(0.0) can0 20B#0100
(0.0) can0 286#0338C0000000
(0.0) can0 2EB#720000FF
(0.0) can0 2D9#80C227C427C0FF
(0.0) can0 3E6#0E211C
(0.0) can0 2CE#FFFF00000000C03F
(0.0) can0 211#FFFFFFFFFFFFFFFF
(0.0) can0 214#2BE25200176D00
(0.0) can0 2EB#720000FF
(0.0) can0 2A8#000000000000
(0.0) can0 416#FD3EBFFFFFFFFFFF
(0.0) can0 217#767C0EC08CFD
(0.0) can0 1E1#0000FFFF00000000
(0.0) can0 208#0080651E1E002D
(0.0) can0 211#FFFFFFFFFFFFFFFF
(0.0) can0 20B#0100
(0.0) can0 286#0338C0000000
(0.0) can0 2EB#720000FF
(0.0) can0 2CE#FFFF00000000C03F
(0.0) can0 211#FFFFFFFFFFFFFFFF
(0.0) can0 214#2BE25200176D00
(0.0) can0 2EB#720000FF
(0.0) can0 2A8#000000000000
(0.0) can0 43E#FD02BFFFFFFFFFFF
(0.0) can0 217#767C0EC08CFD
(0.0) can0 1E1#0000FFFF00000000
(0.0) can0 208#0080651E1E002D
(0.0) can0 211#FFFFFFFFFFFFFFFF
(0.0) can0 20B#0100
(0.0) can0 286#0338C0000000
(0.0) can0 2EB#720000FF
(0.0) can0 2CE#FFFF00000000C03F
(0.0) can0 211#FFFFFFFFFFFFFFFF
(0.0) can0 214#2BE25200176D00
(0.0) can0 2EB#720000FF
(0.0) can0 402#FD143FFFFFFFFFFF
(0.0) can0 2A8#000000000000
(0.0) can0 2DF#0E9203E80FA00A7A
(0.0) can0 3E9#9E01
(0.0) can0 142#FF0000000000
(0.0) can0 1E1#0000FFFF00000000
(0.0) can0 249#001002C04A08
(0.0) can0 1E7#7000000000000000
(0.0) can0 221#010000000000
(0.0) can0 2D3#010E180200000000
(0.0) can0 1A5#3F00FFFFFF007800
(0.0) can0 208#0080651E1E002D
(0.0) can0 217#767C0EC08CFD
(0.0) can0 211#FFFFFFFFFFFFFFFF
(0.0) can0 20B#0100
(0.0) can0 2D6#0100000000000000
(0.0) can0 283#0000000000000000
(0.0) can0 292#FFFFFF0000FFFF
(0.0) can0 2DA#61119BA0FFFF
(0.0) can0 2DD#05000000
(0.0) can0 2DE#019B000000000000
(0.0) can0 2DB#E507401C00000105
(0.0) can0 286#0338C0000000
(0.0) can0 2EB#720000FF
(0.0) can0 348#0FFF0FFF00000000
(0.0) can0 2D2#000300
(0.0) can0 2CE#FFFF00000000C03F
(0.0) can0 3D9#000A0A0A0A0AFF
(0.0) can0 211#FFFFFFFFFFFFFFFF
(0.0) can0 20E#930547C0FFFF0C
(0.0) can0 3B3#00FFFFFF00FFFFFF
(0.0) can0 244#01000B0480
(0.0) can0 21D#4111297562E52E81
(0.0) can0 3B0#1D3000001D300000
(0.0) can0 214#2BE25200176D00
(0.0) can0 2E5#00
(0.0) can0 308#110000
(0.0) can0 21E#390014116B9E809E
(0.0) can0 3A3#000000000000
(0.0) can0 392#0C00000000000000
(0.0) can0 414#FD16BFFFFFFFFFFF
(0.0) can0 2EB#720000FF
(0.0) can0 21F#0100500000000040
(0.0) can0 2E9#00000000
(0.0) can0 2A8#000000000000
(0.0) can0 25F#C17DA80E0000
(0.0) can0 293#1000000000FFFFFF
(0.0) can0 2E1#00
(0.0) can0 217#767C0EC08CFD
(0.0) can0 1E1#0000FFFF00000000
(0.0) can0 208#0080651E1E002D
(0.0) can0 211#FFFFFFFFFFFFFFFF
(0.0) can0 291#1D0D0530000007
(0.0) can0 2E3#000000
(0.0) can0 20B#0100
(0.0) can0 290#0116010F07000000
(0.0) can0 21B#1F0000000034001F
(0.0) can0 286#0338C0000000
(0.0) can0 270#0000
(0.0) can0 2EB#720000FF
(0.0) can0 2B0#02000000
(0.0) can0 2CE#FFFF00000000C03F
(0.0) can0 2E7#001C000000000000
(0.0) can0 211#FFFFFFFFFFFFFFFF
(0.0) can0 214#2BE25200176D00
(0.0) can0 416#FD3EBFFFFFFFFFFF
(0.0) can0 2EB#720000FF
(0.0) can0 2A8#000000000000
(0.0) can0 217#767C0EC08CFD
(0.0) can0 1E1#0000FFFF00000000
(0.0) can0 208#0080651E1E002D
(0.0) can0 211#FFFFFFFFFFFFFFFF
(0.0) can0 20B#0100
(0.0) can0 286#0338C0000000
(0.0) can0 2EB#720000FF
(0.0) can0 2CE#FFFF00000000C03F
(0.0) can0 211#FFFFFFFFFFFFFFFF
(0.0) can0 214#2BE25200176D00
(0.0) can0 43E#FD02BFFFFFFFFFFF
(0.0) can0 2EB#720000FF
(0.0) can0 2A8#000000000000
(0.0) can0 217#767C0EC08CFD
(0.0) can0 1E1#0000FFFF00000000
(0.0) can0 208#0080651E1E002D
(0.0) can0 211#FFFFFFFFFFFFFFFF
(0.0) can0 20B#0100
(0.0) can0 286#0338C0000000
(0.0) can0 2EB#720000FF
(0.0) can0 2CE#FFFF00000000C03F
(0.0) can0 211#FFFFFFFFFFFFFFFF
(0.0) can0 402#FD143FFFFFFFFFFF
(0.0) can0 214#2BE25200176D00
(0.0) can0 2EB#720000FF
(0.0) can0 2A8#000000000000
(0.0) can0 217#767C0EC08CFD
(0.0) can0 1E1#0000FFFF00000000
(0.0) can0 208#0080651E1E002D
(0.0) can0 211#FFFFFFFFFFFFFFFF
(0.0) can0 20B#0100
(0.0) can0 286#0338C0000000
(0.0) can0 2EB#720000FF
(0.0) can0 2CE#FFFF00000000C03F
(0.0) can0 211#FFFFFFFFFFFFFFFF
(0.0) can0 414#FD16BFFFFFFFFFFF
(0.0) can0 214#2BE25200176D00
(0.0) can0 2EB#720000FF
(0.0) can0 2A8#000000000000
(0.0) can0 292#FFFFFF0000FFFF
(0.0) can0 1E1#0000FFFF00000000
(0.0) can0 208#0080651E1E002D
(0.0) can0 217#767C0EC08CFD
(0.0) can0 211#FFFFFFFFFFFFFFFF
(0.0) can0 20B#0100
(0.0) can0 286#0338C0000000
(0.0) can0 2EB#720000FF
(0.0) can0 348#0FFF0FFF00000000
(0.0) can0 2CE#FFFF00000000C03F
(0.0) can0 211#FFFFFFFFFFFFFFFF
(0.0) can0 20E#930547C0FFFF0C
(0.0) can0 416#FD3EBFFFFFFFFFFF
(0.0) can0 244#01000B0480
(0.0) can0 214#2BE25200176D00
(0.0) can0 308#110000
(0.0) can0 3A3#000000000000
(0.0) can0 2EB#720000FF
(0.0) can0 2A8#000000000000
(0.0) can0 2E1#00
(0.0) can0 217#767C0EC08CFD
(0.0) can0 1E1#0000FFFF00000000
(0.0) can0 208#0080651E1E002D
(0.0) can0 211#FFFFFFFFFFFFFFFF
(0.0) can0 2E3#000000
(0.0) can0 20B#0100
(0.0) can0 286#0338C0000000
(0.0) can0 2EB#720000FF
(0.0) can0 2CE#FFFF00000000C03F
(0.0) can0 211#FFFFFFFFFFFFFFFF
(0.0) can0 43E#FD02BFFFFFFFFFFF
(0.0) can0 214#2BE25200176D00
(0.0) can0 2EB#720000FF
(0.0) can0 2A8#000000000000
(0.0) can0 217#767C0EC08CFD
(0.0) can0 1E1#0000FFFF00000000
(0.0) can0 208#0080651E1E002D
(0.0) can0 211#FFFFFFFFFFFFFFFF
(0.0) can0 20B#0100
(0.0) can0 286#0338C0000000
(0.0) can0 2EB#720000FF
(0.0) can0 2D9#80C227C427C0FF
(0.0) can0 3E6#0E211D
(0.0) can0 2CE#FFFF00000000C03F
(0.0) can0 402#FD143FFFFFFFFFFF
(0.0) can0 211#FFFFFFFFFFFFFFFF
(0.0) can0 214#2BE25200176D00
(0.0) can0 2EB#720000FF
(0.0) can0 2A8#000000000000
(0.0) can0 217#767C0EC08CFD
(0.0) can0 1E1#0000FFFF00000000
(0.0) can0 208#0080651E1E002D
(0.0) can0 211#FFFFFFFFFFFFFFFF
(0.0) can0 20B#0100
(0.0) can0 286#0338C0000000
(0.0) can0 2EB#720000FF
(0.0) can0 414#FD16BFFFFFFFFFFF
(0.0) can0 2CE#FFFF00000000C03F
(0.0) can0 211#FFFFFFFFFFFFFFFF
(0.0) can0 214#2BE25200176D00
(0.0) can0 2EB#720000FF
(0.0) can0 2A8#000000000000
(0.0) can0 217#767C0EC08CFD
(0.0) can0 1E1#0000FFFF00000000
(0.0) can0 208#0080651E1E002D
(0.0) can0 211#FFFFFFFFFFFFFFFF
(0.0) can0 20B#0100
(0.0) can0 286#0338C0000000
(0.0) can0 2EB#720000FF
(0.0) can0 416#FD3EBFFFFFFFFFFF
(0.0) can0 2CE#FFFF00000000C03F
(0.0) can0 211#FFFFFFFFFFFFFFFF
(0.0) can0 214#2BE25200176D00
(0.0) can0 2EB#720000FF
(0.0) can0 2A8#000000000000
(0.0) can0 292#FFFFFF0000FFFF
(0.0) can0 142#FF0000000000
(0.0) can0 1E1#0000FFFF00000000
(0.0) can0 249#001002C04A08
(0.0) can0 1E7#7000000000000000
(0.0) can0 1A5#3F00FFFFFF007800
(0.0) can0 208#0080651E1E002D
(0.0) can0 217#767C0EC08CFD
(0.0) can0 211#FFFFFFFFFFFFFFFF
(0.0) can0 283#0000000000000000
(0.0) can0 20B#0100
(0.0) can0 286#0338C0000000
(0.0) can0 2EB#720000FF
(0.0) can0 348#0FFF0FFF00000000
(0.0) can0 2D2#000300
(0.0) can0 43E#FD02BFFFFFFFFFFF
(0.0) can0 2CE#FFFF00000000C03F
(0.0) can0 3D9#000A0A0A0A0AFF
(0.0) can0 211#FFFFFFFFFFFFFFFF
(0.0) can0 20E#930547C0FFFF0C
(0.0) can0 3B3#00FFFFFF00FFFFFF
(0.0) can0 244#01000B0480
(0.0) can0 3B0#1D3000001D300000
(0.0) can0 214#2BE25200176D00
(0.0) can0 308#110000
(0.0) can0 3A3#000000000000
(0.0) can0 392#0C00000000000000
(0.0) can0 2EB#720000FF
(0.0) can0 2E9#00000000
(0.0) can0 2A8#000000000000
(0.0) can0 293#1000000000FFFFFF
(0.0) can0 2E1#00
(0.0) can0 217#767C0EC08CFD
(0.0) can0 1E1#0000FFFF00000000
(0.0) can0 208#0080651E1E002D
(0.0) can0 211#FFFFFFFFFFFFFFFF
(0.0) can0 291#1D0D0530000007
(0.0) can0 2E3#000000
(0.0) can0 20B#0100
(0.0) can0 290#0116010F07000000
(0.0) can0 21B#1F0000000034001F
(0.0) can0 286#0338C0000000
(0.0) can0 402#FD143FFFFFFFFFFF
(0.0) can0 270#0000
(0.0) can0 2EB#720000FF
(0.0) can0 2B0#02000000
(0.0) can0 2CE#FFFF00000000C03F
(0.0) can0 2E7#001C000000000000
(0.0) can0 211#FFFFFFFFFFFFFFFF
(0.0) can0 214#2BE25200176D00
(0.0) can0 2EB#720000FF
(0.0) can0 2A8#000000000000
(0.0) can0 217#767C0EC08CFD
(0.0) can0 1E1#0000FFFF00000000
(0.0) can0 208#0080651E1E002D
(0.0) can0 211#FFFFFFFFFFFFFFFF
(0.0) can0 20B#0100
(0.0) can0 414#FD16BFFFFFFFFFFF
(0.0) can0 286#0338C0000000
(0.0) can0 2EB#720000FF
(0.0) can0 2CE#FFFF00000000C03F
(0.0) can0 211#FFFFFFFFFFFFFFFF
(0.0) can0 214#2BE25200176D00
(0.0) can0 2EB#720000FF
(0.0) can0 2A8#000000000000
(0.0) can0 217#767C0EC08CFD
(0.0) can0 1E1#0000FFFF00000000
(0.0) can0 208#0080651E1E002D
(0.0) can0 211#FFFFFFFFFFFFFFFF
(0.0) can0 20B#0100
(0.0) can0 416#FD3EBFFFFFFFFFFF
(0.0) can0 286#0338C0000000
(0.0) can0 2EB#720000FF
(0.0) can0 2CE#FFFF00000000C03F
(0.0) can0 211#FFFFFFFFFFFFFFFF
(0.0) can0 214#2BE25200176D00
(0.0) can0 2EB#720000FF
(0.0) can0 2A8#000000000000
(0.0) can0 217#767C0EC08CFD
(0.0) can0 1E1#0000FFFF00000000
(0.0) can0 208#0080651E1E002D
(0.0) can0 211#FFFFFFFFFFFFFFFF
(0.0) can0 20B#0100
(0.0) can0 43E#FD02BFFFFFFFFFFF
(0.0) can0 286#0338C0000000
(0.0) can0 2EB#720000FF
(0.0) can0 2CE#FFFF00000000C03F
(0.0) can0 211#FFFFFFFFFFFFFFFF
(0.0) can0 214#2BE25200176D00
(0.0) can0 2EB#720000FF
(0.0) can0 2A8#000000000000
(0.0) can0 292#FFFFFF0000FFFF
(0.0) can0 1E1#0000FFFF00000000
(0.0) can0 208#0080651E1E002D
(0.0) can0 3E9#9E01
(0.0) can0 217#767C0EC08CFD
(0.0) can0 211#FFFFFFFFFFFFFFFF
(0.0) can0 402#FD143FFFFFFFFFFF
(0.0) can0 20B#0100
(0.0) can0 286#0338C0000000
(0.0) can0 2EB#720000FF
(0.0) can0 348#0FFF0FFF00000000
(0.0) can0 2CE#FFFF00000000C03F
(0.0) can0 211#FFFFFFFFFFFFFFFF
(0.0) can0 20E#930547C0FFFF0C
(0.0) can0 244#01000B0480
(0.0) can0 214#2BE25200176D00
(0.0) can0 308#110000
(0.0) can0 3A3#000000000000
(0.0) can0 2EB#720000FF
(0.0) can0 2A8#000000000000
(0.0) can0 414#FD16BFFFFFFFFFFF
(0.0) can0 2E1#00
(0.0) can0 217#767C0EC08CFD
(0.0) can0 1E1#0000FFFF00000000
(0.0) can0 208#0080651E1E002D
(0.0) can0 211#FFFFFFFFFFFFFFFF
(0.0) can0 2E3#000000
(0.0) can0 20B#0100
(0.0) can0 286#0338C0000000
(0.0) can0 2EB#720000FF
(0.0) can0 2CE#FFFF00000000C03F
(0.0) can0 211#FFFFFFFFFFFFFFFF
(0.0) can0 214#2BE25200176D00
(0.0) can0 2EB#720000FF
(0.0) can0 2A8#000000000000
(0.0) can0 416#FD3EBFFFFFFFFFFF
(0.0) can0 217#767C0EC08CFD
(0.0) can0 1E1#0000FFFF00000000
(0.0) can0 208#0080651E1E002D
(0.0) can0 211#FFFFFFFFFFFFFFFF
(0.0) can0 20B#0100
(0.0) can0 286#0338C0000000
(0.0) can0 2EB#720000FF
(0.0) can0 2D9#80C227C427C0FF
(0.0) can0 3E6#0E211E
(0.0) can0 2CE#FFFF00000000C03F
(0.0) can0 211#FFFFFFFFFFFFFFFF
(0.0) can0 214#2BE25200176D00
(0.0) can0 2EB#720000FF
(0.0) can0 2A8#000000000000
(0.0) can0 43E#FD02BFFFFFFFFFFF
(0.0) can0 217#767C0EC08CFD
(0.0) can0 1E1#0000FFFF00000000
(0.0) can0 208#0080651E1E002D
(0.0) can0 211#FFFFFFFFFFFFFFFF
(0.0) can0 20B#0100
(0.0) can0 286#0338C0000000
(0.0) can0 2EB#720000FF
(0.0) can0 2CE#FFFF00000000C03F
(0.0) can0 211#FFFFFFFFFFFFFFFF
(0.0) can0 214#2BE25200176D00
(0.0) can0 2EB#720000FF
(0.0) can0 402#FD143FFFFFFFFFFF
(0.0) can0 2A8#000000000000
(0.0) can0 217#767C0EC08CFD
(0.0) can0 1E1#0000FFFF00000000
(0.0) can0 208#0080651E1E002D
(0.0) can0 211#FFFFFFFFFFFFFFFF
(0.0) can0 20B#0100
(0.0) can0 286#0338C0000000
(0.0) can0 2EB#720000FF
(0.0) can0 2CE#FFFF00000000C03F
(0.0) can0 211#FFFFFFFFFFFFFFFF
(0.0) can0 214#2BE25200176D00
(0.0) can0 414#FD16BFFFFFFFFFFF
(0.0) can0 2EB#720000FF
(0.0) can0 2A8#000000000000
(0.0) can0 2DE#019B000000000000
(0.0) can0 142#FF0000000000
(0.0) can0 1E1#0000FFFF00000000
(0.0) can0 249#001002C04A08
(0.0) can0 1E7#7000000000000000
(0.0) can0 221#010000000000
(0.0) can0 2D3#010E180200000000
(0.0) can0 1A5#3F00FFFFFF007800
(0.0) can0 208#0080651E1E002D
(0.0) can0 217#767C0EC08CFD
(0.0) can0 211#FFFFFFFFFFFFFFFF
(0.0) can0 20B#0100
(0.0) can0 2D6#0100000000000000
(0.0) can0 283#0000000000000000
(0.0) can0 292#FFFFFF0000FFFF
(0.0) can0 2DD#05000000
(0.0) can0 2DB#E507401C00000105
(0.0) can0 286#0338C0000000
(0.0) can0 2EB#720000FF
(0.0) can0 348#0FFF0FFF00000000
(0.0) can0 2D2#000300
(0.0) can0 2CE#FFFF00000000C03F
(0.0) can0 3D9#000A0A0A0A0AFF
(0.0) can0 211#FFFFFFFFFFFFFFFF
(0.0) can0 20E#930547C0FFFF0C
(0.0) can0 3B3#00FFFFFF00FFFFFF
(0.0) can0 244#01000B0480
(0.0) can0 21D#4111297562E52E81
(0.0) can0 214#2BE25200176D00
(0.0) can0 3B0#1D3000001D300000
(0.0) can0 2E5#00
(0.0) can0 308#110000
(0.0) can0 21E#390014116B9E809E
(0.0) can0 3A3#000000000000
(0.0) can0 2EB#720000FF
(0.0) can0 416#FD3EBFFFFFFFFFFF
(0.0) can0 21F#0100500000000040
(0.0) can0 2A8#000000000000
(0.0) can0 2E9#00000000
(0.0) can0 25F#C17DA80E0000
(0.0) can0 2E1#00
(0.0) can0 293#1000000000FFFFFF
(0.0) can0 217#767C0EC08CFD
(0.0) can0 1E1#0000FFFF00000000
(0.0) can0 208#0080651E1E002D
(0.0) can0 211#FFFFFFFFFFFFFFFF
(0.0) can0 2E3#000000
(0.0) can0 291#1D0D0530000007
(0.0) can0 20B#0100
(0.0) can0 21B#1F0000000034001F
(0.0) can0 290#0116010F07000000
(0.0) can0 286#0338C0000000
(0.0) can0 270#0000
(0.0) can0 392#0C00000000000000
(0.0) can0 2EB#720000FF
(0.0) can0 2B0#02000000
(0.0) can0 2CE#FFFF00000000C03F
(0.0) can0 2E7#001C000000000000
(0.0) can0 211#FFFFFFFFFFFFFFFF
(0.0) can0 214#2BE25200176D00
(0.0) can0 43E#FD02BFFFFFFFFFFF
(0.0) can0 2EB#720000FF
(0.0) can0 2A8#000000000000
(0.0) can0 217#767C0EC08CFD
(0.0) can0 1E1#0000FFFF00000000
(0.0) can0 208#0080651E1E002D
(0.0) can0 211#FFFFFFFFFFFFFFFF
(0.0) can0 20B#0100
(0.0) can0 286#0338C0000000
(0.0) can0 2EB#720000FF
(0.0) can0 2CE#FFFF00000000C03F
(0.0) can0 211#FFFFFFFFFFFFFFFF
(0.0) can0 402#FD143FFFFFFFFFFF
(0.0) can0 214#2BE25200176D00
(0.0) can0 2EB#720000FF
(0.0) can0 2A8#000000000000
(0.0) can0 217#767C0EC08CFD
(0.0) can0 1E1#0000FFFF00000000
(0.0) can0 208#0080651E1E002D
(0.0) can0 211#FFFFFFFFFFFFFFFF
(0.0) can0 20B#0100
(0.0) can0 286#0338C0000000
(0.0) can0 2EB#720000FF
(0.0) can0 2CE#FFFF00000000C03F
(0.0) can0 211#FFFFFFFFFFFFFFFF
(0.0) can0 414#FD16BFFFFFFFFFFF
(0.0) can0 214#2BE25200176D00
(0.0) can0 2EB#720000FF
(0.0) can0 2A8#000000000000
(0.0) can0 217#767C0EC08CFD
(0.0) can0 1E1#0000FFFF00000000
(0.0) can0 208#0080651E1E002D
(0.0) can0 211#FFFFFFFFFFFFFFFF
(0.0) can0 20B#0100
(0.0) can0 286#0338C0000000
(0.0) can0 2EB#720000FF
(0.0) can0 2CE#FFFF00000000C03F
(0.0) can0 211#FFFFFFFFFFFFFFFF
(0.0) can0 416#FD3EBFFFFFFFFFFF
(0.0) can0 214#2BE25200176D00
(0.0) can0 2EB#720000FF
(0.0) can0 2A8#000000000000
(0.0) can0 292#FFFFFF0000FFFF
(0.0) can0 1E1#0000FFFF00000000
(0.0) can0 208#0080651E1E002D
(0.0) can0 217#767C0EC08CFD
(0.0) can0 211#FFFFFFFFFFFFFFFF
(0.0) can0 20B#0100
(0.0) can0 286#0338C0000000
(0.0) can0 2EB#720000FF
(0.0) can0 348#0FFF0FFF00000000
(0.0) can0 2CE#FFFF00000000C03F
(0.0) can0 211#FFFFFFFFFFFFFFFF
(0.0) can0 20E#930547C0FFFF0C
(0.0) can0 43E#FD02BFFFFFFFFFFF
(0.0) can0 244#01000B0480
(0.0) can0 214#2BE25200176D00
(0.0) can0 308#110000
(0.0) can0 3A3#000000000000
(0.0) can0 2EB#720000FF
(0.0) can0 2A8#000000000000
(0.0) can0 2E1#00
(0.0) can0 217#767C0EC08CFD
(0.0) can0 1E1#0000FFFF00000000
(0.0) can0 208#0080651E1E002D
(0.0) can0 211#FFFFFFFFFFFFFFFF
(0.0) can0 2E3#000000
(0.0) can0 20B#0100
(0.0) can0 286#0338C0000000
(0.0) can0 2EB#720000FF
(0.0) can0 2CE#FFFF00000000C03F
(0.0) can0 402#FD143FFFFFFFFFFF
(0.0) can0 211#FFFFFFFFFFFFFFFF
(0.0) can0 214#2BE25200176D00
(0.0) can0 2EB#720000FF
(0.0) can0 2A8#000000000000
(0.0) can0 217#767C0EC08CFD
(0.0) can0 1E1#0000FFFF00000000
(0.0) can0 208#0080651E1E002D
(0.0) can0 211#FFFFFFFFFFFFFFFF
(0.0) can0 20B#0100
(0.0) can0 286#0338C0000000
(0.0) can0 2EB#720000FF
(0.0) can0 414#FD16BFFFFFFFFFFF
(0.0) can0 2D9#80C227C427C0FF
(0.0) can0 3E6#0E211F
(0.0) can0 2CE#FFFF00000000C03F
(0.0) can0 211#FFFFFFFFFFFFFFFF
(0.0) can0 214#2BE25200176D00
(0.0) can0 2EB#720000FF
(0.0) can0 2A8#000000000000
(0.0) can0 217#767C0EC08CFD
(0.0) can0 1E1#0000FFFF00000000
(0.0) can0 208#0080651E1E002D
(0.0) can0 211#FFFFFFFFFFFFFFFF
(0.0) can0 20B#0100
(0.0) can0 286#0338C0000000
(0.0) can0 2EB#720000FF
(0.0) can0 416#FD3EBFFFFFFFFFFF
(0.0) can0 2CE#FFFF00000000C03F
(0.0) can0 211#FFFFFFFFFFFFFFFF
(0.0) can0 214#2BE25200176D00
(0.0) can0 2EB#720000FF
(0.0) can0 2A8#000000000000
(0.0) can0 217#767C0EC08CFD
(0.0) can0 1E1#0000FFFF00000000
(0.0) can0 208#0080651E1E002D
(0.0) can0 211#FFFFFFFFFFFFFFFF
(0.0) can0 20B#0100
(0.0) can0 286#0338C0000000
(0.0) can0 2EB#720000FF
(0.0) can0 43E#FD02BFFFFFFFFFFF
(0.0) can0 2CE#FFFF00000000C03F
(0.0) can0 211#FFFFFFFFFFFFFFFF
(0.0) can0 214#2BE25200176D00
(0.0) can0 2EB#720000FF
(0.0) can0 2A8#000000000000
(0.0) can0 292#FFFFFF0000FFFF
(0.0) can0 142#FF0000000000
(0.0) can0 1E1#0000FFFF00000000
(0.0) can0 249#001002C04A08
(0.0) can0 1E7#7000000000000000
(0.0) can0 1A5#3F00FFFFFF007800
(0.0) can0 3E9#9E01
(0.0) can0 208#0080651E1E002D
(0.0) can0 217#767C0EC08CFD
(0.0) can0 211#FFFFFFFFFFFFFFFF
(0.0) can0 283#0000000000000000
(0.0) can0 20B#0100
(0.0) can0 286#0338C0000000
(0.0) can0 402#FD143FFFFFFFFFFF
(0.0) can0 2EB#720000FF
(0.0) can0 348#0FFF0FFF00000000
(0.0) can0 2D2#000300
(0.0) can0 2CE#FFFF00000000C03F
(0.0) can0 3D9#000A0A0A0A0AFF
(0.0) can0 211#FFFFFFFFFFFFFFFF
(0.0) can0 20E#930547C0FFFF0C
(0.0) can0 3B3#00FFFFFF00FFFFFF
(0.0) can0 244#01000B0480
(0.0) can0 214#2BE25200176D00
(0.0) can0 3B0#1D3000001D300000
(0.0) can0 308#110000
(0.0) can0 3A3#000000000000
(0.0) can0 2EB#720000FF
(0.0) can0 392#0C00000000000000
(0.0) can0 2A8#000000000000
(0.0) can0 2E9#00000000
(0.0) can0 2E1#00
(0.0) can0 293#1000000000FFFFFF
(0.0) can0 217#767C0EC08CFD
(0.0) can0 1E1#0000FFFF00000000
(0.0) can0 208#0080651E1E002D
(0.0) can0 211#FFFFFFFFFFFFFFFF
(0.0) can0 2E3#000000
(0.0) can0 291#1D0D0530000007
(0.0) can0 20B#0100
(0.0) can0 414#FD16BFFFFFFFFFFF
(0.0) can0 290#0116010F07000000
(0.0) can0 21B#1F0000000034001F
(0.0) can0 286#0338C0000000
(0.0) can0 270#0000
(0.0) can0 2EB#720000FF
(0.0) can0 2B0#02000000
(0.0) can0 2CE#FFFF00000000C03F
(0.0) can0 2E7#001C000000000000
(0.0) can0 211#FFFFFFFFFFFFFFFF
(0.0) can0 214#2BE25200176D00
(0.0) can0 2EB#720000FF
(0.0) can0 2A8#000000000000
(0.0) can0 217#767C0EC08CFD
(0.0) can0 1E1#0000FFFF00000000
(0.0) can0 208#0080651E1E002D
(0.0) can0 211#FFFFFFFFFFFFFFFF
(0.0) can0 20B#0100
(0.0) can0 416#FD3EBFFFFFFFFFFF
(0.0) can0 286#0338C0000000
(0.0) can0 2EB#720000FF
(0.0) can0 2CE#FFFF00000000C03F
(0.0) can0 211#FFFFFFFFFFFFFFFF
(0.0) can0 214#2BE25200176D00
(0.0) can0 2EB#720000FF
(0.0) can0 2A8#000000000000
(0.0) can0 217#767C0EC08CFD
(0.0) can0 1E1#0000FFFF00000000
(0.0) can0 208#0080651E1E002D
(0.0) can0 211#FFFFFFFFFFFFFFFF
(0.0) can0 20B#0100
(0.0) can0 43E#FD02BFFFFFFFFFFF
(0.0) can0 286#0338C0000000
(0.0) can0 2EB#720000FF
(0.0) can0 2CE#FFFF00000000C03F
(0.0) can0 211#FFFFFFFFFFFFFFFF
(0.0) can0 214#2BE25200176D00
(0.0) can0 2EB#720000FF
(0.0) can0 2A8#000000000000
(0.0) can0 217#767C0EC08CFD
(0.0) can0 1E1#0000FFFF00000000
(0.0) can0 208#0080651E1E002D
(0.0) can0 211#FFFFFFFFFFFFFFFF
(0.0) can0 402#FD143FFFFFFFFFFF
(0.0) can0 20B#0100
(0.0) can0 286#0338C0000000
(0.0) can0 2EB#720000FF
(0.0) can0 2CE#FFFF00000000C03F
(0.0) can0 211#FFFFFFFFFFFFFFFF
(0.0) can0 214#2BE25200176D00
(0.0) can0 2EB#720000FF
(0.0) can0 2A8#000000000000
(0.0) can0 414#FD16BFFFFFFFFFFF
(0.0) can0 292#FFFFFF0000FFFF
(0.0) can0 1E1#0000FFFF00000000
(0.0) can0 208#0080651E1E002D
(0.0) can0 217#767C0EC08CFD
(0.0) can0 211#FFFFFFFFFFFFFFFF
(0.0) can0 20B#0100
(0.0) can0 286#0338C0000000
(0.0) can0 2EB#720000FF
(0.0) can0 348#0FFF0FFF00000000
(0.0) can0 2CE#FFFF00000000C03F
(0.0) can0 211#FFFFFFFFFFFFFFFF
(0.0) can0 20E#930547C0FFFF0C
(0.0) can0 244#01000B0480
(0.0) can0 214#2BE25200176D00
(0.0) can0 308#110000
(0.0) can0 3A3#000000000000
(0.0) can0 2EB#720000FF
(0.0) can0 2A8#000000000000
(0.0) can0 2E1#00
(0.0) can0 416#FD3EBFFFFFFFFFFF
(0.0) can0 217#767C0EC08CFD
(0.0) can0 1E1#0000FFFF00000000
(0.0) can0 208#0080651E1E002D
(0.0) can0 211#FFFFFFFFFFFFFFFF
(0.0) can0 2E3#000000
(0.0) can0 20B#0100
(0.0) can0 286#0338C0000000
(0.0) can0 2EB#720000FF
(0.0) can0 2CE#FFFF00000000C03F
(0.0) can0 211#FFFFFFFFFFFFFFFF
(0.0) can0 214#2BE25200176D00
(0.0) can0 2EB#720000FF
(0.0) can0 2A8#000000000000
(0.0) can0 43E#FD02BFFFFFFFFFFF
(0.0) can0 217#767C0EC08CFD
(0.0) can0 1E1#0000FFFF00000000
(0.0) can0 208#0080651E1E002D
(0.0) can0 211#FFFFFFFFFFFFFFFF
(0.0) can0 20B#0100
(0.0) can0 286#0338C0000000
(0.0) can0 2EB#720000FF
(0.0) can0 2CE#FFFF00000000C03F
(0.0) can0 211#FFFFFFFFFFFFFFFF
(0.0) can0 214#2BE25200176D00
(0.0) can0 2EB#720000FF
(0.0) can0 402#FD143FFFFFFFFFFF
(0.0) can0 2A8#000000000000
(0.0) can0 217#767C0EC08CFD
(0.0) can0 1E1#0000FFFF00000000
(0.0) can0 208#0080651E1E002D
(0.0) can0 211#FFFFFFFFFFFFFFFF
(0.0) can0 20B#0100
(0.0) can0 286#0338C0000000
(0.0) can0 2EB#720000FF
(0.0) can0 2CE#FFFF00000000C03F
(0.0) can0 211#FFFFFFFFFFFFFFFF
(0.0) can0 214#2BE25200176D00
(0.0) can0 414#FD16BFFFFFFFFFFF
(0.0) can0 2EB#720000FF
(0.0) can0 2A8#000000000000
(0.0) can0 217#767C0EC08CFD
(0.0) can0 1E1#0000FFFF00000000
(0.0) can0 208#0080651E1E002D
(0.0) can0 211#FFFFFFFFFFFFFFFF
(0.0) can0 20B#0100
(0.0) can0 286#0338C0000000
(0.0) can0 2EB#720000FF
(0.0) can0 2CE#FFFF00000000C03F
(0.0) can0 211#FFFFFFFFFFFFFFFF
(0.0) can0 214#2BE25200176D00
(0.0) can0 2EB#720000FF
(0.0) can0 416#FD3EBFFFFFFFFFFF
(0.0) can0 2A8#000000000000
(0.0) can0 2DF#0E9203E80FA00A7A
(0.0) can0 142#FF0000000000
(0.0) can0 1E1#0000FFFF00000000
(0.0) can0 249#001002C04A08
(0.0) can0 1E7#7000000000000000
(0.0) can0 221#010000000000
(0.0) can0 2D3#010E180200000000
(0.0) can0 1A5#3F00FFFFFF007800
(0.0) can0 208#0080651E1E002D
(0.0) can0 217#767C0EC08CFD
(0.0) can0 211#FFFFFFFFFFFFFFFF
(0.0) can0 2D6#0100000000000000
(0.0) can0 20B#0100
(0.0) can0 283#0000000000000000
(0.0) can0 292#FFFFFF0000FFFF
(0.0) can0 2DA#61119BA0FFFF
(0.0) can0 2DD#05000000
(0.0) can0 2DE#019B000000000000
(0.0) can0 2DB#E507401C00000105
(0.0) can0 286#0338C0000000
(0.0) can0 2EB#720000FF
(0.0) can0 348#0FFF0FFF00000000
(0.0) can0 2D2#000300
(0.0) can0 2CE#FFFF00000000C03F
(0.0) can0 3D9#000A0A0A0A0AFF
(0.0) can0 211#FFFFFFFFFFFFFFFF
(0.0) can0 20E#930547C0FFFF0C
(0.0) can0 3B3#00FFFFFF00FFFFFF
(0.0) can0 244#01000B0480
(0.0) can0 21D#4111297562E52E81
(0.0) can0 214#2BE25200176D00
(0.0) can0 3B0#1D3000001D300000
(0.0) can0 2E5#00
(0.0) can0 308#110000
(0.0) can0 3A3#000000000000
(0.0) can0 21E#390014116B9E809E
(0.0) can0 43E#FD02BFFFFFFFFFFF
(0.0) can0 2EB#720000FF
(0.0) can0 392#0C00000000000000
(0.0) can0 21F#0100500000000040
(0.0) can0 2A8#000000000000
(0.0) can0 2E9#00000000
(0.0) can0 25F#C17DA80E0000
(0.0) can0 2E1#00
(0.0) can0 293#1000000000FFFFFF
(0.0) can0 217#767C0EC08CFD
(0.0) can0 1E1#0000FFFF00000000
(0.0) can0 208#0080651E1E002D
(0.0) can0 211#FFFFFFFFFFFFFFFF
(0.0) can0 2E3#000000
(0.0) can0 291#1D0D0530000007
(0.0) can0 20B#0100
(0.0) can0 21B#1F0000000034001F
(0.0) can0 290#0116010F07000000
(0.0) can0 286#0338C0000000
(0.0) can0 270#0000
(0.0) can0 2EB#720000FF
(0.0) can0 2B0#02000000
(0.0) can0 2CE#FFFF00000000C03F
(0.0) can0 2E7#001C000000000000
(0.0) can0 211#FFFFFFFFFFFFFFFF
(0.0) can0 402#FD143FFFFFFFFFFF
(0.0) can0 214#2BE25200176D00
(0.0) can0 2EB#720000FF
(0.0) can0 2A8#000000000000
(0.0) can0 217#767C0EC08CFD
(0.0) can0 1E1#0000FFFF00000000
(0.0) can0 208#0080651E1E002D
(0.0) can0 211#FFFFFFFFFFFFFFFF
(0.0) can0 20B#0100
(0.0) can0 286#0338C0000000
(0.0) can0 2EB#720000FF
(0.0) can0 2CE#FFFF00000000C03F
(0.0) can0 211#FFFFFFFFFFFFFFFF
(0.0) can0 414#FD16BFFFFFFFFFFF
(0.0) can0 214#2BE25200176D00
(0.0) can0 2EB#720000FF
(0.0) can0 2A8#000000000000
(0.0) can0 217#767C0EC08CFD
(0.0) can0 1E1#0000FFFF00000000
(0.0) can0 208#0080651E1E002D
(0.0) can0 211#FFFFFFFFFFFFFFFF
(0.0) can0 20B#0100
(0.0) can0 286#0338C0000000
(0.0) can0 2EB#720000FF
(0.0) can0 2CE#FFFF00000000C03F
(0.0) can0 211#FFFFFFFFFFFFFFFF
(0.0) can0 416#FD3EBFFFFFFFFFFF
(0.0) can0 214#2BE25200176D00
(0.0) can0 2EB#720000FF
(0.0) can0 2A8#000000000000
(0.0) can0 217#767C0EC08CFD
(0.0) can0 1E1#0000FFFF00000000
(0.0) can0 208#0080651E1E002D
(0.0) can0 211#FFFFFFFFFFFFFFFF
(0.0) can0 20B#0100
(0.0) can0 286#0338C0000000
(0.0) can0 2EB#720000FF
(0.0) can0 2CE#FFFF00000000C03F
(0.0) can0 211#FFFFFFFFFFFFFFFF
(0.0) can0 43E#FD02BFFFFFFFFFFF
(0.0) can0 214#2BE25200176D00
(0.0) can0 2EB#720000FF
(0.0) can0 2A8#000000000000
(0.0) can0 292#FFFFFF0000FFFF
(0.0) can0 1E1#0000FFFF00000000
(0.0) can0 208#0080651E1E002D
(0.0) can0 217#767C0EC08CFD
(0.0) can0 211#FFFFFFFFFFFFFFFF
(0.0) can0 3E9#9E01
(0.0) can0 20B#0100
(0.0) can0 286#0338C0000000
(0.0) can0 2EB#720000FF
(0.0) can0 348#0FFF0FFF00000000
(0.0) can0 2CE#FFFF00000000C03F
(0.0) can0 402#FD14BFFFFFFFFFFF
(0.0) can0 211#FFFFFFFFFFFFFFFF
(0.0) can0 20E#930547C0FFFF0C
(0.0) can0 244#01000B0480
(0.0) can0 214#2BE25200176D00
(0.0) can0 308#110000
(0.0) can0 3A3#000000000000
(0.0) can0 2EB#720000FF
(0.0) can0 2A8#000000000000
(0.0) can0 2E1#00
(0.0) can0 217#767C0EC08CFD
(0.0) can0 1E1#0000FFFF00000000
(0.0) can0 208#0080651E1E002D
(0.0) can0 211#FFFFFFFFFFFFFFFF
(0.0) can0 2E3#000000
(0.0) can0 20B#0100
(0.0) can0 286#0338C0000000
(0.0) can0 2EB#720000FF
(0.0) can0 414#FD16FFFFFFFFFFFF
(0.0) can0 402#FE023FFFFFFFFFFF
(0.0) can0 3E6#0E220B
(0.0) can0 2DF#0E9203E80FA00A7A
(0.0) can0 142#000000000000
(0.0) can0 1E1#0000FFFF00000000
(0.0) can0 249#FFFF0CCF0000
(0.0) can0 1E7#7000000000000000
(0.0) can0 221#010000000000
(0.0) can0 2D3#010E180200000000
(0.0) can0 1A5#2000FFFFFF007800
(0.0) can0 414#FE143FFFFFFFFFFF
(0.0) can0 208#00A2651E1E002D
(0.0) can0 217#777C0F008DFD
(0.0) can0 20B#6100
(0.0) can0 2D6#0100000000000000
(0.0) can0 283#0000000000000000
(0.0) can0 211#FFFFFFFFFFFFFFFF
(0.0) can0 292#FFFFFF0000FFFF
(0.0) can0 2DA#61119BA0FFFF
(0.0) can0 2DD#05000000
(0.0) can0 2DE#019B000000000000
(0.0) can0 214#2BE25200176D00
(0.0) can0 402#FE023FFFFFFFFFFF
(0.0) can0 2E5#00
(0.0) can0 416#FE163FFFFFFFFFFF
(0.0) can0 2DB#E507401C00000105
(0.0) can0 308#110000
(0.0) can0 286#033800000000
(0.0) can0 3A3#000000000000
(0.0) can0 2EB#720000FF
(0.0) can0 348#0000000000000000
(0.0) can0 2D2#003300
(0.0) can0 20E#00050700FFFF0C
(0.0) can0 293#1000002000FFFFFF
(0.0) can0 2A8#000000000000
(0.0) can0 2E7#041C000000000000
(0.0) can0 2CE#FFFF000000000000
(0.0) can0 2E1#00
(0.0) can0 3D9#000A0A0A0A0AFF
(0.0) can0 211#FFFFFFFFFFFFFFFF
(0.0) can0 2E3#000000
(0.0) can0 3B3#00FFFFFF00FFFFFF
(0.0) can0 244#01000B0480
(0.0) can0 21D#4111297562E52E81
(0.0) can0 20E#00050700FFFF0C
(0.0) can0 21B#1F0000000034001F
(0.0) can0 3B0#1D3000001D300000
(0.0) can0 21E#390014116B9E809E
(0.0) can0 249#001006C04A08
(0.0) can0 20B#8100
(0.0) can0 2D2#213305
(0.0) can0 270#0000
(0.0) can0 2EB#720000FF
(0.0) can0 392#0C00000000000000
(0.0) can0 21F#0100500000000040
(0.0) can0 286#0338C0000000
(0.0) can0 2E9#00000000
(0.0) can0 25F#C17DA80E0000
(0.0) can0 293#1000002000FFFFFF
(0.0) can0 43E#FE3E3FFFFFFFFFFF
(0.0) can0 2D2#213305
(0.0) can0 1E1#0000FFFF00000000
(0.0) can0 208#00A2651E1E002D
(0.0) can0 217#777B0F008CFD
(0.0) can0 211#FFFFFFFFFFFFFFFF
(0.0) can0 3E9#DF01
(0.0) can0 402#FD143FFFFFFFFFFF
(0.0) can0 291#1D000530000007
(0.0) can0 20B#8100
(0.0) can0 290#0116010F07000000
(0.0) can0 286#0338C0000000
(0.0) can0 20E#00050700FFFC0C
(0.0) can0 2CE#FFFF000000000000
(0.0) can0 211#0000FFFFFFFFFFFF
(0.0) can0 20E#0005074046FC0C
(0.0) can0 219#00314A3442413648
(0.0) can0 2B0#02000000
(0.0) can0 214#2BE25200176D00
(0.0) can0 2A8#000000000000
(0.0) can0 2E7#041C000000000000
(0.0) can0 2EB#700000FF
(0.0) can0 414#FD163FFFFFFFFFFF
(0.0) can0 217#777B10408CFD
(0.0) can0 1E1#0000FFFF00000000
(0.0) can0 286#0300C0000000
(0.0) can0 208#00A2651E1E002D
(0.0) can0 20E#0005876046FC0C
(0.0) can0 211#0000FFFFFFFFFFFF
(0.0) can0 2D2#210305
(0.0) can0 20B#8100
(0.0) can0 249#001006C00C08
(0.0) can0 2E7#001C000000000000
(0.0) can0 214#2BE25200176D00
(0.0) can0 2EB#700000FF
(0.0) can0 286#030000000000
(0.0) can0 20E#1705876046FC0C
(0.0) can0 2A8#000000000000
(0.0) can0 2CE#0000000073000000
(0.0) can0 211#0000000000000000
(0.0) can0 3E9#DF01
(0.0) can0 208#00A0651E1E002D
(0.0) can0 20B#A100
(0.0) can0 2EB#700000FF
(0.0) can0 416#FD3E3FFFFFFFFFFF
(0.0) can0 293#1000000000FFFFFF
(0.0) can0 219#013139414C323230
(0.0) can0 217#777A10408CFD
(0.0) can0 1E1#0000500000000000
(0.0) can0 208#0080651E1E002D
(0.0) can0 211#0000000000000000
(0.0) can0 20B#A100
(0.0) can0 214#2BE25200176D00
(0.0) can0 286#030000000000
(0.0) can0 2EB#700000FF
(0.0) can0 2A8#000000000000
(0.0) can0 2CE#0000000073000000
(0.0) can0 211#0000000000000000
(0.0) can0 2EB#700000FF
(0.0) can0 43E#FD023FFFFFFFFFFF
(0.0) can0 219#0230363000000000
(0.0) can0 2CA#0700C0FF0000
(0.0) can0 208#0080651E1E002D
(0.0) can0 1E1#0000500000000000
(0.0) can0 217#777B10408CFD
(0.0) can0 211#0000000000000000
(0.0) can0 20B#A100
(0.0) can0 214#2BE25200176D00
(0.0) can0 286#030000000000
(0.0) can0 2EB#700000FF
(0.0) can0 2A8#000000000000
(0.0) can0 2CE#0000000073000000
(0.0) can0 211#0000000000000000
(0.0) can0 402#FD143FFFFFFFFFFF
(0.0) can0 2EB#700000FF
(0.0) can0 219#00314A3442413648
(0.0) can0 2CA#0F00C0FF0000
(0.0) can0 3E9#9E01
(0.0) can0 292#FF754D00040028
(0.0) can0 1E1#0000500000000000
(0.0) can0 1A5#3F00FFFFFF007800
(0.0) can0 208#0080651E1E002D
(0.0) can0 217#777B0F408CFD
(0.0) can0 211#0000000000000000
(0.0) can0 20B#A100
(0.0) can0 214#2BE25200176D00
(0.0) can0 308#110000
(0.0) can0 3A3#000000000000
(0.0) can0 2CA#0F00C0FF0040
(0.0) can0 286#030000000000
(0.0) can0 2EB#700000FF
(0.0) can0 348#0000000000000000
(0.0) can0 2A8#000000000000
(0.0) can0 2CE#0000000073000000
(0.0) can0 2E1#00
(0.0) can0 211#0000000000000000
(0.0) can0 20E#1705876046FC0C
(0.0) can0 414#FD163FFFFFFFFFFF
(0.0) can0 2E3#000000
(0.0) can0 244#01000B0480
(0.0) can0 2E7#041C000000000000
(0.0) can0 2EB#700000FF
(0.0) can0 219#013139414C323230
(0.0) can0 217#777A0F408CFD
(0.0) can0 1E1#0000500000000000
(0.0) can0 208#0080651E1E002D
(0.0) can0 211#0000000000000000
(0.0) can0 20B#A100
(0.0) can0 214#2BE25200176D00
(0.0) can0 286#030000000000
(0.0) can0 2EB#700000FF
(0.0) can0 2A8#000000000000
(0.0) can0 2CE#0000000073000000
(0.0) can0 308#130000
(0.0) can0 211#0000000000000000
(0.0) can0 416#FD3E3FFFFFFFFFFF
(0.0) can0 20B#A102
(0.0) can0 2EB#700000FF
(0.0) can0 291#1D0D0530000007
(0.0) can0 219#0230363000000000
(0.0) can0 217#777A0F408EFD
(0.0) can0 1E1#0000500000000000
(0.0) can0 208#0080651E1E002D
(0.0) can0 211#0000000000000000
(0.0) can0 20B#A102
(0.0) can0 214#2BE25200176D00
(0.0) can0 286#030000000000
(0.0) can0 2EB#700000FF
(0.0) can0 2A8#000000000000
(0.0) can0 2CE#0000000073000000
(0.0) can0 211#0000000000000000
(0.0) can0 43E#FD023FFFFFFFFFFF
(0.0) can0 2EB#700000FF
(0.0) can0 219#00314A3442413648
(0.0) can0 217#776910407FFD
(0.0) can0 1E1#0000500000000000
(0.0) can0 208#0080651E1E002D
(0.0) can0 211#0000000000000000
(0.0) can0 20B#A102
(0.0) can0 214#2BE25200176D00
(0.0) can0 2E7#051C000000000000
(0.0) can0 286#030000000000
(0.0) can0 2EB#700000FF
(0.0) can0 2D9#81C227C427C0FF
(0.0) can0 3E6#0E220B
(0.0) can0 2A8#000000000000
(0.0) can0 2CE#0000000073000000
(0.0) can0 402#FD143FFFFFFFFFFF
(0.0) can0 211#0000000000000000
(0.0) can0 2EB#700000FF
(0.0) can0 219#013139414C323230
(0.0) can0 217#776E10408CFD
(0.0) can0 1E1#0000500000000000
(0.0) can0 208#0080651E1E002D
(0.0) can0 211#0000000000000000
(0.0) can0 20B#A102
(0.0) can0 214#2BE25200176D00
(0.0) can0 286#030000000000
(0.0) can0 2EB#700000FF
(0.0) can0 414#FD163FFFFFFFFFFF
(0.0) can0 2A8#000000000000
(0.0) can0 2CE#0000000073000000
(0.0) can0 211#0000000000000000
(0.0) can0 2EB#700000FF
(0.0) can0 219#0230363000000000
(0.0) can0 292#FF6FFF00040028
(0.0) can0 142#000000000000
(0.0) can0 1E1#0000500000000000
(0.0) can0 249#001006C00C08
(0.0) can0 1E7#7000000000000000
(0.0) can0 1A5#3F00FFFFFF007800
(0.0) can0 208#0080651E1E002D
(0.0) can0 217#776B10408DFD
(0.0) can0 211#0000000000000000
(0.0) can0 283#0000000000000000
(0.0) can0 20B#A102
(0.0) can0 214#2BE25200176D00
(0.0) can0 308#130000
(0.0) can0 3A3#000000000000
(0.0) can0 286#030000000000
(0.0) can0 2EB#700000FF
(0.0) can0 348#0000000000000000
(0.0) can0 2D2#210305
(0.0) can0 2A8#000000000000
(0.0) can0 416#FD3E3FFFFFFFFFFF
(0.0) can0 2CE#0000000073000000
(0.0) can0 2E1#00
(0.0) can0 3D9#000A0A0A0A0AFF
(0.0) can0 211#0000000000000000
(0.0) can0 20E#1705876046FC0C
(0.0) can0 2E3#000000
(0.0) can0 3B3#00FFFFFF00FFFFFF
(0.0) can0 244#01000B0480
(0.0) can0 21B#1F0000000034001F
(0.0) can0 3B0#1D3000001D300000
(0.0) can0 270#0000
(0.0) can0 2EB#700000FF
(0.0) can0 392#0C00000000000000
(0.0) can0 219#00314A3442413648
(0.0) can0 2B0#02000000
(0.0) can0 2E9#00000000
(0.0) can0 2E7#051C000000000000
(0.0) can0 293#1000000000FFFFFF
(0.0) can0 217#776F0F4089FD
(0.0) can0 1E1#0000500000000000
(0.0) can0 208#0080651E1E002D
(0.0) can0 211#0000000000000000
(0.0) can0 291#1D0D0530000007
(0.0) can0 20B#A102
(0.0) can0 214#2BE25200176D00
(0.0) can0 290#0116010F07000000
(0.0) can0 43E#FD023FFFFFFFFFFF
(0.0) can0 286#030000000000
(0.0) can0 2EB#700000FF
(0.0) can0 2A8#000000000000
(0.0) can0 2CE#0000000073000000
(0.0) can0 211#0000000000000000
(0.0) can0 2EB#700000FF
(0.0) can0 219#013139414C323230
(0.0) can0 514#017E3E0000000000
(0.0) can0 217#776E10408EFD
(0.0) can0 1E1#0000500000000000
(0.0) can0 208#0080651E1E002D
(0.0) can0 211#0000000000000000
(0.0) can0 402#FD143FFFFFFFFFFF
(0.0) can0 20B#A102
(0.0) can0 214#2BE25200176D00
(0.0) can0 286#030000000000
(0.0) can0 2EB#700000FF
(0.0) can0 2A8#000000000000
(0.0) can0 2CE#0000000073000000
(0.0) can0 211#0000000000000000
(0.0) can0 2EB#700000FF
(0.0) can0 219#0230363000000000
(0.0) can0 217#786F0F408FFD
(0.0) can0 1E1#0000500000000000
(0.0) can0 208#0080651E1E002D
(0.0) can0 211#0000000000000000
(0.0) can0 414#FD163FFFFFFFFFFF
(0.0) can0 20B#A102
(0.0) can0 214#2BE25200176D00
(0.0) can0 286#030000000000
(0.0) can0 2EB#700000FF
(0.0) can0 2A8#000000000000
(0.0) can0 2CE#0000000073000000
(0.0) can0 211#0000000000000000
(0.0) can0 2EB#700000FF
(0.0) can0 219#00314A3442413648
(0.0) can0 416#FD3E3FFFFFFFFFFF
(0.0) can0 2CA#0F00C0FF0040
(0.0) can0 217#77720F408CFD
(0.0) can0 1E1#0000500000000000
(0.0) can0 208#0080651E1E002D
(0.0) can0 211#0000000000000000
(0.0) can0 20B#A102
(0.0) can0 214#2BE25200176D00
(0.0) can0 286#030000000000
(0.0) can0 2EB#700000FF
(0.0) can0 2A8#000000000000
(0.0) can0 2CE#0000000073000000
(0.0) can0 211#0000000000000000
(0.0) can0 2EB#700000FF
(0.0) can0 43E#FD023FFFFFFFFFFF
(0.0) can0 219#013139414C323230
(0.0) can0 292#FF6CFF00040028
(0.0) can0 1E1#0000500000000000
(0.0) can0 208#0080651E1E002D
(0.0) can0 217#78720F408CFD
(0.0) can0 211#0000000000000000
(0.0) can0 20B#A102
(0.0) can0 214#2BE25200176D00
(0.0) can0 308#130000
(0.0) can0 3A3#000000000000
(0.0) can0 286#030000000000
(0.0) can0 2EB#700000FF
(0.0) can0 348#0000000000000000
(0.0) can0 2A8#000000000000
(0.0) can0 2CE#0000000073000000
(0.0) can0 2E1#00
(0.0) can0 211#0000000000000000
(0.0) can0 20E#1705876046FC0C
(0.0) can0 2E3#000000
(0.0) can0 244#01000B0480
(0.0) can0 402#FD143FFFFFFFFFFF
(0.0) can0 2EB#700000FF
(0.0) can0 219#0230363000000000
(0.0) can0 2CA#0F00C0FF0000
(0.0) can0 217#78720F408CFD
(0.0) can0 1E1#0000500000000000
(0.0) can0 208#0080651E1E002D
(0.0) can0 211#0000000000000000
(0.0) can0 20B#A102
(0.0) can0 214#2BE25200176D00
(0.0) can0 286#030000000000
(0.0) can0 2EB#700000FF
(0.0) can0 2A8#000000000000
(0.0) can0 2CE#0000000073000000
(0.0) can0 20E#170587A046FC0C
(0.0) can0 211#02D9000000000000
(0.0) can0 414#FD163FFFFFFFFFFF
(0.0) can0 2EB#700000FF
(0.0) can0 219#00314A3442413648
(0.0) can0 208#0082651E1E002D
(0.0) can0 20B#8100
(0.0) can0 217#78760F4094FD
(0.0) can0 1E1#0000500000000000
(0.0) can0 211#04B6000000000000
(0.0) can0 214#2BE25200176D00
(0.0) can0 286#030000000000
(0.0) can0 20B#8100
(0.0) can0 208#00A2651E1E002D
(0.0) can0 2EB#700000FF
(0.0) can0 2A8#000000000000
(0.0) can0 416#FD3E3FFFFFFFFFFF
(0.0) can0 2CE#0000000073000000
(0.0) can0 211#04DB000000000000
(0.0) can0 2EB#700000FF
(0.0) can0 219#013139414C323230
(0.0) can0 217#797E0F408CFD
(0.0) can0 1E1#0000500000000000
(0.0) can0 208#00A2651E1E002D
(0.0) can0 211#0535000000000000
(0.0) can0 20B#8100
(0.0) can0 214#2BE25200176D00
(0.0) can0 43E#FD023FFFFFFFFFFF
(0.0) can0 286#030000000000
(0.0) can0 2EB#700000FF
(0.0) can0 2D9#81C227C427C0FF
(0.0) can0 3E6#0E220C
(0.0) can0 2A8#000000000000
(0.0) can0 2CE#04A6000073000000
(0.0) can0 211#057B000000000000
(0.0) can0 2EB#700000FF
(0.0) can0 219#0230363000000000
(0.0) can0 217#777F0F408EFD
(0.0) can0 1E1#0000500000000000
(0.0) can0 208#00A2651E1E002D
(0.0) can0 211#05CC000000000000
(0.0) can0 402#FD143FFFFFFFFFFF
(0.0) can0 20B#8100
(0.0) can0 244#00000B0480
(0.0) can0 214#2BE25200176D00
(0.0) can0 286#030000000000
(0.0) can0 2EB#700000FF
(0.0) can0 2A8#000000000000
(0.0) can0 2CE#06FA000073000000
(0.0) can0 211#05F2000000000000
(0.0) can0 2EB#700000FF
(0.0) can0 219#00314A3442413648
(0.0) can0 3E9#9E01
(0.0) can0 2DE#019B000000000000
(0.0) can0 142#000000000000
(0.0) can0 1E1#0000500000000000
(0.0) can0 249#001006C00C08
(0.0) can0 1E7#7000000000000000
(0.0) can0 414#FD163FFFFFFFFFFF
(0.0) can0 221#010000000000
(0.0) can0 2D3#010E180200000000
(0.0) can0 1A5#3F00FFFFFF007800
(0.0) can0 208#00A2651E1E002D
(0.0) can0 217#78810F408DFD
(0.0) can0 20B#8100
(0.0) can0 2D6#0100000000000000
(0.0) can0 283#0000000000000000
(0.0) can0 211#0620000000000000
(0.0) can0 292#FF71FF00040028
(0.0) can0 214#2BE25200176D00
(0.0) can0 2DD#05000000
(0.0) can0 2E5#00
(0.0) can0 308#130000
(0.0) can0 3A3#000000000000
(0.0) can0 2DB#E507401C00000105
(0.0) can0 286#030000000000
(0.0) can0 2EB#700000FF
(0.0) can0 348#0000000000000000
(0.0) can0 2D2#210305
(0.0) can0 2A8#000000000000
(0.0) can0 2CE#075D000073000000
(0.0) can0 2E1#00
(0.0) can0 3D9#000A0A0A0A0AFF
(0.0) can0 211#0627000000000000
(0.0) can0 20E#170587A046FC0C
(0.0) can0 2E3#000000
(0.0) can0 3B3#00FFFFFF00FFFFFF
(0.0) can0 244#00000B0480
(0.0) can0 21D#4111297562E52E81
(0.0) can0 21B#1F0000000034001F
(0.0) can0 3B0#1D3000001D300000
(0.0) can0 2D2#210304
(0.0) can0 21E#390014116B9E809E
(0.0) can0 142#FF0000000000
(0.0) can0 270#0000
(0.0) can0 2EB#700000FF
(0.0) can0 392#0C00000000000000
(0.0) can0 21F#0100500000000040
(0.0) can0 219#013139414C323230
(0.0) can0 2B0#02000000
(0.0) can0 2E9#00000000
(0.0) can0 2D2#000300
(0.0) can0 25F#C17DA80E0000
(0.0) can0 2E7#051C000000000000
(0.0) can0 416#FD3E3FFFFFFFFFFF
(0.0) can0 217#78800F408DFD
(0.0) can0 1E1#0000500000000000
(0.0) can0 208#00A2651E1E002D
(0.0) can0 211#0639000000000000
(0.0) can0 291#1D0D0530000007
(0.0) can0 20B#8100
(0.0) can0 214#2BE25200176D00
(0.0) can0 290#0116010F07000000
(0.0) can0 286#030000000000
(0.0) can0 2EB#700000FF
(0.0) can0 293#1000000000FFFFFF
(0.0) can0 20E#070587A046FC0C
(0.0) can0 2A8#000000000000
(0.0) can0 2CE#07BA00007300C03F
(0.0) can0 211#0639000000000000
(0.0) can0 2EB#700000FF
(0.0) can0 43E#FD023FFFFFFFFFFF
(0.0) can0 219#0230363000000000
(0.0) can0 514#03703E0000000000
(0.0) can0 217#78820F408CFD
(0.0) can0 1E1#0000500000000000
(0.0) can0 208#00A2651E1E002D
(0.0) can0 211#0627000000000000
(0.0) can0 20B#8100
(0.0) can0 214#2BE25200176D00
(0.0) can0 286#030000000000
(0.0) can0 2EB#700000FF
(0.0) can0 2A8#000000000000
(0.0) can0 2CE#07E000007300C03F
(0.0) can0 211#060D000000000000
(0.0) can0 402#FD143FFFFFFFFFFF
(0.0) can0 2EB#700000FF
(0.0) can0 219#00314A3442413648
(0.0) can0 416#FE163FFFFFFFFFFF
(0.0) can0 217#78820F408EFD
(0.0) can0 1E1#0000500000000000
(0.0) can0 208#00A2651E1E002D
(0.0) can0 211#05DF000000000000
(0.0) can0 20B#8100
(0.0) can0 214#2BE25200176D00
(0.0) can0 3D9#000A0A0A0A0AFF
(0.0) can0 286#030000000000
(0.0) can0 2EB#700000FF
(0.0) can0 3B3#00FFFFFF00FFFFFF
(0.0) can0 2A8#000000000000
(0.0) can0 3B0#1D3000001D300000
(0.0) can0 2CE#095C00007300C03F
(0.0) can0 392#0C00000000000000
(0.0) can0 211#05D9000000000000
(0.0) can0 2E9#00000000
(0.0) can0 414#FD163FFFFFFFFFFF
(0.0) can0 293#1000002000FFFFFF
(0.0) can0 2EB#700000FF
(0.0) can0 291#1D000530000007
(0.0) can0 219#013139414C323230
(0.0) can0 290#0116010F07000000
(0.0) can0 2CA#0F00C0FF0000
(0.0) can0 217#78810F408DFD
(0.0) can0 1E1#0000500000000000
(0.0) can0 208#00A2651E1E002D
(0.0) can0 211#05A7000000000000
(0.0) can0 20B#8100
(0.0) can0 214#2BE25200176D00
(0.0) can0 286#030000000000
(0.0) can0 2EB#700000FF
(0.0) can0 2A8#000000000000
(0.0) can0 2CE#080700007300C03F
(0.0) can0 416#FD143FFFFFFFFFFF
(0.0) can0 211#0586000000000000
(0.0) can0 43E#FE023FFFFFFFFFFF
(0.0) can0 402#FE143FFFFFFFFFFF
(0.0) can0 2EB#700000FF
(0.0) can0 219#0230363000000000
(0.0) can0 292#FF74FF00040028
(0.0) can0 1E1#0000500000000000
(0.0) can0 208#00A2651E1E002D
(0.0) can0 217#79820F408AFD
(0.0) can0 211#0556000000000000
(0.0) can0 20B#8100
(0.0) can0 214#2BE25200176D00
(0.0) can0 308#130000
(0.0) can0 3A3#000000000000
(0.0) can0 286#030000000000
(0.0) can0 2EB#700000FF
(0.0) can0 348#0000000000000000
(0.0) can0 20E#070587A146FC0C
(0.0) can0 2A8#000000000000
(0.0) can0 2CE#06B900007300C03F
(0.0) can0 414#FD163FFFFFFFFFFF
(0.0) can0 2E1#00
(0.0) can0 2E7#011C000000000000
(0.0) can0 211#0536000000000000
(0.0) can0 286#034000000000
(0.0) can0 2E3#000000
(0.0) can0 244#00000B0480
(0.0) can0 20E#070587A146FC0C
(0.0) can0 2EB#700000FF
(0.0) can0 219#00314A3442413648
(0.0) can0 217#78800F408CFD
(0.0) can0 1E1#0000124C00000000
(0.0) can0 208#00A2651E1E002D
(0.0) can0 211#04FD000000000000
(0.0) can0 20B#8100
(0.0) can0 214#2BE25200176D00
(0.0) can0 286#034000000000
(0.0) can0 2EB#700000FF
(0.0) can0 416#FD3E3FFFFFFFFFFF
(0.0) can0 2A8#000000000000
(0.0) can0 2CE#081700007300C03F
(0.0) can0 211#04D7000000000000
(0.0) can0 286#03C000000000
(0.0) can0 2EB#700000FF
(0.0) can0 219#013139414C323230
(0.0) can0 217#787F0F408CFD
(0.0) can0 1E1#0000124E00000000
(0.0) can0 208#00A2651E1E002D
(0.0) can0 211#0496000000000000
(0.0) can0 20B#8100
(0.0) can0 214#2BE25200176D00
(0.0) can0 43E#FD023FFFFFFFFFFF
(0.0) can0 286#03C000000000
(0.0) can0 2EB#700000FF
(0.0) can0 2A8#000000000000
(0.0) can0 2CE#06C400007300C03F
(0.0) can0 211#047C000000000000
(0.0) can0 2EB#700000FF
(0.0) can0 219#0230363000000000
(0.0) can0 217#78810F408BFD
(0.0) can0 1E1#0000124E00000000
(0.0) can0 208#00A2651E1E002D
(0.0) can0 211#0438000000000000
(0.0) can0 402#FD143FFFFFFFFFFF
(0.0) can0 20B#8100
(0.0) can0 214#2BE25200176D00
(0.0) can0 286#03C000000000
(0.0) can0 2EB#700000FF
(0.0) can0 2D9#81C227C427C0FF
(0.0) can0 3E6#0E220D
(0.0) can0 2A8#000000000000
(0.0) can0 2CE#068700007300C03F
(0.0) can0 211#0430000000000000
(0.0) can0 2EB#700000FF
(0.0) can0 219#00314A3442413648
(0.0) can0 217#77810F408CFD
(0.0) can0 414#FD163FFFFFFFFFFF
(0.0) can0 1E1#0000124C00000000
(0.0) can0 208#00A2651E1E002D
(0.0) can0 211#040B000000000000
(0.0) can0 20B#8100
(0.0) can0 214#2BE25200176D00
(0.0) can0 286#03C000000000
(0.0) can0 2EB#700000FF
(0.0) can0 2A8#000000000000
(0.0) can0 2CE#053A00007300C03F
(0.0) can0 211#03EE000000000000
(0.0) can0 291#1D0D0530000007
(0.0) can0 2EB#700000FF
(0.0) can0 219#013139414C323230
(0.0) can0 416#FD3E3FFFFFFFFFFF
(0.0) can0 292#FF73FF00040028
(0.0) can0 142#FF0000000000
(0.0) can0 1E1#0000124C00000000
(0.0) can0 249#001006C00C08
(0.0) can0 1E7#7000000000000000
(0.0) can0 1A5#3F00FFFFFF007800
(0.0) can0 208#00A2651E1E002D
(0.0) can0 217#78810F408CFD
(0.0) can0 211#03C3000000000000
(0.0) can0 283#0000000000000000
(0.0) can0 20B#8100
(0.0) can0 214#2BE25200176D00
(0.0) can0 308#130000
(0.0) can0 3A3#000000000000
(0.0) can0 2EB#700000FF
(0.0) can0 286#03C000000000
(0.0) can0 2A8#000000000000
(0.0) can0 348#0000000000000000
(0.0) can0 2D2#000300
(0.0) can0 2E1#00
(0.0) can0 2CE#053900007300C03F
(0.0) can0 2E3#000000
(0.0) can0 211#03A6000000000000
(0.0) can0 20E#070587A146FC0C
(0.0) can0 21B#1F0000000034001F
(0.0) can0 244#00000B0480
(0.0) can0 270#0000
(0.0) can0 2EB#700000FF
(0.0) can0 43E#FD023FFFFFFFFFFF
(0.0) can0 219#0230363000000000
(0.0) can0 2B0#02000000
(0.0) can0 2E7#011C000000000000
(0.0) can0 217#78810F408AFD
(0.0) can0 1E1#0000124C00000000
(0.0) can0 208#00A2651E1E002D
(0.0) can0 211#039F000000000000
(0.0) can0 214#2BE25200176D00
(0.0) can0 20B#8100
(0.0) can0 2EB#700000FF
(0.0) can0 286#03C000000000
(0.0) can0 2A8#000000000000
(0.0) can0 2CE#053200007300C03F
(0.0) can0 211#0396000000000000
(0.0) can0 249#001002C00C08
(0.0) can0 402#FD143FFFFFFFFFFF
(0.0) can0 2EB#700000FF
(0.0) can0 219#00314A3442413648
(0.0) can0 514#017E3E0000000000
(0.0) can0 217#77810F408CFD
(0.0) can0 1E1#0000124C00000000
(0.0) can0 208#00A2651E1E002D
(0.0) can0 211#038A000000000000
(0.0) can0 214#2BE25200176D00
(0.0) can0 20B#8100
(0.0) can0 2EB#700000FF
(0.0) can0 286#03C000000000
(0.0) can0 2A8#000000000000
(0.0) can0 2CE#051B00007300C03F
(0.0) can0 211#0385000000000000
(0.0) can0 414#FD163FFFFFFFFFFF
(0.0) can0 2EB#700000FF
(0.0) can0 219#013139414C323230
(0.0) can0 217#77810F408DFD
(0.0) can0 1E1#0000124900000000
(0.0) can0 208#00A2651E1E002D
(0.0) can0 211#0393000000000000
(0.0) can0 214#2BE25200176D00
(0.0) can0 20B#8100
(0.0) can0 3D9#000A0A0A0A0AFF
(0.0) can0 2EB#700000FF
(0.0) can0 286#03C000000000
(0.0) can0 3B3#00FFFFFF00FFFFFF
(0.0) can0 2A8#000000000000
(0.0) can0 3B0#1D3000001D300000
(0.0) can0 2CE#051200007300C03F
(0.0) can0 416#FD3E3FFFFFFFFFFF
(0.0) can0 211#0389000000000000
(0.0) can0 2E9#00000000
(0.0) can0 293#1000002000FFFFFF
(0.0) can0 2EB#700000FF
(0.0) can0 291#1D0D0530000007
(0.0) can0 219#0230363000000000
(0.0) can0 290#0116010F07000000
(0.0) can0 2CA#0F00C0FF0000
(0.0) can0 392#0C00000000000000
(0.0) can0 217#77820F408EFD
(0.0) can0 1E1#0000124600000000
(0.0) can0 208#00A2651E1E002D
(0.0) can0 211#0379000000000000
(0.0) can0 214#2BE25200176D00
(0.0) can0 20B#8100
(0.0) can0 2EB#700000FF
(0.0) can0 286#03C000000000
(0.0) can0 2A8#000000000000
(0.0) can0 43E#FD023FFFFFFFFFFF
(0.0) can0 2CE#050D00007300C03F
(0.0) can0 211#036B000000000000
(0.0) can0 2EB#700000FF
(0.0) can0 219#00314A3442413648
(0.0) can0 3E9#9E01
(0.0) can0 292#FF73FF00040028
(0.0) can0 1E1#0000124600000000
(0.0) can0 208#00A2651E1E002D
(0.0) can0 217#77820F408DFD
(0.0) can0 211#0379000000000000
(0.0) can0 214#2BE25200176D00
(0.0) can0 308#130000
(0.0) can0 20B#8100
(0.0) can0 3A3#000000000000
(0.0) can0 2EB#700000FF
(0.0) can0 286#03C000000000
(0.0) can0 402#FD143FFFFFFFFFFF
(0.0) can0 2A8#000000000000
(0.0) can0 348#0000000000000000
(0.0) can0 2E1#00
(0.0) can0 2CE#03C800007300C03F
(0.0) can0 2E3#000000
(0.0) can0 211#037F000000000000
(0.0) can0 20E#070587A146FC0C
(0.0) can0 244#00000B0480
(0.0) can0 2EB#700000FF
(0.0) can0 219#013139414C323230
(0.0) can0 217#78840F408BFD
(0.0) can0 1E1#0000124600000000
(0.0) can0 208#00A2651E1E002D
(0.0) can0 211#0372000000000000
(0.0) can0 214#2BE25200176D00
(0.0) can0 20B#8100
(0.0) can0 414#FD163FFFFFFFFFFF
(0.0) can0 2EB#700000FF
(0.0) can0 286#03C000000000
(0.0) can0 2A8#000000000000
(0.0) can0 2CE#050C00007300C03F
(0.0) can0 211#0370000000000000
(0.0) can0 2EB#700000FF
(0.0) can0 219#0230363000000000
(0.0) can0 217#77830F408DFD
(0.0) can0 1E1#0000124600000000
(0.0) can0 208#00A2651E1E002D
(0.0) can0 416#FD3E3FFFFFFFFFFF
(0.0) can0 211#0367000000000000
(0.0) can0 214#2BE25200176D00
(0.0) can0 20B#8100
(0.0) can0 2EB#700000FF
(0.0) can0 286#03C000000000
(0.0) can0 2A8#000000000000
(0.0) can0 2CE#050B00007300C03F
(0.0) can0 211#0359000000000000
(0.0) can0 2EB#700000FF
(0.0) can0 219#00314A3442413648
(0.0) can0 43E#FD023FFFFFFFFFFF
(0.0) can0 217#78830F408DFD
(0.0) can0 1E1#0000124600000000
(0.0) can0 208#00A2651E1E002D
(0.0) can0 211#0343000000000000
(0.0) can0 214#2BE25200176D00
(0.0) can0 20B#8100
(0.0) can0 2EB#700000FF
(0.0) can0 286#03C000000000
(0.0) can0 2D9#80C227C427C0FF
(0.0) can0 3E6#0E220E
(0.0) can0 2A8#000000000000
(0.0) can0 2CE#03B700007300C03F
(0.0) can0 211#0356000000000000
(0.0) can0 2EB#700000FF
(0.0) can0 219#013139414C323230
(0.0) can0 402#FD143FFFFFFFFFFF
(0.0) can0 217#79840F408AFD
(0.0) can0 1E1#0000124600000000
(0.0) can0 208#00A2651E1E002D
(0.0) can0 211#0362000000000000
(0.0) can0 214#2BE25200176D00
(0.0) can0 20B#8100
(0.0) can0 2EB#700000FF
(0.0) can0 286#03C000000000
(0.0) can0 2A8#000000000000
(0.0) can0 2CE#04E900007300C03F
(0.0) can0 211#0359000000000000
(0.0) can0 2EB#700000FF
(0.0) can0 219#0230363000000000
(0.0) can0 414#FD163FFFFFFFFFFF
(0.0) can0 2DF#0E9203E80FA00A7A
(0.0) can0 142#FF0000000000
(0.0) can0 1E1#0000124600000000
(0.0) can0 249#001002C00C08
(0.0) can0 1E7#7000000000000000
(0.0) can0 221#010000000000
(0.0) can0 2D3#010E180200000000
(0.0) can0 1A5#3F00FFFFFF007800
(0.0) can0 208#00A2651E1E002D
(0.0) can0 217#79860F408BFD
(0.0) can0 214#2BE25200176D00
(0.0) can0 211#034E000000000000
(0.0) can0 20B#8100
(0.0) can0 2D6#0100000000000000
(0.0) can0 2E5#00
(0.0) can0 283#0000000000000000
(0.0) can0 292#FF73FF00040028
(0.0) can0 308#130000
(0.0) can0 2DA#61119BA0FFFF
(0.0) can0 2DD#05000000
(0.0) can0 2DE#019B000000000000
(0.0) can0 3A3#000000000000
(0.0) can0 2DB#E507401C00000105
(0.0) can0 2EB#700000FF
(0.0) can0 286#03C000000000
(0.0) can0 2A8#000000000000
(0.0) can0 348#0000000000000000
(0.0) can0 2D2#000300
(0.0) can0 2E1#00
(0.0) can0 2CE#03B600007300C03F
(0.0) can0 2E3#000000
(0.0) can0 211#0358000000000000
(0.0) can0 20E#070587A146FC0C
(0.0) can0 21B#1F0000000034001F
(0.0) can0 244#00000B0480
(0.0) can0 21D#4111297562E52E81
(0.0) can0 416#FD3E3FFFFFFFFFFF
(0.0) can0 270#0000
(0.0) can0 2EB#700000FF
(0.0) can0 21E#390014116B9E809E
(0.0) can0 219#00314A3442413648
(0.0) can0 2B0#02000000
(0.0) can0 21F#0100500000000040
(0.0) can0 2E7#011C000000000000
(0.0) can0 25F#C17DA80E0000
(0.0) can0 217#77860F408BFD
(0.0) can0 1E1#0000124600000000
(0.0) can0 208#00A2651E1E002D
(0.0) can0 211#0356000000000000
(0.0) can0 214#2BE25200176D00
(0.0) can0 20B#8100
(0.0) can0 2EB#700000FF
(0.0) can0 286#03C000000000
(0.0) can0 20E#000587A146FC0C
(0.0) can0 2A8#000000000000
(0.0) can0 2CE#03B600007300C03F
(0.0) can0 211#0353000000000000
(0.0) can0 20E#000587A146FC0C
(0.0) can0 43E#FD023FFFFFFFFFFF
(0.0) can0 2EB#700000FF
(0.0) can0 219#013139414C323230
(0.0) can0 514#03703E0700000000
(0.0) can0 217#78860F408AFD
(0.0) can0 1E1#0000124600000000
(0.0) can0 208#00A2651E1E002D
(0.0) can0 211#035A000000000000
(0.0) can0 214#2BE25200176D00
(0.0) can0 20B#8100
(0.0) can0 2EB#700000FF
(0.0) can0 286#03C000000000
(0.0) can0 2A8#000000000000
(0.0) can0 2CE#03B600007300C03F
(0.0) can0 402#FD143FFFFFFFFFFF
(0.0) can0 211#0358000000000000
(0.0) can0 2EB#700000FF
(0.0) can0 219#0230363000000000
(0.0) can0 217#78870F408DFD
(0.0) can0 1E1#0000124600000000
(0.0) can0 208#00A2651E1E002D
(0.0) can0 211#0349000000000000
(0.0) can0 214#2BE25200176D00
(0.0) can0 20B#8100
(0.0) can0 3D9#000A0A0A0A0AFF
(0.0) can0 2EB#700000FF
(0.0) can0 286#03C000000000
(0.0) can0 3B3#00FFFFFF00FFFFFF
(0.0) can0 2A8#000000000000
(0.0) can0 3B0#1D3000001D300000
(0.0) can0 414#FD163FFFFFFFFFFF
(0.0) can0 2CE#04F200007300C03F
(0.0) can0 392#0C00000000000000
(0.0) can0 211#0345000000000000
(0.0) can0 2E9#00000000
(0.0) can0 293#1000002000FFFFFF
(0.0) can0 2EB#700000FF
(0.0) can0 291#1D0D0530000007
(0.0) can0 219#00314A3442413648
(0.0) can0 290#0116010F07000000
(0.0) can0 2CA#0F00C0FF0000
(0.0) can0 217#77860F408EFD
(0.0) can0 1E1#0000124600000000
(0.0) can0 208#00A2651E1E002D
(0.0) can0 211#0339000000000000
(0.0) can0 214#2BE25200176D00
(0.0) can0 20B#8100
(0.0) can0 2EB#700000FF
(0.0) can0 286#03C000000000
(0.0) can0 416#FD3E3FFFFFFFFFFF
(0.0) can0 2A8#000000000000
(0.0) can0 2CE#03B700007300C03F
(0.0) can0 211#032C000000000000
(0.0) can0 2EB#700000FF
(0.0) can0 219#013139414C323230
(0.0) can0 292#FF73FF00040028
(0.0) can0 1E1#0000124600000000
(0.0) can0 208#00A2651E1E002D
(0.0) can0 217#77870F408DFD
(0.0) can0 211#0335000000000000
(0.0) can0 214#2BE25200176D00
(0.0) can0 308#130000
(0.0) can0 3A3#000000000000
(0.0) can0 20B#8100
(0.0) can0 43E#FD023FFFFFFFFFFF
(0.0) can0 2EB#700000FF
(0.0) can0 286#03C000000000
(0.0) can0 2A8#000000000000
(0.0) can0 348#0000000000000000
(0.0) can0 2E1#00
(0.0) can0 2CE#04F300007300C03F
(0.0) can0 2E3#000000
(0.0) can0 211#0344000000000000
(0.0) can0 20E#000587A146FC0C
(0.0) can0 244#00000B0480
(0.0) can0 2EB#700000FF
(0.0) can0 219#0230363000000000
(0.0) can0 217#78880F408CFD
(0.0) can0 1E1#0000124600000000
(0.0) can0 208#00A2651E1E002D
(0.0) can0 211#033C000000000000
(0.0) can0 402#FD143FFFFFFFFFFF
(0.0) can0 214#2BE25200176D00
(0.0) can0 20B#8100
(0.0) can0 2EB#700000FF
(0.0) can0 286#03C000000000
(0.0) can0 2A8#000000000000
(0.0) can0 2CE#03AA00007300C03F
(0.0) can0 211#033D000000000000
(0.0) can0 2EB#700000FF
(0.0) can0 219#00314A3442413648
(0.0) can0 217#78890F408BFD
(0.0) can0 1E1#0000124600000000
(0.0) can0 208#00A2651E1E002D
(0.0) can0 211#0345000000000000
(0.0) can0 414#FD163FFFFFFFFFFF
(0.0) can0 214#2BE25200176D00
(0.0) can0 20B#8100
(0.0) can0 2EB#700000FF
(0.0) can0 286#03C000000000
(0.0) can0 2A8#000000000000
(0.0) can0 2CE#03A900007300C03F
(0.0) can0 211#033A000000000000
(0.0) can0 2EB#700000FF
(0.0) can0 219#013139414C323230
(0.0) can0 416#FD3E3FFFFFFFFFFF
(0.0) can0 217#78880F408CFD
(0.0) can0 1E1#0000124600000000
(0.0) can0 208#00A2651E1E002D
(0.0) can0 211#0335000000000000
(0.0) can0 214#2BE25200176D00
(0.0) can0 20B#8100
(0.0) can0 2EB#700000FF
(0.0) can0 286#03C000000000
(0.0) can0 2D9#80C128C427C0FF
(0.0) can0 3E6#0E220F
(0.0) can0 2A8#000000000000
(0.0) can0 2CE#04E300007300C03F
(0.0) can0 211#034E000000000000
(0.0) can0 2EB#700000FF
(0.0) can0 219#0230363000000000
(0.0) can0 43E#FD023FFFFFFFFFFF
(0.0) can0 217#778A0F408EFD
(0.0) can0 1E1#0000124600000000
(0.0) can0 208#00A2651E1E002D
(0.0) can0 211#034A000000000000
(0.0) can0 214#2BE25200176D00
(0.0) can0 20B#8100
(0.0) can0 2EB#700000FF
(0.0) can0 286#03C000000000
(0.0) can0 2A8#000000000000
(0.0) can0 2CE#03A900007300C03F
(0.0) can0 211#033C000000000000
(0.0) can0 2EB#700000FF
(0.0) can0 219#00314A3442413648
(0.0) can0 402#FD143FFFFFFFFFFF
(0.0) can0 3E9#9E01
(0.0) can0 292#FF74FF00040028
(0.0) can0 142#FF0000000000
(0.0) can0 1E1#0000124600000000
(0.0) can0 249#001002C00C08
(0.0) can0 1E7#7000000000000000
(0.0) can0 1A5#3F00FFFFFF007800
(0.0) can0 208#00A2651E1E002D
(0.0) can0 214#2BE25200176D00
(0.0) can0 217#788A0F408EFD
(0.0) can0 211#033E000000000000
(0.0) can0 283#0000000000000000
(0.0) can0 308#130000
(0.0) can0 20B#8100
(0.0) can0 3A3#000000000000
(0.0) can0 2EB#700000FF
(0.0) can0 286#03C000000000
(0.0) can0 2A8#000000000000
(0.0) can0 348#0000000000000000
(0.0) can0 2D2#000300
(0.0) can0 2E1#00
(0.0) can0 2CE#04E200007300C03F
(0.0) can0 2E3#000000
(0.0) can0 211#0344000000000000
(0.0) can0 20E#000587A146FC0C
(0.0) can0 21B#1F0000000034001F
(0.0) can0 244#00000B0480
(0.0) can0 270#0000
(0.0) can0 2EB#700000FF
(0.0) can0 219#013139414C323230
(0.0) can0 414#FD163FFFFFFFFFFF
(0.0) can0 2B0#02000000
(0.0) can0 2E7#011C000000000000
(0.0) can0 217#788B104093FD
(0.0) can0 1E1#0000124600000000
(0.0) can0 208#00A2651E1E002D
(0.0) can0 211#0344000000000000
(0.0) can0 214#2BE25200176D00
(0.0) can0 20B#8100
(0.0) can0 2EB#700000FF
(0.0) can0 286#03C000000000
(0.0) can0 2A8#000000000000
(0.0) can0 2CE#03A900007300C03F
(0.0) can0 211#033B000000000000
(0.0) can0 416#FD3E3FFFFFFFFFFF
(0.0) can0 2EB#700000FF
(0.0) can0 219#0230363000000000
(0.0) can0 514#03703E0700000000
(0.0) can0 217#788B0F4093FD
(0.0) can0 1E1#0000124600000000
(0.0) can0 208#00A2651E1E002D
(0.0) can0 211#0340000000000000
(0.0) can0 214#2BE25200176D00
(0.0) can0 20B#8100
(0.0) can0 2EB#700000FF
(0.0) can0 286#03C000000000
(0.0) can0 2A8#000000000000
(0.0) can0 2CE#03A900007300C03F
(0.0) can0 211#0333000000000000
(0.0) can0 43E#FD023FFFFFFFFFFF
(0.0) can0 2EB#700000FF
(0.0) can0 219#00314A3442413648
(0.0) can0 217#798A0F408AFD
(0.0) can0 1E1#0000124600000000
(0.0) can0 208#00A2651E1E002D
(0.0) can0 211#0331000000000000
(0.0) can0 214#2BE25200176D00
(0.0) can0 3D9#000A0A0A0A0AFF
(0.0) can0 20B#8100
(0.0) can0 2EB#700000FF
(0.0) can0 3B3#00FFFFFF00FFFFFF
(0.0) can0 286#03C000000000
(0.0) can0 2A8#000000000000
(0.0) can0 3B0#1D3000001D300000
(0.0) can0 392#0C00000000000000
(0.0) can0 2CE#038200007300C03F
(0.0) can0 402#FD143FFFFFFFFFFF
(0.0) can0 2E9#00000000
(0.0) can0 211#033C000000000000
(0.0) can0 293#1000002000FFFFFF
(0.0) can0 2EB#700000FF
(0.0) can0 291#1D0D0530000007
(0.0) can0 219#013139414C323230
(0.0) can0 290#0116010F07000000
(0.0) can0 2CA#0F00C0FF0000
(0.0) can0 217#788C0F408CFD
(0.0) can0 1E1#0000124600000000
(0.0) can0 208#00A2651E1E002D
(0.0) can0 211#033B000000000000
(0.0) can0 214#2BE25200176D00
(0.0) can0 20B#8100
(0.0) can0 2EB#700000FF
(0.0) can0 286#03C000000000
(0.0) can0 2A8#000000000000
(0.0) can0 414#FD163FFFFFFFFFFF
(0.0) can0 2CE#038400007300C03F
(0.0) can0 211#0334000000000000
(0.0) can0 2EB#700000FF
(0.0) can0 219#0230363000000000
(0.0) can0 292#FF74FF00040028
(0.0) can0 1E1#0000124600000000
(0.0) can0 208#00A2651E1E002D
(0.0) can0 217#788D0F408AFD
(0.0) can0 211#033E000000000000
(0.0) can0 214#2BE25200176D00
(0.0) can0 308#130000
(0.0) can0 3A3#000000000000
(0.0) can0 20B#8100
(0.0) can0 2EB#700000FF
(0.0) can0 416#FD3E3FFFFFFFFFFF
(0.0) can0 286#03C000000000
(0.0) can0 2A8#000000000000
(0.0) can0 348#0FFF0FFF00000000
(0.0) can0 2E1#00
(0.0) can0 2CE#04B000007300C03F
(0.0) can0 2E3#000000
(0.0) can0 211#0338000000000000
(0.0) can0 20E#000587A146FC0C
(0.0) can0 244#00000B0480
(0.0) can0 2EB#700000FF
(0.0) can0 219#00314A3442413648
(0.0) can0 295#50617472696F7400
(0.0) can0 217#788C10408BFD
(0.0) can0 1E1#0000124600000000
(0.0) can0 208#00A2651E1E002D
(0.0) can0 211#0332000000000000
(0.0) can0 214#2BE25200176D00
(0.0) can0 20B#8100
(0.0) can0 2EB#700000FF
(0.0) can0 43E#FD023FFFFFFFFFFF
(0.0) can0 286#03C000000000
(0.0) can0 2A8#000000000000
(0.0) can0 2CE#038200007300C03F
(0.0) can0 211#0332000000000000
(0.0) can0 2EB#700000FF
(0.0) can0 219#013139414C323230
(0.0) can0 217#778E0F408DFD
(0.0) can0 1E1#0000124600000000
(0.0) can0 208#00A2651E1E002D
(0.0) can0 211#0337000000000000
(0.0) can0 402#FD143FFFFFFFFFFF
(0.0) can0 214#2BE25200176D00
(0.0) can0 20B#8100
(0.0) can0 2EB#700000FF
(0.0) can0 286#03C000000000
(0.0) can0 2A8#000000000000
(0.0) can0 2CE#038400007300C03F
(0.0) can0 211#032E000000000000
(0.0) can0 2EB#700000FF
(0.0) can0 219#0230363000000000
(0.0) can0 217#778D0F408CFD
(0.0) can0 1E1#0000124600000000
(0.0) can0 208#00A2651E1E002D
(0.0) can0 211#031B000000000000
(0.0) can0 414#FD163FFFFFFFFFFF
(0.0) can0 214#2BE25200176D00
(0.0) can0 20B#8100
(0.0) can0 2EB#700000FF
(0.0) can0 286#03C000000000
(0.0) can0 2D9#80C227C427C0FF
(0.0) can0 3E6#0E2210
(0.0) can0 2A8#000000000000
(0.0) can0 2E1#08
(0.0) can0 2CE#04AE00007300C03F
(0.0) can0 211#0326000000000000
(0.0) can0 2EB#700000FF
(0.0) can0 219#00314A3442413648
(0.0) can0 416#FD3E3FFFFFFFFFFF
(0.0) can0 217#788D0F408EFD
(0.0) can0 1E1#0000124600000000
(0.0) can0 208#00A2651E1E002D
(0.0) can0 211#0322000000000000
(0.0) can0 214#2BE25200176D00
(0.0) can0 20B#8100
(0.0) can0 2EB#700000FF
(0.0) can0 286#03C000000000
(0.0) can0 2A8#000000000000
(0.0) can0 2CE#038400007300C03F
(0.0) can0 211#0327000000000000
(0.0) can0 2EB#700000FF
(0.0) can0 219#013139414C323230
(0.0) can0 43E#FD023FFFFFFFFFFF
(0.0) can0 2DE#019B000000000000
(0.0) can0 142#FF0000000000
(0.0) can0 1E1#0000124600000000
(0.0) can0 249#001002C00C08
(0.0) can0 1E7#7000000000000000
(0.0) can0 214#2BE25200176D00
(0.0) can0 221#010000000000
(0.0) can0 2D3#010E180200000000
(0.0) can0 1A5#3F00FFFFFF007800
(0.0) can0 2E5#00
(0.0) can0 208#00A2651E1E002D
(0.0) can0 217#768C0F408DFD
(0.0) can0 20B#8100
(0.0) can0 308#130000
(0.0) can0 2D6#0100000000000000
(0.0) can0 283#0000000000000000
(0.0) can0 211#0327000000000000
(0.0) can0 3A3#000000000000
(0.0) can0 292#FF74FF00040028
(0.0) can0 2DD#05000000
(0.0) can0 2EB#700000FF
(0.0) can0 2DB#E507401C00000105
(0.0) can0 286#03C000000000
(0.0) can0 2A8#000000000000
(0.0) can0 348#0FFF0FFF00000000
(0.0) can0 2D2#000300
(0.0) can0 2E1#08
(0.0) can0 2CE#038200007300C03F
(0.0) can0 2E3#000000
(0.0) can0 211#0321000000000000
(0.0) can0 20E#000587A146FC0C
(0.0) can0 21B#1F0000000034001F
(0.0) can0 244#00000B0480
(0.0) can0 21D#4111297562E52E81
(0.0) can0 270#0000
(0.0) can0 2EB#700000FF
(0.0) can0 21E#390014116B9E809E
(0.0) can0 219#0230363000000000
(0.0) can0 2B0#02000000
(0.0) can0 21F#0100500000000040
(0.0) can0 402#FD143FFFFFFFFFFF
(0.0) can0 2E7#011C000000000000
(0.0) can0 25F#C17DA80E0000
(0.0) can0 217#788E0F408BFD
(0.0) can0 1E1#0000124600000000
(0.0) can0 208#00A2651E1E002D
(0.0) can0 211#0318000000000000
(0.0) can0 214#2BE25200176D00
(0.0) can0 20B#8100
(0.0) can0 2EB#700000FF
(0.0) can0 286#03C000000000
(0.0) can0 2A8#000000000000
(0.0) can0 2CE#04AE00007300C03F
(0.0) can0 211#031D000000000000
(0.0) can0 2EB#700000FF
(0.0) can0 219#00314A3442413648
(0.0) can0 514#017E3E0700000000
(0.0) can0 414#FD163FFFFFFFFFFF
(0.0) can0 217#798D10408EFD
(0.0) can0 1E1#0000124600000000
(0.0) can0 208#00A2651E1E002D
(0.0) can0 211#0321000000000000
(0.0) can0 214#2BE25200176D00
(0.0) can0 20B#8100
(0.0) can0 2EB#700000FF
(0.0) can0 286#03C000000000
(0.0) can0 2A8#000000000000
(0.0) can0 2CE#038000007300C03F
(0.0) can0 211#0327000000000000
(0.0) can0 2EB#700000FF
(0.0) can0 219#013139414C323230
(0.0) can0 416#FD3E3FFFFFFFFFFF
(0.0) can0 217#788D0F408DFD
(0.0) can0 1E1#0000124600000000
(0.0) can0 208#00A2651E1E002D
(0.0) can0 211#0330000000000000
(0.0) can0 214#2BE25200176D00
(0.0) can0 3D9#000A0A0A0A0AFF
(0.0) can0 20B#8100
(0.0) can0 2EB#700000FF
(0.0) can0 3B3#00FFFFFF00FFFFFF
(0.0) can0 286#03C000000000
(0.0) can0 2A8#000000000000
(0.0) can0 3B0#1D3000001D300000
(0.0) can0 392#0C00000000000000
(0.0) can0 2CE#038000007300C03F
(0.0) can0 2E9#00000000
(0.0) can0 211#0323000000000000
(0.0) can0 293#1000002000FFFFFF
(0.0) can0 2EB#700000FF
(0.0) can0 291#1D0D0530000007
(0.0) can0 219#0230363000000000
(0.0) can0 43E#FD023FFFFFFFFFFF
(0.0) can0 290#0116010F07000000
(0.0) can0 2CA#0F00C0FF0000
(0.0) can0 217#778D0F408DFD
(0.0) can0 1E1#0000124600000000
(0.0) can0 208#00A2651E1E002D
