(1648831984.602732) can1 0C9#0000000000410800
(1648831984.602997) can1 191#06A006A006A00000
(1648831984.603244) can1 1A1#00100100000000
(1648831984.603507) can1 1C3#06A016A000000000
(1648831984.603779) can1 1ED#419000000000102C
(1648831984.603965) can1 1EF#00000000
(1648831984.604194) can1 2C3#06A006A006A0
(1648831984.604406) can1 2D1#000000000000
(1648831984.604567) can1 2D3#0000
(1648831984.604839) can1 3C1#0765088000000000
(1648831984.605104) can1 3D1#003D800000000000
(1648831984.605367) can1 3E9#8000200080002000
(1648831984.608752) can1 3F9#800000005500FD0E
(1648831984.608903) can1 3FB#0008
(1648831984.609154) can1 4C1#00BD2D2976000000
(1648831984.609418) can1 4D1#000002031E3E0000
(1648831984.609675) can1 4F1#022E022E00F40000
(1648831984.609930) can1 772#00000000000000
(1648831984.614888) can1 0C9#0000002700410800
(1648831984.615148) can1 191#06A006A006A00000
(1648831984.615407) can1 1ED#419000000000102C
(1648831984.615597) can1 1EF#00000000
(1648831984.627398) can1 0C9#0000000A00410800
(1648831984.627654) can1 191#05FC05FC04E40000
(1648831984.627901) can1 1A1#00100100000000
(1648831984.628166) can1 1C3#05FC05FC00000000
(1648831984.628427) can1 1ED#419000000000102C
(1648831984.628618) can1 1EF#00000000
(1648831984.639866) can1 0C9#0000000D00410800
(1648831984.640122) can1 191#05FC05FC04E40000
(1648831984.640390) can1 1ED#419000000000102C
(1648831984.640580) can1 1EF#00000000
(1648831984.652367) can1 0C9#0000000000410800
(1648831984.652626) can1 191#05FC05FC05AB0000
(1648831984.652874) can1 1A1#00100100000000
(1648831984.653138) can1 1C3#05FC05FC00000000
(1648831984.653400) can1 1ED#419000000000102C
(1648831984.653590) can1 1EF#00000000
(1648831984.653810) can1 2C3#05FC06A00FFF
(1648831984.654037) can1 2D1#000000000000
(1648831984.654189) can1 2D3#0000
(1648831984.664867) can1 0C9#0000000700410800
(1648831984.665126) can1 191#05FC05FC05AB0000
(1648831984.665388) can1 1ED#419000000000102C
(1648831984.665578) can1 1EF#00000000
(1648831984.671949) can1 1E1#0000100000
(1648831984.672062) can1 0F1#0AE5C000
(1648831984.672331) can1 1F1#8E0A000008000072
(1648831984.677471) can1 0C9#0000000A00410800
(1648831984.677719) can1 191#05FC05FC05AB0000
(1648831984.677967) can1 1A1#00100100000000
(1648831984.678232) can1 1C3#05FC05FC00000000
(1648831984.678505) can1 1ED#419000000000102C
(1648831984.678684) can1 1EF#00000000
(1648831984.689890) can1 0C9#0000000D00410800
(1648831984.690148) can1 191#05FC05FC05AB0000
(1648831984.690415) can1 1ED#419000000000102C
(1648831984.690596) can1 1EF#00000000
(1648831984.702389) can1 0C9#0000000000410800
(1648831984.702655) can1 191#05FC05FC05AB0000
(1648831984.702901) can1 1A1#00100100000000
(1648831984.703165) can1 1C3#05FC05FC00000000
(1648831984.703427) can1 1ED#419000000000102C
(1648831984.703619) can1 1EF#00000000
(1648831984.703837) can1 2C3#05FC06A00FFF
(1648831984.704067) can1 2D1#000000000000
(1648831984.704213) can1 2D3#0000
(1648831984.704482) can1 3C1#0765288000000000
(1648831984.704658) can1 0C7#03FE0000
(1648831984.704851) can1 1E1#00FF110020
(1648831984.705096) can1 0F9#00006000000000FF
(1648831984.705258) can1 0F1#16E500C0
(1648831984.705506) can1 199#0FFF0B82F47E00FF
(1648831984.705793) can1 1F1#000A000008000060
(1648831984.705994) can1 3D1#0000800000000000
(1648831984.706280) can1 3E9#0000200080006000
(1648831984.712080) can1 19D#00000000010000FF
(1648831984.712243) can1 1AF#000001
(1648831984.712472) can1 1F5#0F0F000100000300
(1648831984.712691) can1 4C9#402D0000
(1648831984.712941) can1 77F#00000000000000
(1648831984.714963) can1 0C9#0000000700410800
(1648831984.715227) can1 191#05FC05FC05AB0000
(1648831984.715489) can1 1ED#419000000000102C
(1648831984.715670) can1 1EF#00000000
(1648831984.717213) can1 0C7#03FE0000
(1648831984.717552) can1 0F9#00006000000000FF
(1648831984.717701) can1 199#4FFF0B82F47D00FF
(1648831984.727408) can1 0C9#0000000A00410800
(1648831984.727648) can1 191#05FC05FC05AB0000
(1648831984.727893) can1 1A1#00100100000000
(1648831984.728167) can1 1C3#05FC05FC00000000
(1648831984.728441) can1 1ED#419000000000102C
(1648831984.728614) can1 1EF#00000000
(1648831984.729823) can1 0C7#03FE0000
(1648831984.730068) can1 0F9#00006000000000FF
(1648831984.730298) can1 199#8FFF0B82F47C00FF
(1648831984.737157) can1 19D#40003FFF010000FF
(1648831984.737329) can1 0F1#22E500C0
(1648831984.737423) can1 1AF#000001
(1648831984.737708) can1 1F1#000A000008000060
(1648831984.737892) can1 1E1#00FE120040
(1648831984.738141) can1 1F5#0F0F000100000300
(1648831984.738287) can1 1F3#0020
(1648831984.740008) can1 0C9#0000000D00410800
(1648831984.740262) can1 191#05FC05FC05AB0000
(1648831984.740530) can1 1ED#419000000000102C
(1648831984.740716) can1 1EF#00000000
(1648831984.742309) can1 0C7#03FE0000
(1648831984.742556) can1 0F9#00006000000000FF
(1648831984.742782) can1 199#CFFF0B82F47B00FF
(1648831984.752462) can1 0C9#0000000000410800
(1648831984.752696) can1 191#05FC05FC05AB0000
(1648831984.753002) can1 1A1#00100100000000
(1648831984.753197) can1 1C3#05FC05FC00000000
(1648831984.753458) can1 1ED#419000000000102C
(1648831984.753646) can1 1EF#00000000
(1648831984.753905) can1 2C3#05FC06A00FFF
(1648831984.754096) can1 2D1#000000000000
(1648831984.754248) can1 2D3#0000
(1648831984.754800) can1 0C7#03FE0000
(1648831984.755065) can1 0F9#00006000000000FF
(1648831984.755294) can1 199#0FFF0B82F47E00FF
(1648831984.762153) can1 19D#80003FFE010000FF
(1648831984.762342) can1 1AF#000001
(1648831984.762575) can1 1F5#0F0F000100000300
(1648831984.764977) can1 0C9#0000000700410800
(1648831984.765235) can1 191#05FC05FC05AB0000
(1648831984.765500) can1 1ED#419000000000102C
(1648831984.765685) can1 1EF#00000000
(1648831984.767233) can1 0C7#03FE0000
(1648831984.767499) can1 0F9#00006000000000FF
(1648831984.767728) can1 199#4FFF0B82F47D00FF
(1648831984.769566) can1 1E1#00FD130060
(1648831984.769731) can1 0F1#3EE500C0
(1648831984.769980) can1 1F1#000A000008000060
(1648831984.777421) can1 0C9#0000000A00410800
(1648831984.777677) can1 191#05FC05FC05AB0000
(1648831984.777924) can1 1A1#00100100000000
(1648831984.778190) can1 1C3#05FC05FC00000000
(1648831984.778453) can1 1ED#419000000000102C
(1648831984.778643) can1 1EF#00000000
(1648831984.779806) can1 0C7#03FE0000
(1648831984.780060) can1 0F9#00006000000000FF
(1648831984.780319) can1 199#8FFF0B82F47C00FF
(1648831984.787139) can1 19D#C0003FFD010000FF
(1648831984.787294) can1 1AF#000001
(1648831984.787542) can1 1F5#0F0F000100000300
(1648831984.789966) can1 0C9#0000000D00410800
(1648831984.790231) can1 191#05FC05FC05AB0000
(1648831984.790501) can1 1ED#419000000000102C
(1648831984.790686) can1 1EF#00000000
(1648831984.792225) can1 0C7#03FE0000
(1648831984.792476) can1 0F9#00006000000000FF
(1648831984.792714) can1 199#CFFF0B82F47B00FF
(1648831984.802137) can1 1E1#0000100000
(1648831984.802274) can1 0F1#0AE5C000
(1648831984.802519) can1 0C9#0000000000410800
(1648831984.802775) can1 1F1#000A000008000060
(1648831984.803007) can1 191#05FC05FC05AB0000
(1648831984.803291) can1 1A1#00100100000000
(1648831984.803531) can1 1C3#05FC05FC00000000
(1648831984.803782) can1 1ED#419000000000102C
(1648831984.803974) can1 1EF#00000000
(1648831984.804195) can1 2C3#05FC06A00FFF
(1648831984.804415) can1 2D1#000000000000
(1648831984.804564) can1 2D3#0000
(1648831984.804735) can1 0C7#03FE0000
(1648831984.804964) can1 3C1#076528A0E796E7AD
(1648831984.805212) can1 0F9#00006000000000FF
(1648831984.805456) can1 199#0FFF0B82F47E00FF
(1648831984.805698) can1 3D1#0028800000000000
(1648831984.808887) can1 3E9#0000200080006000
(1648831984.812278) can1 19D#00000000010000FF
(1648831984.812431) can1 1AF#000001
(1648831984.812672) can1 1F5#0F0F000100000300
(1648831984.814975) can1 0C9#0000000700410800
(1648831984.815231) can1 191#05FC05FC05AB0000
(1648831984.815493) can1 1ED#419000000000102C
(1648831984.815681) can1 1EF#00000000
(1648831984.817260) can1 0C7#03FE0000
(1648831984.817517) can1 0F9#00006000000000FF
(1648831984.817757) can1 199#4FFF0B82F47D00FF
(1648831984.827406) can1 0C9#0000000A00410800
(1648831984.827660) can1 191#05FC05FC05AB0000
(1648831984.827906) can1 1A1#00100100000000
(1648831984.828171) can1 1C3#05FC05FC00000000
(1648831984.828430) can1 1ED#419000000000102C
(1648831984.828620) can1 1EF#00000000
(1648831984.829800) can1 0C7#03FE0000
(1648831984.830060) can1 0F9#00006000000000FF
(1648831984.830297) can1 199#8FFF0B82F47C00FF
(1648831984.834719) can1 1E1#00FF110020
(1648831984.834878) can1 0F1#16E500C0
(1648831984.835131) can1 1F1#000A000008000060
(1648831984.835270) can1 1F3#4060
(1648831984.837182) can1 19D#40003FFF010000FF
(1648831984.837344) can1 1AF#000001
(1648831984.837593) can1 1F5#0F0F000100000300
(1648831984.840020) can1 0C9#0000000D00410800
(1648831984.840391) can1 191#05FC05FC05AB0000
(1648831984.840561) can1 1ED#419000000000102C
(1648831984.840745) can1 1EF#00000000
(1648831984.842347) can1 0C7#03FE0000
(1648831984.842598) can1 0F9#00006000000000FF
(1648831984.842836) can1 199#CFFF0B82F47B00FF
(1648831984.852417) can1 0C9#0000000000410800
(1648831984.852678) can1 191#05FC05FC05AB0000
(1648831984.852923) can1 1A1#00100100000000
(1648831984.853196) can1 1C3#05FC05FC00000000
(1648831984.853449) can1 1ED#419000000000102C
(1648831984.853639) can1 1EF#00000000
(1648831984.853859) can1 2C3#05FC06A00FFF
(1648831984.854099) can1 2D1#000000000000
(1648831984.854251) can1 2D3#0000
(1648831984.854785) can1 0C7#03FE0000
(1648831984.855037) can1 0F9#00006000000000FF
(1648831984.855280) can1 199#0FFF0B82F47E00FF
(1648831984.858809) can1 3F9#800000005500FD0C
(1648831984.858965) can1 3FB#0008
(1648831984.862154) can1 19D#80003FFE010000FF
(1648831984.862308) can1 1AF#000001
(1648831984.862559) can1 1F5#0F0F000100000300
(1648831984.864966) can1 0C9#0000000700410800
(1648831984.865225) can1 191#05FC05FC05AB0000
(1648831984.865486) can1 1ED#419000000000102C
(1648831984.865678) can1 1EF#00000000
(1648831984.867180) can1 1E1#00FE120040
(1648831984.867348) can1 0C7#03FE0000
(1648831984.867597) can1 1F1#000A000008000060
(1648831984.867761) can1 0F1#22E500C0
(1648831984.868006) can1 0F9#00006000000000FF
(1648831984.868249) can1 199#4FFF0B82F47D00FF
(1648831984.877443) can1 0C9#0000000A00410800
(1648831984.877685) can1 191#05FC05FC05AB0000
(1648831984.877932) can1 1A1#00100100000000
(1648831984.878203) can1 1C3#05FC05FC00000000
(1648831984.878487) can1 1ED#419000000000102C
(1648831984.878647) can1 1EF#00000000
(1648831984.879851) can1 0C7#03FE0000
(1648831984.880097) can1 0F9#00006000000000FF
(1648831984.880342) can1 199#8FFF0B82F47C00FF
(1648831984.887208) can1 19D#C0003FFD010000FF
(1648831984.887370) can1 1AF#000001
(1648831984.887594) can1 1F5#0F0F000100000300
(1648831984.889979) can1 0C9#0000000D00410800
(1648831984.890234) can1 191#05FC05FC05AB0000
(1648831984.890495) can1 1ED#419000000000102C
(1648831984.890684) can1 1EF#00000000
(1648831984.892248) can1 0C7#03FE0000
(1648831984.892501) can1 0F9#00006000000000FF
(1648831984.892735) can1 199#CFFF0B82F47B00FF
(1648831984.899718) can1 1E1#00FD130060
(1648831984.899881) can1 0F1#3EE500C0
(1648831984.900130) can1 1F1#000A000008000060
(1648831984.902492) can1 0C9#0000000000410800
(1648831984.902751) can1 191#05FC05FC05AB0000
(1648831984.902999) can1 1A1#00100100000000
(1648831984.903263) can1 1C3#05FC05FC00000000
(1648831984.903527) can1 1ED#419000000000102C
(1648831984.903716) can1 1EF#00000000
(1648831984.903974) can1 2C3#05FC06A00FFF
(1648831984.904198) can1 2D1#000000000000
(1648831984.904349) can1 2D3#0000
(1648831984.904600) can1 3C1#076528A0E796E7AD
(1648831984.904862) can1 3D1#0033800000000000
(1648831984.905040) can1 0C7#03FE0000
(1648831984.905303) can1 0F9#00006000000000FF
(1648831984.905547) can1 199#0FFF0B82F47E00FF
(1648831984.908810) can1 3E9#0000200080006000
(1648831984.912258) can1 19D#00000000010000FF
(1648831984.912414) can1 1AF#000001
(1648831984.912662) can1 1F5#0F0F000100000300
(1648831984.914966) can1 0C9#0000000700410800
(1648831984.915221) can1 191#05FC05FC05AB0000
(1648831984.915563) can1 1ED#419000000000102C
(1648831984.915678) can1 1EF#00000000
(1648831984.917246) can1 0C7#03FE0000
(1648831984.917544) can1 0F9#00006000000000FF
(1648831984.917736) can1 199#4FFF0B82F47D00FF
(1648831984.927444) can1 0C9#0000000A00410800
(1648831984.927685) can1 191#05FC05FC05AB0000
(1648831984.927947) can1 1A1#00100100000000
(1648831984.928203) can1 1C3#05FC05FC00000000
(1648831984.928450) can1 1ED#419000000000102C
(1648831984.928639) can1 1EF#00000000
(1648831984.929840) can1 0C7#03FE0000
(1648831984.930086) can1 0F9#00006000000000FF
(1648831984.930356) can1 199#8FFF0B82F47C00FF
(1648831984.932263) can1 1E1#0000100000
(1648831984.932428) can1 0F1#0AE5C000
(1648831984.932675) can1 1F1#000A000008000060
(1648831984.937239) can1 19D#40003FFF010000FF
(1648831984.937529) can1 1AF#000001
(1648831984.937647) can1 1F5#0F0F000100000300
(1648831984.939968) can1 0C9#0000000D00410800
(1648831984.940228) can1 191#05FC05FC05AB0000
(1648831984.940489) can1 1ED#419000000000102C
(1648831984.940679) can1 1EF#00000000
(1648831984.942272) can1 0C7#03FE0000
(1648831984.942523) can1 0F9#00006000000000FF
(1648831984.942761) can1 199#CFFF0B82F47B00FF
(1648831984.952394) can1 0C9#0000000000410800
(1648831984.952655) can1 191#05FC05FC05AB0000
(1648831984.952913) can1 1A1#00100100000000
(1648831984.953173) can1 1C3#05FC05FC00000000
(1648831984.953427) can1 1ED#419000000000102C
(1648831984.953623) can1 1EF#00000000
(1648831984.953842) can1 2C3#05FC06A00FFF
(1648831984.954071) can1 2D1#000000000000
(1648831984.954216) can1 2D3#0000
(1648831984.954805) can1 0C7#03FE0000
(1648831984.955061) can1 0F9#00006000000000FF
(1648831984.955296) can1 199#0FFF0B82F47E00FF
(1648831984.962198) can1 19D#80003FFE010000FF
(1648831984.962349) can1 1AF#000001
(1648831984.962619) can1 1F5#0F0F000100000300
(1648831984.964808) can1 1E1#00FF110020
(1648831984.965039) can1 0C9#0000000700410800
(1648831984.965287) can1 1F1#000A000008000060
(1648831984.965452) can1 0F1#16E500C0
(1648831984.965693) can1 191#05FC05FC05AB0000
(1648831984.965954) can1 1ED#419000000000102C
(1648831984.966144) can1 1EF#00000000
(1648831984.967246) can1 0C7#03FE0000
(1648831984.967497) can1 0F9#00006000000000FF
(1648831984.967739) can1 199#4FFF0B82F47D00FF
(1648831984.977395) can1 0C9#0000000A00410800
(1648831984.977657) can1 191#05FC05FC05AB0000
(1648831984.977907) can1 1A1#00100100000000
(1648831984.978165) can1 1C3#05FC05FC00000000
(1648831984.978425) can1 1ED#419000000000102C
(1648831984.978616) can1 1EF#00000000
(1648831984.979819) can1 0C7#03FE0000
(1648831984.980069) can1 0F9#00006000000000FF
(1648831984.980315) can1 199#8FFF0B82F47C00FF
(1648831984.987168) can1 19D#C0003FFD010000FF
(1648831984.987331) can1 1AF#000001
(1648831984.987563) can1 1F5#0F0F000100000300
(1648831984.989976) can1 0C9#0000000D00410800
(1648831984.990233) can1 191#05FC05FC05AB0000
(1648831984.990504) can1 1ED#419000000000102C
(1648831984.990690) can1 1EF#00000000
(1648831984.992281) can1 0C7#03FE0000
(1648831984.992533) can1 0F9#00006000000000FF
(1648831984.992765) can1 199#CFFF0B82F47B00FF
(1648831984.997335) can1 1E1#00FE120040
(1648831984.997495) can1 0F1#22E500C0
(1648831984.997745) can1 1F1#000A000008000060
(1648831985.002495) can1 0C9#0000000000410800
(1648831985.002755) can1 191#05FC05FC05AB0000
(1648831985.003005) can1 1A1#00100100000000
(1648831985.003268) can1 1C3#05FC05FC00000000
(1648831985.003530) can1 1ED#419000000000102C
(1648831985.003720) can1 1EF#00000000
(1648831985.003969) can1 2C3#05FC06A00FFF
(1648831985.004196) can1 2D1#000000000000
(1648831985.004347) can1 2D3#0000
(1648831985.004597) can1 3C1#076528A0E796E7AD
(1648831985.004864) can1 3D1#0030800000000000
(1648831985.005031) can1 0C7#03FE0000
(1648831985.005283) can1 0F9#00006000000000FF
(1648831985.005525) can1 199#0FFF0B82F47E00FF
(1648831985.008828) can1 3E9#0000200080006000
(1648831985.012260) can1 19D#00000000010000FF
(1648831985.012405) can1 1AF#000001
(1648831985.012677) can1 1F5#0F0F000100000300
(1648831985.014992) can1 0C9#0000000700410800
(1648831985.015244) can1 191#05FC05FC05AB0000
(1648831985.015502) can1 1ED#419000000000102C
(1648831985.015691) can1 1EF#00000000
(1648831985.017254) can1 0C7#03FE0000
(1648831985.017513) can1 0F9#00006000000000FF
(1648831985.017748) can1 199#4FFF0B82F47D00FF
(1648831985.027437) can1 0C9#0000000A00410800
(1648831985.027690) can1 191#05FC05FC05AB0000
(1648831985.027989) can1 1A1#00100100000000
(1648831985.028203) can1 1C3#05FC05FC00000000
(1648831985.028468) can1 1ED#419000000000102C
(1648831985.028661) can1 1EF#00000000
(1648831985.029848) can1 0C7#03FE0000
(1648831985.030021) can1 1E1#00FD130060
(1648831985.030187) can1 0F1#3EE500C0
(1648831985.030439) can1 0F9#00006000000000FF
(1648831985.030568) can1 1F3#80A0
(1648831985.030817) can1 199#8FFF0B82F47C00FF
(1648831985.031066) can1 1F1#000A000008000060
(1648831985.037283) can1 19D#40003FFF010000FF
(1648831985.037443) can1 1AF#000001
(1648831985.037688) can1 1F5#0F0F000100000300
(1648831985.039987) can1 0C9#0000000D00410800
(1648831985.040243) can1 191#05FC05FC05AB0000
(1648831985.040506) can1 1ED#419000000000102C
(1648831985.040696) can1 1EF#00000000
(1648831985.042315) can1 0C7#03FE0000
(1648831985.042568) can1 0F9#00006000000000FF
(1648831985.042803) can1 199#CFFF0B82F47B00FF
(1648831985.052456) can1 0C9#0000000000410800
(1648831985.052702) can1 191#05FC05FC05AB0000
(1648831985.052942) can1 1A1#00100100000000
(1648831985.053206) can1 1C3#05FC05FC00000000
(1648831985.053467) can1 1ED#419000000000102C
(1648831985.053648) can1 1EF#00000000
(1648831985.053898) can1 2C3#05FC06A00FFF
(1648831985.054115) can1 2D1#000000000000
(1648831985.054264) can1 2D3#0000
(1648831985.054880) can1 0C7#03FE0000
(1648831985.055132) can1 0F9#00006000000000FF
(1648831985.055376) can1 199#0FFF0B82F47E00FF
(1648831985.062349) can1 19D#80003FFE010000FF
(1648831985.062527) can1 1E1#0000100000
(1648831985.062695) can1 0F1#0AE5C000
(1648831985.062839) can1 1AF#000001
(1648831985.063092) can1 1F1#000A000008000060
(1648831985.063339) can1 1F5#0F0F000100000300
(1648831985.065056) can1 0C9#0000000700410800
(1648831985.065319) can1 191#05FC05FC05AB0000
(1648831985.065581) can1 1ED#419000000000102C
(1648831985.065770) can1 1EF#00000000
(1648831985.067374) can1 0C7#03FE0000
(1648831985.067602) can1 0F9#00006000000000FF
(1648831985.067844) can1 199#4FFF0B82F47D00FF
(1648831985.077433) can1 0C9#0000000A00410800
(1648831985.077693) can1 191#05FC05FC05AB0000
(1648831985.077941) can1 1A1#00100100000000
(1648831985.078205) can1 1C3#05FC05FC00000000
(1648831985.078466) can1 1ED#419000000000102C
(1648831985.078656) can1 1EF#00000000
(1648831985.079904) can1 0C7#03FE0000
(1648831985.080154) can1 0F9#00006000000000FF
(1648831985.080400) can1 199#8FFF0B82F47C00FF
(1648831985.087327) can1 19D#C0003FFD010000FF
(1648831985.087474) can1 1AF#000001
(1648831985.087726) can1 1F5#0F0F000100000300
(1648831985.089983) can1 0C9#0000000D00410800
(1648831985.090242) can1 191#05FC05FC05AB0000
(1648831985.090503) can1 1ED#419000000000102C
(1648831985.090694) can1 1EF#00000000
(1648831985.092346) can1 0C7#03FE0000
(1648831985.092596) can1 0F9#00006000000000FF
(1648831985.092834) can1 199#CFFF0B82F47B00FF
(1648831985.094947) can1 1E1#00FF110020
(1648831985.095125) can1 0F1#16E500C0
(1648831985.095358) can1 1F1#000A000008000060
(1648831985.102439) can1 0C9#0000000000410800
(1648831985.102694) can1 191#05FC05FC05AB0000
(1648831985.102941) can1 1A1#00100100000000
(1648831985.103205) can1 1C3#05FC05FC00000000
(1648831985.103467) can1 1ED#419000000000102C
(1648831985.103671) can1 1EF#00000000
(1648831985.103904) can1 2C3#05FC06A00FFF
(1648831985.104133) can1 2D1#000000000000
(1648831985.104263) can1 2D3#0000
(1648831985.104518) can1 3C1#076528A0E796E7AD
(1648831985.104784) can1 3D1#0030800000000000
(1648831985.104951) can1 0C7#03FE0000
(1648831985.105204) can1 0F9#00006000000000FF
(1648831985.105446) can1 199#0FFF0B82F47E00FF
(1648831985.108858) can1 3E9#0000200080006000
(1648831985.109097) can1 3F9#800000005500FD0D
(1648831985.109252) can1 3FB#0008
(1648831985.109505) can1 4C1#00BD2D2976000000
(1648831985.109763) can1 4D1#000004031E40009C
(1648831985.112351) can1 19D#00000000010000FF
(1648831985.112503) can1 1AF#000001
(1648831985.112757) can1 1F5#0F0F000100000300
(1648831985.114989) can1 0C9#0000000700410800
(1648831985.115248) can1 191#05FC05FC05AB0000
(1648831985.115509) can1 1ED#419000000000102C
(1648831985.115698) can1 1EF#00000000
(1648831985.117383) can1 0C7#03FE0000
(1648831985.117633) can1 0F9#00006000000000FF
(1648831985.117875) can1 199#4FFF0B82F47D00FF
(1648831985.127435) can1 0C9#0000000A00410800
(1648831985.127627) can1 1E1#00FE120040
(1648831985.127787) can1 0F1#22E500C0
(1648831985.128022) can1 191#05FC05FC05AB0000
(1648831985.128269) can1 1F1#000A000008000060
(1648831985.128497) can1 1A1#00100100000000
(1648831985.128626) can1 1F3#C0E0
(1648831985.128876) can1 1C3#05FC05FC00000000
(1648831985.129148) can1 1ED#419000000000102C
(1648831985.129338) can1 1EF#00000000
(1648831985.129836) can1 0C7#03FE0000
(1648831985.130087) can1 0F9#00006000000000FF
(1648831985.130334) can1 199#8FFF0B82F47C00FF
(1648831985.137442) can1 19D#40003FFF010000FF
(1648831985.137598) can1 1AF#000001
(1648831985.137845) can1 1F5#0F0F000100000300
(1648831985.139983) can1 0C9#0000000D00410800
(1648831985.140243) can1 191#05FC05FC05AB0000
(1648831985.140505) can1 1ED#419000000000102C
(1648831985.140695) can1 1EF#00000000
(1648831985.142340) can1 0C7#03FE0000
(1648831985.142592) can1 0F9#00006000000000FF
(1648831985.142852) can1 199#CFFF0B82F47B00FF
(1648831985.152436) can1 0C9#0000000000410800
(1648831985.152696) can1 191#05FC05FC05AB0000
(1648831985.152941) can1 1A1#00100100000000
(1648831985.153206) can1 1C3#05FC05FC00000000
(1648831985.153468) can1 1ED#419000000000102C
(1648831985.153658) can1 1EF#00000000
(1648831985.153895) can1 2C3#05FC06A00FFF
(1648831985.154116) can1 2D1#000000000000
(1648831985.154268) can1 2D3#0000
(1648831985.154889) can1 0C7#03FE0000
(1648831985.155163) can1 0F9#00006000000000FF
(1648831985.155404) can1 199#0FFF0B82F47E00FF
(1648831985.160039) can1 1E1#00FD130060
(1648831985.160184) can1 0F1#3EE500C0
(1648831985.160433) can1 1F1#000A000008000060
(1648831985.162380) can1 19D#80003FFE010000FF
(1648831985.162514) can1 1AF#000001
(1648831985.162767) can1 1F5#0F0F000100000300
(1648831985.165065) can1 0C9#0000000700410800
(1648831985.165319) can1 191#05FC05FC05AB0000
(1648831985.165581) can1 1ED#419000000000102C
(1648831985.165773) can1 1EF#00000000
(1648831985.167388) can1 0C7#03FE0000
(1648831985.167637) can1 0F9#00006000000000FF
(1648831985.167881) can1 199#4FFF0B82F47D00FF
(1648831985.177437) can1 0C9#0000000A00410800
(1648831985.177694) can1 191#05FC05FC05AB0000
(1648831985.177942) can1 1A1#00100100000000
(1648831985.178206) can1 1C3#05FC05FC00000000
(1648831985.178468) can1 1ED#419000000000102C
(1648831985.178658) can1 1EF#00000000
(1648831985.179919) can1 0C7#03FE0000
(1648831985.180166) can1 0F9#00006000000000FF
(1648831985.180414) can1 199#8FFF0B82F47C00FF
(1648831985.187352) can1 19D#C0003FFD010000FF
(1648831985.187501) can1 1AF#000001
(1648831985.187754) can1 1F5#0F0F000100000300
(1648831985.189988) can1 0C9#0000000D00410800
(1648831985.190248) can1 191#05FC05FC05AB0000
(1648831985.190510) can1 1ED#419000000000102C
(1648831985.190701) can1 1EF#00000000
(1648831985.192325) can1 0C7#03FE0000
(1648831985.192577) can1 0F9#00006000000000FF
(1648831985.192765) can1 1E1#0000100000
(1648831985.192931) can1 0F1#0AE5C000
(1648831985.193165) can1 199#CFFF0B82F47B00FF
(1648831985.193413) can1 1F1#000A000008000060
(1648831985.202434) can1 0C9#0000000000410800
(1648831985.202694) can1 191#05FC05FC05AB0000
(1648831985.202941) can1 1A1#00100100000000
(1648831985.203205) can1 1C3#05FC05FC00000000
(1648831985.203468) can1 1ED#419000000000102C
(1648831985.203656) can1 1EF#00000000
(1648831985.203889) can1 2C3#05FC06A00FFF
(1648831985.204117) can1 2D1#000000000000
(1648831985.204271) can1 2D3#0000
(1648831985.204518) can1 3C1#076528A0E796E7AD
(1648831985.204786) can1 3D1#0030800000000000
(1648831985.204953) can1 0C7#03FE0000
(1648831985.205205) can1 0F9#00006000000000FF
(1648831985.205447) can1 199#0FFF0B82F47E00FF
(1648831985.208832) can1 3E9#0000200080006000
(1648831985.212406) can1 19D#00000000010000FF
(1648831985.212541) can1 1AF#000001
(1648831985.212791) can1 1F5#0F0F000100000300
(1648831985.212983) can1 4C9#402D0000
(1648831985.215014) can1 0C9#0000000700410800
(1648831985.215294) can1 191#05FC05FC05AB0000
(1648831985.215530) can1 1ED#419000000000102C
(1648831985.215720) can1 1EF#00000000
(1648831985.217335) can1 0C7#03FE0000
(1648831985.217584) can1 0F9#00006000000000FF
(1648831985.217827) can1 199#4FFF0B82F47D00FF
(1648831985.224875) can1 1F3#0020
(1648831985.225315) can1 1E1#00FF110020
(1648831985.225474) can1 0F1#16E500C0
(1648831985.225719) can1 1F1#000A000008000060
(1648831985.227510) can1 0C9#0000000A00410800
(1648831985.227765) can1 191#05FC05FC05AB0000
(1648831985.228013) can1 1A1#00100100000000
(1648831985.228277) can1 1C3#05FC05FC00000000
(1648831985.228540) can1 1ED#419000000000102C
(1648831985.228729) can1 1EF#00000000
(1648831985.229962) can1 0C7#03FE0000
(1648831985.230217) can1 0F9#00006000000000FF
(1648831985.230459) can1 199#8FFF0B82F47C00FF
(1648831985.237437) can1 19D#40003FFF010000FF
(1648831985.237588) can1 1AF#000001
(1648831985.237841) can1 1F5#0F0F000100000300
(1648831985.239989) can1 0C9#0000000D00410800
(1648831985.240249) can1 191#05FC05FC05AB0000
(1648831985.240511) can1 1ED#419000000000102C
(1648831985.240701) can1 1EF#00000000
(1648831985.242342) can1 0C7#03FE0000
(1648831985.242594) can1 0F9#00006000000000FF
(1648831985.242836) can1 199#CFFF0B82F47B00FF
(1648831985.252460) can1 0C9#0000000000410800
(1648831985.252698) can1 191#05FC05FC05AB0000
(1648831985.252942) can1 1A1#00100100000000
(1648831985.253206) can1 1C3#05FC05FC00000000
(1648831985.253467) can1 1ED#419000000000102C
(1648831985.253661) can1 1EF#00000000
(1648831985.253901) can1 2C3#05FC06A00FFF
(1648831985.254117) can1 2D1#000000000000
(1648831985.254261) can1 2D3#0000
(1648831985.254869) can1 0C7#03FE0000
(1648831985.255128) can1 0F9#00006000000000FF
(1648831985.255370) can1 199#0FFF0B82F47E00FF
(1648831985.257616) can1 1E1#00FE120040
(1648831985.257777) can1 0F1#22E500C0
(1648831985.258022) can1 1F1#000A000008000060
(1648831985.262397) can1 19D#80003FFE010000FF
(1648831985.262542) can1 1AF#000001
(1648831985.262796) can1 1F5#0F0F000100000300
(1648831985.264990) can1 0C9#0000000700410800
(1648831985.265248) can1 191#05FC05FC05AB0000
(1648831985.265509) can1 1ED#419000000000102C
(1648831985.265699) can1 1EF#00000000
(1648831985.267346) can1 0C7#03FE0000
(1648831985.267598) can1 0F9#00006000000000FF
(1648831985.267840) can1 199#4FFF0B82F47D00FF
(1648831985.277436) can1 0C9#0000000A00410800
(1648831985.277697) can1 191#05FC05FC05AB0000
(1648831985.277945) can1 1A1#00100100000000
(1648831985.278209) can1 1C3#05FC05FC00000000
(1648831985.278471) can1 1ED#419000000000102C
(1648831985.278661) can1 1EF#00000000
(1648831985.279900) can1 0C7#03FE0000
(1648831985.280151) can1 0F9#00006000000000FF
(1648831985.280398) can1 199#8FFF0B82F47C00FF
(1648831985.287350) can1 19D#C0003FFD010000FF
(1648831985.287507) can1 1AF#000001
(1648831985.287781) can1 1F5#0F0F000100000300
(1648831985.289989) can1 0C9#0000000D00410800
(1648831985.290171) can1 1E1#00FD130060
(1648831985.290337) can1 0F1#3EE500C0
(1648831985.290577) can1 191#05FC05FC05AB0000
(1648831985.290825) can1 1F1#000A000008000060
(1648831985.291067) can1 1ED#419000000000102C
(1648831985.291256) can1 1EF#00000000
(1648831985.292330) can1 0C7#03FE0000
(1648831985.292580) can1 0F9#00006000000000FF
(1648831985.292822) can1 199#CFFF0B82F47B00FF
(1648831985.302460) can1 0C9#0000000000410800
(1648831985.302721) can1 191#05FC05FC05AB0000
(1648831985.302943) can1 1A1#00100100000000
(1648831985.303211) can1 1C3#05FC05FC00000000
(1648831985.303474) can1 1ED#419000000000102C
(1648831985.303672) can1 1EF#00000000
(1648831985.303909) can1 2C3#05FC06A00FFF
(1648831985.304126) can1 2D1#000000000000
(1648831985.304269) can1 2D3#0000
(1648831985.304517) can1 3C1#076528A0E796E7AD
(1648831985.304780) can1 3D1#0030800000000000
(1648831985.304962) can1 0C7#03FE0000
(1648831985.305216) can1 0F9#00006000000000FF
(1648831985.305449) can1 199#0FFF0B82F47E00FF
(1648831985.308846) can1 3E9#0000200080006000
(1648831985.312432) can1 19D#00000000010000FF
(1648831985.312568) can1 1AF#000001
(1648831985.312820) can1 1F5#0F0F000100000300
(1648831985.314991) can1 0C9#0000000700410800
(1648831985.315250) can1 191#05FC05FC05AB0000
(1648831985.315514) can1 1ED#419000000000102C
(1648831985.315736) can1 1EF#00000000
(1648831985.317331) can1 0C7#03FE0000
(1648831985.317584) can1 0F9#00006000000000FF
(1648831985.317826) can1 199#4FFF0B82F47D00FF
(1648831985.322753) can1 1E1#0000100000
(1648831985.322907) can1 0F1#0AE5C000
(1648831985.323152) can1 1F1#000A000008000060
(1648831985.323288) can1 1F3#4060
(1648831985.327523) can1 0C9#0000000A00410800
(1648831985.327768) can1 191#05FC05FC05AB0000
(1648831985.328015) can1 1A1#00100100000000
(1648831985.328279) can1 1C3#05FC05FC00000000
(1648831985.328541) can1 1ED#419000000000102C
(1648831985.328730) can1 1EF#00000000
(1648831985.329998) can1 0C7#03FE0000
(1648831985.330251) can1 0F9#00006000000000FF
(1648831985.330495) can1 199#8FFF0B82F47C00FF
(1648831985.337466) can1 19D#40003FFF010000FF
(1648831985.337622) can1 1AF#000001
(1648831985.337870) can1 1F5#0F0F000100000300
(1648831985.339989) can1 0C9#0000000D00410800
(1648831985.340247) can1 191#05FC05FC05AB0000
(1648831985.340510) can1 1ED#419000000000102C
(1648831985.340701) can1 1EF#00000000
(1648831985.342329) can1 0C7#03FE0000
(1648831985.342580) can1 0F9#00006000000000FF
(1648831985.342818) can1 199#CFFF0B82F47B00FF
(1648831985.352438) can1 0C9#0000000000410800
(1648831985.352697) can1 191#05FC05FC05AB0000
(1648831985.352944) can1 1A1#00100100000000
(1648831985.353209) can1 1C3#05FC05FC00000000
(1648831985.353472) can1 1ED#419000000000102C
(1648831985.353661) can1 1EF#00000000
(1648831985.353896) can1 2C3#05FC06A00FFF
(1648831985.354120) can1 2D1#000000000000
(1648831985.354269) can1 2D3#0303
(1648831985.354936) can1 0C7#03FE0000
(1648831985.355163) can1 0F9#00006000000000FF
(1648831985.355349) can1 1E1#00FF110020
(1648831985.355516) can1 0F1#16E500C0
(1648831985.355753) can1 199#0FFF0B82F47E00FF
(1648831985.356001) can1 1F1#000A000008000060
(1648831985.358918) can1 3F9#800000005600FD0C
(1648831985.359060) can1 3FB#0008
(1648831985.362405) can1 19D#80003FFE010000FF
(1648831985.362563) can1 1AF#000001
(1648831985.362811) can1 1F5#0F0F000100000300
(1648831985.364989) can1 0C9#0000000700410800
(1648831985.365247) can1 191#05FC05FC05AB0000
(1648831985.365509) can1 1ED#419000000000102C
(1648831985.365699) can1 1EF#00000000
(1648831985.367339) can1 0C7#03FE0000
(1648831985.367592) can1 0F9#00006000000000FF
(1648831985.367834) can1 199#4FFF0B82F47D00FF
(1648831985.377437) can1 0C9#0000000A00410800
(1648831985.377720) can1 191#05FC05FC05AB0000
(1648831985.377940) can1 1A1#00100100000006
(1648831985.378205) can1 1C3#05FC05FC00000000
(1648831985.378467) can1 1ED#419000000000102C
(1648831985.378657) can1 1EF#00000000
(1648831985.379937) can1 0C7#03FE0000
(1648831985.380189) can1 0F9#00006000000000FF
(1648831985.380435) can1 199#8FFF0B82F47C00FF
(1648831985.387381) can1 19D#C0003FFD010000FF
(1648831985.387550) can1 1AF#000001
(1648831985.387810) can1 1F5#0F0F000100000300
(1648831985.388006) can1 1E1#00FE120040
(1648831985.388147) can1 0F1#22E500C0
(1648831985.388395) can1 1F1#000A000008000060
(1648831985.390080) can1 0C9#0000000D06410800
(1648831985.390323) can1 191#05FC05FC05AB0000
(1648831985.390592) can1 1ED#419000000000102C
(1648831985.390775) can1 1EF#00000000
(1648831985.392414) can1 0C7#03FE0000
(1648831985.392659) can1 0F9#00006000000000FF
(1648831985.392895) can1 199#CFFF0B82F47B00FF
(1648831985.402463) can1 0C9#000000000E410800
(1648831985.402706) can1 191#05FC05FC05AB0000
(1648831985.402959) can1 1A1#00100100000017
(1648831985.403217) can1 1C3#05FC05FC00000000
(1648831985.403496) can1 1ED#419000000000102C
(1648831985.403670) can1 1EF#00000000
(1648831985.403927) can1 2C3#05FC06A00FFF
(1648831985.404122) can1 2D1#000000000000
(1648831985.404285) can1 2D3#0303
(1648831985.404523) can1 3C1#076528A0E796E7AD
(1648831985.404788) can1 3D1#0030800000000000
(1648831985.404957) can1 0C7#03FE0000
(1648831985.405205) can1 0F9#00006000000000FF
(1648831985.405450) can1 199#0FFF0B82F47E00FF
(1648831985.408864) can1 3E9#0000200080006000
(1648831985.412403) can1 19D#00000000010000FF
(1648831985.412556) can1 1AF#000001
(1648831985.412818) can1 1F5#0F0F000100000300
(1648831985.415004) can1 0C9#0000001619410800
(1648831985.415262) can1 191#05FC05FC05AB0202
(1648831985.415523) can1 1ED#419000000000102C
(1648831985.415713) can1 1EF#00000000
(1648831985.417409) can1 0C7#03FE0000
(1648831985.417613) can1 0F9#00006000000000FF
(1648831985.417856) can1 199#4FFF0B82F47D00FF
(1648831985.420313) can1 1E1#00FD130060
(1648831985.420480) can1 0F1#3EE500C0
(1648831985.420728) can1 1F1#000A000008000060
(1648831985.420861) can1 1F3#80A0
(1648831985.427451) can1 0C9#0000001923410800
(1648831985.427711) can1 191#05FC05FC05AB0606
(1648831985.427957) can1 1A1#0010010000002B
(1648831985.428219) can1 1C3#05FC05FC00000600
(1648831985.428481) can1 1ED#419000000000102C
(1648831985.428671) can1 1EF#00000000
(1648831985.429905) can1 0C7#03FE0000
(1648831985.430155) can1 0F9#00006000000000FF
(1648831985.430406) can1 199#8FFF0B82F47C00FF
(1648831985.437436) can1 19D#40003FFF010000FF
(1648831985.437518) can1 1AF#000001
(1648831985.437836) can1 1F5#0F0F000100000300
(1648831985.440029) can1 0C9#0000001C30410800
(1648831985.440272) can1 191#05FC05FC05AB0E0E
(1648831985.440528) can1 1ED#419000000000102C
(1648831985.440723) can1 1EF#00000000
(1648831985.442360) can1 0C7#03FE0000
(1648831985.442620) can1 0F9#00006000000000FF
(1648831985.442849) can1 199#CFFF0B82F47B00FF
(1648831985.452482) can1 0C9#0000001340410800
(1648831985.452716) can1 191#05FC05FC05AB1717
(1648831985.452907) can1 1E1#0000100000
(1648831985.453126) can1 1A1#00100100000047
(1648831985.453291) can1 0F1#0AE5C000
(1648831985.453534) can1 1C3#05FC05FC00001700
(1648831985.453777) can1 1F1#000A000008000060
(1648831985.454025) can1 1ED#419000000000102C
(1648831985.454211) can1 1EF#00000000
(1648831985.454433) can1 2C3#05FC06A00FFF
(1648831985.454659) can1 2D1#000000000000
(1648831985.454813) can1 2D3#0303
(1648831985.455006) can1 0C7#03FE0000
(1648831985.455238) can1 0F9#00006000000000FF
(1648831985.455477) can1 199#0FFF0B82F47E00FF
(1648831985.462451) can1 19D#80003FFE010000FF
(1648831985.462602) can1 1AF#000001
(1648831985.462848) can1 1F5#0F0F000100000300
(1648831985.465014) can1 0C9#0000001651410800
(1648831985.465258) can1 191#05FC05FC05AB2D2D
(1648831985.465520) can1 1ED#419000000000102C
(1648831985.465710) can1 1EF#00000000
(1648831985.467339) can1 0C7#03FE0000
(1648831985.467595) can1 0F9#00006000000000FF
(1648831985.467833) can1 199#4FFF0B82F47D00FF
(1648831985.477473) can1 0C9#0000001965410800
(1648831985.477720) can1 191#05FC05FC05AB4E4E
(1648831985.477964) can1 1A1#0010010000006B
(1648831985.478222) can1 1C3#05FC05FC00004E00
(1648831985.478484) can1 1ED#419000000000102C
(1648831985.478673) can1 1EF#00000000
(1648831985.479937) can1 0C7#03FE0000
(1648831985.480190) can1 0F9#00006000000000FF
(1648831985.480438) can1 199#8FFF0B82F47C00FF
(1648831985.485332) can1 1E1#00FF110020
(1648831985.485496) can1 0F1#16E500C0
(1648831985.485803) can1 1F1#000A000008000060
(1648831985.487394) can1 19D#C0003FFD010000FF
(1648831985.487557) can1 1AF#000001
(1648831985.487799) can1 1F5#0F0F000100000300
(1648831985.490094) can1 0C9#0000001C79410800
(1648831985.490345) can1 191#05FC05FC05AB6767
(1648831985.490604) can1 1ED#419000000000102C
(1648831985.490794) can1 1EF#00000000
(1648831985.492417) can1 0C7#03FE0000
(1648831985.492669) can1 0F9#00006000000000FF
(1648831985.492906) can1 199#CFFF0B82F47B00FF
(1648831985.502457) can1 0C9#000000138F410800
(1648831985.502710) can1 191#05FC05FC05AB9292
(1648831985.502951) can1 1A1#00100100000094
(1648831985.503209) can1 1C3#05FC05FC00009200
(1648831985.503472) can1 1ED#419000000000102C
(1648831985.503662) can1 1EF#00000000
(1648831985.503896) can1 2C3#05FC06A00FFF
(1648831985.504121) can1 2D1#000000000000
(1648831985.504276) can1 2D3#0303
(1648831985.504520) can1 3C1#076528A0E796E7AD
(1648831985.504788) can1 3D1#0066800000000000
(1648831985.504954) can1 0C7#03FE0000
(1648831985.505206) can1 0F9#00006000000000FF
(1648831985.505448) can1 199#0FFF0B82F47E00FF
(1648831985.508869) can1 3E9#0000200080006000
(1648831985.512460) can1 19D#00000000010000FF
(1648831985.512611) can1 1AF#000001
(1648831985.512866) can1 1F5#0F0F000100000300
(1648831985.515085) can1 0C9#00000016A5410800
(1648831985.515279) can1 191#05FC05FC05ABA2A2
(1648831985.515540) can1 1ED#419000000000102C
(1648831985.515730) can1 1EF#00000000
(1648831985.517391) can1 0C7#03FE0000
(1648831985.517657) can1 0F9#00006000000000FF
(1648831985.517889) can1 199#4FFF0B82F47D00FF
(1648831985.518209) can1 1E1#00FE120040
(1648831985.518496) can1 0F1#22E500C0
(1648831985.518750) can1 1F1#000A000008000060
(1648831985.518838) can1 1F3#C0E0
(1648831985.527490) can1 0C9#00000019BB410800
(1648831985.527728) can1 191#05FC05FC05ABB5B5
(1648831985.527977) can1 1A1#001001000000BF
(1648831985.528238) can1 1C3#05FC05FC0000B500
(1648831985.528499) can1 1ED#419000000000102C
(1648831985.528684) can1 1EF#00000000
(1648831985.529968) can1 0C7#03FE0000
(1648831985.530206) can1 0F9#00006000000000FF
(1648831985.530454) can1 199#8FFF0B82F47C00FF
(1648831985.537460) can1 19D#40003FFF010000FF
(1648831985.537562) can1 1AF#000001
(1648831985.537870) can1 1F5#0F0F000100000300
(1648831985.540048) can1 0C9#0000001CCE410800
(1648831985.540301) can1 191#05FC05FC05ABC8C8
(1648831985.540543) can1 1ED#419000000000102C
(1648831985.540739) can1 1EF#00000000
(1648831985.542393) can1 0C7#03FE0000
(1648831985.542642) can1 0F9#00006000000000FF
(1648831985.542874) can1 199#CFFF0B82F47B00FF
(1648831985.550403) can1 1E1#00FD130060
(1648831985.550551) can1 0F1#3EE500C0
(1648831985.550810) can1 1F1#000A000008000060
(1648831985.552566) can1 0C9#00000013DF410800
(1648831985.552819) can1 191#05FC05FC05ABDADA
(1648831985.553078) can1 1A1#001001000000E2
(1648831985.553325) can1 1C3#05FC05FC0000DA00
(1648831985.553588) can1 1ED#419000000000102C
(1648831985.553781) can1 1EF#00000000
(1648831985.553991) can1 2C3#05FC06A00FFF
(1648831985.554223) can1 2D1#000000000000
(1648831985.554374) can1 2D3#0303
(1648831985.554920) can1 0C7#03FE0000
(1648831985.555172) can1 0F9#00006000000000FF
(1648831985.555414) can1 199#0FFF0B82F47E00FF
(1648831985.562486) can1 19D#80003FFE010000FF
(1648831985.562588) can1 1AF#000001
(1648831985.562875) can1 1F5#0F0F000100000300
(1648831985.565074) can1 0C9#00000016EE410800
(1648831985.565278) can1 191#05FC05FC05ABF3F3
(1648831985.565550) can1 1ED#419000000000102C
(1648831985.565730) can1 1EF#00000000
(1648831985.567396) can1 0C7#03FE0000
(1648831985.567642) can1 0F9#00006000000000FF
(1648831985.567899) can1 199#4FFF0B82F47D00FF
(1648831985.577458) can1 0C9#00000019FD410800
(1648831985.577709) can1 191#05FC05FC05ABFEFE
(1648831985.577951) can1 1A1#001001000000FE
(1648831985.578213) can1 1C3#05FC05FC0000FE00
(1648831985.578473) can1 1ED#419000000000102C
(1648831985.578663) can1 1EF#00000000
(1648831985.579907) can1 0C7#03FE0000
(1648831985.580181) can1 0F9#00006000000000FF
(1648831985.580426) can1 199#8FFF0B82F47C00FF
(1648831985.582911) can1 1E1#0000100000
(1648831985.583069) can1 0F1#0AE5C000
(1648831985.583318) can1 1F1#000A000008000060
(1648831985.587469) can1 19D#C0003FFD010000FF
(1648831985.587619) can1 1AF#000001
(1648831985.587864) can1 1F5#0F0F000100000300
(1648831985.590043) can1 0C9#0000001CFE410800
(1648831985.590312) can1 191#05FC05FC05ABFEFE
(1648831985.590560) can1 1ED#419000000000102C
(1648831985.590773) can1 1EF#00000000
(1648831985.592386) can1 0C7#03FE0000
(1648831985.592638) can1 0F9#00006000000000FF
(1648831985.592876) can1 199#CFFF0B82F47B00FF
(1648831985.602464) can1 0C9#00000013FE410800
(1648831985.602708) can1 191#05FC05FC05ABFEFE
(1648831985.602967) can1 1A1#001001000000FF
(1648831985.603225) can1 1C3#05FC05FC0000FE00
(1648831985.603489) can1 1ED#419000000000102C
(1648831985.603673) can1 1EF#00000000
(1648831985.603915) can1 2C3#05FC06A00FFF
(1648831985.604124) can1 2D1#000000000000
(1648831985.604273) can1 2D3#0303
(1648831985.604541) can1 3C1#076528A0E796E7AD
(1648831985.604791) can1 3D1#00F3800000000000
(1648831985.604977) can1 0C7#03FE0000
(1648831985.605258) can1 0F9#00006000000000FF
(1648831985.605460) can1 199#0FFF0B82F47E00FF
(1648831985.608879) can1 3E9#0000200080006000
(1648831985.609122) can1 3F9#800000005600FD0D
(1648831985.609268) can1 3FB#0008
(1648831985.609527) can1 4C1#00BD2D2976000000
(1648831985.609787) can1 4D1#000004031E40009C
(1648831985.610037) can1 4F1#022E022E00F4009C
(1648831985.610292) can1 772#00000000000000
(1648831985.612508) can1 19D#00000000010000FF
(1648831985.612655) can1 1AF#000001
(1648831985.612909) can1 1F5#0F0F000100000300
(1648831985.615056) can1 0C9#00000016FE410800
(1648831985.615268) can1 191#05FC05FC05ABFEFE
(1648831985.615411) can1 1F3#0020
(1648831985.615651) can1 1ED#419000000000102C
(1648831985.615841) can1 1EF#00000000
(1648831985.616057) can1 1E1#00FF110020
(1648831985.616369) can1 0F1#16E500C0
(1648831985.616657) can1 1F1#000A000008000060
(1648831985.617463) can1 0C7#03FE0000
(1648831985.617695) can1 0F9#00006000000000FF
(1648831985.617936) can1 199#4FFF0B82F47D00FF
(1648831985.627453) can1 0C9#00000019FE410800
(1648831985.627706) can1 191#05FC05FC05ABFEFE
(1648831985.627952) can1 1A1#001001000000FF
(1648831985.628214) can1 1C3#05FC05FC0000FE00
(1648831985.628476) can1 1ED#419000000000102C
(1648831985.628667) can1 1EF#00000000
(1648831985.629964) can1 0C7#03FE0000
(1648831985.630219) can1 0F9#00006000000000FF
(1648831985.630457) can1 199#8FFF0B82F47C00FF
(1648831985.637472) can1 19D#40003FFF010000FF
(1648831985.637632) can1 1AF#000001
(1648831985.637877) can1 1F5#0F0F000100000300
(1648831985.639989) can1 0C9#0000001CFE410800
(1648831985.640245) can1 191#05FC05FC05ABFEFE
(1648831985.640506) can1 1ED#419000000000102C
(1648831985.640697) can1 1EF#00000000
(1648831985.642347) can1 0C7#03FE0000
(1648831985.642600) can1 0F9#00006000000000FF
(1648831985.642838) can1 199#CFFF0B82F47B00FF
(1648831985.647958) can1 1E1#00FE120040
(1648831985.648120) can1 0F1#22E500C0
(1648831985.648368) can1 1F1#000A000008000060
(1648831985.652508) can1 0C9#00000013FE410800
(1648831985.652764) can1 191#05FC05FC05ABFEFE
(1648831985.653010) can1 1A1#001001000000FF
(1648831985.653273) can1 1C3#05FC05FC0000FE00
(1648831985.653534) can1 1ED#419000000000102C
(1648831985.653725) can1 1EF#00000000
(1648831985.653975) can1 2C3#05FC06A00FFF
(1648831985.654201) can1 2D1#000000000000
(1648831985.654352) can1 2D3#0303
(1648831985.654967) can1 0C7#03FE0000
(1648831985.655219) can1 0F9#00006000000000FF
(1648831985.655461) can1 199#0FFF0B82F47E00FF
(1648831985.662494) can1 19D#80003FFE010000FF
(1648831985.662634) can1 1AF#000001
(1648831985.662931) can1 1F5#0F0F000100000300
(1648831985.665011) can1 0C9#00000016FE410800
(1648831985.665247) can1 191#05FC05FC05ABFEFE
(1648831985.665508) can1 1ED#419000000000102C
(1648831985.665698) can1 1EF#00000000
(1648831985.667384) can1 0C7#03FE0000
(1648831985.667633) can1 0F9#00006000000000FF
(1648831985.667867) can1 199#4FFF0B82F47D00FF
(1648831985.677440) can1 0C9#00000019FE410800
(1648831985.677690) can1 191#05FC05FC05ABFEFE
(1648831985.677934) can1 1A1#001001000000FF
(1648831985.678198) can1 1C3#05FC05FC0000FE00
(1648831985.678458) can1 1ED#419000000000102C
(1648831985.678652) can1 1EF#00000000
(1648831985.679913) can1 0C7#03FE0000
(1648831985.680172) can1 0F9#00006000000000FF
(1648831985.680408) can1 199#8FFF0B82F47C00FF
(1648831985.680764) can1 1E1#00FD130060
(1648831985.680929) can1 0F1#3EE500C0
(1648831985.681177) can1 1F1#000A000008000060
(1648831985.687491) can1 19D#C0003FFD010000FF
(1648831985.687637) can1 1AF#000001
(1648831985.687889) can1 1F5#0F0F000100000300
(1648831985.689989) can1 0C9#0000001CFE410800
(1648831985.690245) can1 191#05FC05FC05ABFEFE
(1648831985.690507) can1 1ED#419000000000102C
(1648831985.690697) can1 1EF#00000000
(1648831985.692384) can1 0C7#03FE0000
(1648831985.692636) can1 0F9#00006000000000FF
(1648831985.692873) can1 199#CFFF0B82F47B00FF
(1648831985.702448) can1 0C9#00000013FE410800
(1648831985.702744) can1 191#05FC05FC05ABFEFE
(1648831985.702952) can1 1A1#001001000000FF
(1648831985.703196) can1 1C3#05FC05FC0000FE00
(1648831985.703478) can1 1ED#419000000000102C
(1648831985.703657) can1 1EF#00000000
(1648831985.703959) can1 2C3#05FC06A00FFF
(1648831985.704108) can1 2D1#000000000000
(1648831985.704319) can1 2D3#0303
(1648831985.704516) can1 3C1#076528A0E796E7AD
(1648831985.704778) can1 3D1#00FE800000000000
(1648831985.704941) can1 0C7#03FE0000
(1648831985.705200) can1 0F9#00006000000000FF
(1648831985.705439) can1 199#0FFF0B82F47E00FF
(1648831985.708858) can1 3E9#0000200080006000
(1648831985.712507) can1 19D#00000000010000FF
(1648831985.712643) can1 1AF#000001
(1648831985.712893) can1 1F5#0F0F000100000300
(1648831985.713077) can1 4C9#402E0000
(1648831985.713299) can1 77F#00000000000000
(1648831985.713490) can1 1E1#0000100000
(1648831985.713829) can1 0F1#0AE5C000
(1648831985.714088) can1 1F1#AE0E000008000078
(1648831985.714207) can1 4E9#8120
(1648831985.714347) can1 1F3#4060
(1648831985.715125) can1 0C9#00000016FE410800
(1648831985.715434) can1 191#05FC05FC05ABFEFE
(1648831985.715642) can1 1ED#419000000000102C
(1648831985.715842) can1 1EF#00000000
(1648831985.717483) can1 0C7#03FE0000
(1648831985.717748) can1 0F9#00006000000000FF
(1648831985.717997) can1 199#4FFF0B82F47D00FF
(1648831985.727446) can1 0C9#00000019FE410800
(1648831985.727689) can1 191#05FC05FC05ABFEFE
(1648831985.727938) can1 1A1#001001000000FF
(1648831985.728198) can1 1C3#05FC05FC0000FE00
(1648831985.728460) can1 1ED#419000000000102C
(1648831985.728650) can1 1EF#00000000
(1648831985.729954) can1 0C7#03FE0000
(1648831985.730219) can1 0F9#00006000000000FF
(1648831985.730464) can1 199#8FFF0B82F47C00FF
(1648831985.737492) can1 19D#40003FFF010000FF
(1648831985.737643) can1 1AF#000001
(1648831985.737896) can1 1F5#0F0F000100000300
(1648831985.739998) can1 0C9#0000001CFE410800
(1648831985.740247) can1 191#05FC05FC05ABFEFE
(1648831985.740520) can1 1ED#419000000000102C
(1648831985.740699) can1 1EF#00000000
(1648831985.742369) can1 0C7#03FE0000
(1648831985.742612) can1 0F9#00006000000000FF
(1648831985.742849) can1 199#CFFF0B82F47B00FF
(1648831985.745559) can1 1E1#00FF110020
(1648831985.745717) can1 0F1#16E500C0
(1648831985.745964) can1 1F1#AE0E000008000078
(1648831985.752487) can1 0C9#00000013FE410800
(1648831985.752729) can1 191#05FC05FC05ABFEFE
(1648831985.752975) can1 1A1#001001000000FF
(1648831985.753236) can1 1C3#05FC05FC0000FE00
(1648831985.753498) can1 1ED#419000000000102C
(1648831985.753688) can1 1EF#00000000
(1648831985.753971) can1 2C3#05FC06A00FFF
(1648831985.754201) can1 2D1#000000000000
(1648831985.754354) can1 2D3#0303
(1648831985.754938) can1 0C7#03FE0000
(1648831985.755189) can1 0F9#00006000000000FF
(1648831985.755430) can1 199#0FFF0B82F47E00FF
(1648831985.762437) can1 19D#80003FFE010000FF
(1648831985.762587) can1 1AF#000001
(1648831985.762838) can1 1F5#0F0F000100000300
(1648831985.764993) can1 0C9#00000016FE410800
(1648831985.765248) can1 191#05FC05FC05ABFEFE
(1648831985.765511) can1 1ED#419000000000102C
(1648831985.765701) can1 1EF#00000000
(1648831985.767367) can1 0C7#03FE0000
(1648831985.767619) can1 0F9#00006000000000FF
(1648831985.767861) can1 199#4FFF0B82F47D00FF
(1648831985.777454) can1 0C9#00000019FE410800
(1648831985.777691) can1 191#05FC05FC05ABFEFE
(1648831985.777937) can1 1A1#001001000000FF
(1648831985.778199) can1 1C3#05FC05FC0000FE00
(1648831985.778459) can1 1ED#419000000000102C
(1648831985.778646) can1 1E1#00FE120040
(1648831985.778808) can1 0F1#22E500C0
(1648831985.778981) can1 1EF#00000000
(1648831985.779228) can1 1F1#AE0E000008000078
(1648831985.779954) can1 0C7#03FE0000
(1648831985.780209) can1 0F9#00006000000000FF
(1648831985.780459) can1 199#8FFF0B82F47C00FF
(1648831985.787529) can1 19D#C0003FFD010000FF
(1648831985.787663) can1 1AF#000001
(1648831985.787906) can1 1F5#0F0F000100000300
(1648831985.789994) can1 0C9#0000001CFE410800
(1648831985.790242) can1 191#05FC05FC05ABFEFE
(1648831985.790508) can1 1ED#419000000000102C
(1648831985.790705) can1 1EF#00000000
(1648831985.792373) can1 0C7#03FE0000
(1648831985.792619) can1 0F9#00006000000000FF
(1648831985.792855) can1 199#CFFF0B82F47B00FF
(1648831985.802454) can1 0C9#00000013FE410800
(1648831985.802698) can1 191#05FC05FC05ABFEFE
(1648831985.802934) can1 1A1#001001000000FF
(1648831985.803200) can1 1C3#05FC05FC0000FE00
(1648831985.803461) can1 1ED#419000000000102C
(1648831985.803651) can1 1EF#00000000
(1648831985.803897) can1 2C3#05FC06A00FFF
(1648831985.804123) can1 2D1#000000000000
(1648831985.804257) can1 2D3#0303
(1648831985.804511) can1 3C1#076528A0E796E7AD
(1648831985.804777) can1 3D1#00FE800000000000
(1648831985.804944) can1 0C7#03FE0000
(1648831985.805196) can1 0F9#00006000000000FF
(1648831985.805438) can1 199#0FFF0B82F47E00FF
(1648831985.808832) can1 3E9#0000200080006000
(1648831985.810717) can1 1E1#00FD130060
(1648831985.810882) can1 0F1#3EE500C0
(1648831985.811132) can1 1F1#AE0E000008000078
(1648831985.811265) can1 1F3#80A0
(1648831985.812495) can1 19D#00000000010000FF
(1648831985.812652) can1 1AF#000001
(1648831985.812900) can1 1F5#0F0F000100000300
(1648831985.815059) can1 0C9#00000016FE410800
(1648831985.815312) can1 191#05FC05FC05ABFEFE
(1648831985.815574) can1 1ED#419000000000102C
(1648831985.815766) can1 1EF#00000000
(1648831985.817482) can1 0C7#03FE0000
(1648831985.817720) can1 0F9#00006000000000FF
(1648831985.817998) can1 199#4FFF0B82F47D00FF
(1648831985.827445) can1 0C9#00000019FE410800
(1648831985.827694) can1 191#05FC05FC05ABFEFE
(1648831985.827938) can1 1A1#001001000000FF
(1648831985.828205) can1 1C3#05FC05FC0000FE00
(1648831985.828458) can1 1ED#419000000000102C
(1648831985.828650) can1 1EF#00000000
(1648831985.829939) can1 0C7#03FE0000
(1648831985.830190) can1 0F9#00006000000000FF
(1648831985.830437) can1 199#8FFF0B82F47C00FF
(1648831985.837483) can1 19D#40003FFF010000FF
(1648831985.837656) can1 1AF#000001
(1648831985.837904) can1 1F5#0F0F000100000300
(1648831985.839991) can1 0C9#0000001CFE410800
(1648831985.840247) can1 191#05FC05FC05ABFEFE
(1648831985.840509) can1 1ED#419000000000102C
(1648831985.840699) can1 1EF#00000000
(1648831985.842385) can1 0C7#03FE0000
(1648831985.842639) can1 0F9#00006000000000FF
(1648831985.842876) can1 199#CFFF0B82F47B00FF
(1648831985.843477) can1 1E1#0000100000
(1648831985.843643) can1 0F1#0AE5C000
(1648831985.843924) can1 1F1#AE0E000008000078
(1648831985.852443) can1 0C9#00000013FE410800
(1648831985.852698) can1 191#05FC05FC05ABFEFE
(1648831985.852943) can1 1A1#001001000000FF
(1648831985.853207) can1 1C3#05FC05FC0000FE00
(1648831985.853468) can1 1ED#419000000000102C
(1648831985.853658) can1 1EF#00000000
(1648831985.853892) can1 2C3#05FC06A00FFF
(1648831985.854116) can1 2D1#000000000000
(1648831985.854266) can1 2D3#0303
(1648831985.854954) can1 0C7#03FE0000
(1648831985.855168) can1 0F9#00006000000000FF
(1648831985.855412) can1 199#0FFF0B82F47E00FF
(1648831985.858835) can1 3F9#840000005500FD0C
(1648831985.858985) can1 3FB#0008
(1648831985.862461) can1 19D#80003FFE010000FF
(1648831985.862596) can1 1AF#000001
(1648831985.862844) can1 1F5#0F0F000100000300
(1648831985.865017) can1 0C9#00000016FE410800
(1648831985.865249) can1 191#05FC05FC05ABFEFE
(1648831985.865511) can1 1ED#419000000000102C
(1648831985.865701) can1 1EF#00000000
(1648831985.867405) can1 0C7#03FE0000
(1648831985.867667) can1 0F9#00006000000000FF
(1648831985.867893) can1 199#4FFF0B82F47D00FF
(1648831985.875725) can1 1E1#00FF110020
(1648831985.875890) can1 0F1#16E500C0
(1648831985.876138) can1 1F1#AE0E000008000078
(1648831985.877511) can1 0C9#00000019FE410800
(1648831985.877764) can1 191#05FC05FC05ABFEFE
(1648831985.878009) can1 1A1#001001000000FF
(1648831985.878271) can1 1C3#05FC05FC0000FE00
(1648831985.878533) can1 1ED#419000000000102C
(1648831985.878724) can1 1EF#00000000
(1648831985.880008) can1 0C7#03FE0000
(1648831985.880259) can1 0F9#00006000000000FF
(1648831985.880504) can1 199#8FFF0B82F47C00FF
(1648831985.887532) can1 19D#C0003FFD010000FF
(1648831985.887687) can1 1AF#000001
(1648831985.887935) can1 1F5#0F0F000100000300
(1648831985.889991) can1 0C9#0000001CFE410800
(1648831985.890250) can1 191#05FC05FC05ABFEFE
(1648831985.890526) can1 1ED#419000000000102C
(1648831985.890698) can1 1EF#00000000
(1648831985.892374) can1 0C7#03FE0000
(1648831985.892627) can1 0F9#00006000000000FF
(1648831985.892865) can1 199#CFFF0B82F47B00FF
(1648831985.902448) can1 0C9#00000013FE410800
(1648831985.902699) can1 191#05FC05FC05ABFEFE
(1648831985.902946) can1 1A1#001001000000FF
(1648831985.903200) can1 1C3#05FC05FC0000FE00
(1648831985.903468) can1 1ED#419000000000102C
(1648831985.903649) can1 1EF#00000000
(1648831985.903909) can1 2C3#05FC06A00FFF
(1648831985.904108) can1 2D1#000000000000
(1648831985.904268) can1 2D3#0303
(1648831985.904512) can1 3C1#076528A0E796E7AD
(1648831985.904784) can1 3D1#00FE800000000000
(1648831985.904946) can1 0C7#03FE0000
(1648831985.905203) can1 0F9#00006000000000FF
(1648831985.905442) can1 199#0FFF0B82F47E00FF
(1648831985.908331) can1 1E1#00FE120040
(1648831985.908467) can1 0F1#22E500C0
(1648831985.908718) can1 1F1#AE0E000008000078
(1648831985.908875) can1 1F3#C0E0
(1648831985.909095) can1 3E9#0000200080006000
(1648831985.912611) can1 19D#00000000010000FF
(1648831985.912772) can1 1AF#000001
(1648831985.913026) can1 1F5#0F0F000100000300
(1648831985.915068) can1 0C9#00000016FE410800
(1648831985.915322) can1 191#05FC05FC05ABFEFE
(1648831985.915580) can1 1ED#419000000000102C
(1648831985.915770) can1 1EF#00000000
(1648831985.917377) can1 0C7#03FE0000
(1648831985.917634) can1 0F9#00006000000000FF
(1648831985.917877) can1 199#4FFF0B82F47D00FF
(1648831985.927437) can1 0C9#00000019FE410800
(1648831985.927691) can1 191#05FC05FC05ABFEFE
(1648831985.927938) can1 1A1#001001000000FF
(1648831985.928201) can1 1C3#05FC05FC0000FE00
(1648831985.928462) can1 1ED#419000000000102C
(1648831985.928653) can1 1EF#00000000
(1648831985.929974) can1 0C7#03FE0000
(1648831985.930224) can1 0F9#00006000000000FF
(1648831985.930467) can1 199#8FFF0B82F47C00FF
(1648831985.937485) can1 19D#40003FFF010000FF
(1648831985.937640) can1 1AF#000001
(1648831985.937889) can1 1F5#0F0F000100000300
(1648831985.939995) can1 0C9#0000001CFE410800
(1648831985.940250) can1 191#05FC05FC05ABFEFE
(1648831985.940511) can1 1ED#419000000000102C
(1648831985.940701) can1 1EF#00000000
(1648831985.941068) can1 1E1#00FD130060
(1648831985.941333) can1 0F1#3EE500C0
(1648831985.941582) can1 1F1#AE0E000008000078
(1648831985.942392) can1 0C7#03FE0000
(1648831985.942644) can1 0F9#00006000000000FF
(1648831985.942881) can1 199#CFFF0B82F47B00FF
(1648831985.952459) can1 0C9#00000013FE410800
(1648831985.952712) can1 191#05FC05FC05ABFEFE
(1648831985.952960) can1 1A1#001001000000FF
(1648831985.953219) can1 1C3#05FC05FC0000FE00
(1648831985.953481) can1 1ED#419000000000102C
(1648831985.953671) can1 1EF#00000000
(1648831985.953926) can1 2C3#05FC06A00FFF
(1648831985.954128) can1 2D1#000000000000
(1648831985.954277) can1 2D3#0303
(1648831985.954950) can1 0C7#03FE0000
(1648831985.955203) can1 0F9#00006000000000FF
(1648831985.955443) can1 199#0FFF0B82F47E00FF
(1648831985.962445) can1 19D#80003FFE010000FF
(1648831985.962602) can1 1AF#000001
(1648831985.962851) can1 1F5#0F0F000100000300
(1648831985.964992) can1 0C9#00000016FE410800
(1648831985.965248) can1 191#05FC05FC05ABFEFE
(1648831985.965510) can1 1ED#419000000000102C
(1648831985.965700) can1 1EF#00000000
(1648831985.967401) can1 0C7#03FE0000
(1648831985.967653) can1 0F9#00006000000000FF
(1648831985.967895) can1 199#4FFF0B82F47D00FF
(1648831985.973322) can1 1E1#0000100000
(1648831985.973501) can1 0F1#0AE5C000
(1648831985.973706) can1 1F1#AE0E000008000078
(1648831985.977520) can1 0C9#00000019FE410800
(1648831985.977762) can1 191#05FC05FC05ABFEFE
(1648831985.978005) can1 1A1#001001000000FF
(1648831985.978272) can1 1C3#05FC05FC0000FE00
(1648831985.978531) can1 1ED#419000000000102C
(1648831985.978721) can1 1EF#00000000
(1648831985.980008) can1 0C7#03FE0000
(1648831985.980232) can1 0F9#00006000000000FF
(1648831985.980479) can1 199#8FFF0B82F47C00FF
(1648831985.987519) can1 19D#C0003FFD010000FF
(1648831985.987671) can1 1AF#000001
(1648831985.987908) can1 1F5#0F0F000100000300
(1648831985.989994) can1 0C9#0000001CFE410800
(1648831985.990246) can1 191#05FC05FC05ABFEFE
(1648831985.990505) can1 1ED#419000000000102C
(1648831985.990696) can1 1EF#00000000
(1648831985.992410) can1 0C7#03FE0000
(1648831985.992658) can1 0F9#00006000000000FF
(1648831985.992899) can1 199#CFFF0B82F47B00FF
(1648831986.002440) can1 0C9#00000013FE410800
(1648831986.002692) can1 191#05FC05FC05ABFEFE
(1648831986.002935) can1 1A1#001001000000FF
(1648831986.003197) can1 1C3#05FC05FC0000FE00
(1648831986.003460) can1 1ED#419000000000102C
(1648831986.003653) can1 1EF#00000000
(1648831986.003889) can1 2C3#05FC06A00FFF
(1648831986.004109) can1 2D1#000000000000
(1648831986.004258) can1 2D3#0303
(1648831986.004509) can1 3C1#076528A0E796E7AD
(1648831986.004775) can1 3D1#00FE800000000000
(1648831986.004943) can1 0C7#03FE0000
(1648831986.005195) can1 0F9#00006000000000FF
(1648831986.005439) can1 199#0FFF0B82F47E00FF
(1648831986.006145) can1 1E1#00FF110020
(1648831986.006311) can1 0F1#16E500C0
(1648831986.006559) can1 1F1#AE0E000008000078
(1648831986.006699) can1 1F3#0020
(1648831986.008904) can1 3E9#0000200080006000
(1648831986.012588) can1 19D#00000000010000FF
(1648831986.012746) can1 1AF#000001
(1648831986.012995) can1 1F5#0F0F000100000300
(1648831986.014990) can1 0C9#00000016FE410800
(1648831986.015248) can1 191#05FC05FC05ABFEFE
(1648831986.015509) can1 1ED#419000000000102C
(1648831986.015699) can1 1EF#00000000
(1648831986.017403) can1 0C7#03FE0000
(1648831986.017655) can1 0F9#00006000000000FF
(1648831986.017900) can1 199#4FFF0B82F47D00FF
(1648831986.027440) can1 0C9#00000019FE410800
(1648831986.027693) can1 191#05FC05FC05ABFEFE
(1648831986.027991) can1 1A1#001001000000FF
(1648831986.028196) can1 1C3#05FC05FC0000FE00
(1648831986.028487) can1 1ED#419000000000102C
(1648831986.028652) can1 1EF#00000000
(1648831986.029979) can1 0C7#03FE0000
(1648831986.030227) can1 0F9#00006000000000FF
(1648831986.030482) can1 199#8FFF0B82F47C00FF
(1648831986.037521) can1 19D#40003FFF010000FF
(1648831986.037673) can1 1AF#000001
(1648831986.037980) can1 1F5#0F0F000100000300
(1648831986.038565) can1 1E1#00FE120040
(1648831986.038725) can1 0F1#22E500C0
(1648831986.038974) can1 1F1#AE0E000008000078
(1648831986.040062) can1 0C9#0000001CFE410800
(1648831986.040319) can1 191#05FC05FC05ABFEFE
(1648831986.040583) can1 1ED#419000000000102C
(1648831986.040768) can1 1EF#00000000
(1648831986.042421) can1 0C7#03FE0000
(1648831986.042669) can1 0F9#00006000000000FF
(1648831986.042907) can1 199#CFFF0B82F47B00FF
(1648831986.052453) can1 0C9#00000013FE410800
(1648831986.052704) can1 191#05FC05FC05ABFEFE
(1648831986.052950) can1 1A1#001001000000FF
(1648831986.053211) can1 1C3#05FC05FC0000FE00
(1648831986.053473) can1 1ED#419000000000102C
(1648831986.053663) can1 1EF#00000000
(1648831986.053897) can1 2C3#05FC06A00FFF
(1648831986.054122) can1 2D1#000000000000
(1648831986.054271) can1 2D3#0303
(1648831986.054960) can1 0C7#03FE0000
(1648831986.055213) can1 0F9#00006000000000FF
(1648831986.055454) can1 199#0FFF0B82F47E00FF
(1648831986.062489) can1 19D#80003FFE010000FF
(1648831986.062619) can1 1AF#000001
(1648831986.062863) can1 1F5#0F0F000100000300
(1648831986.065019) can1 0C9#00000016FE410800
(1648831986.065254) can1 191#05FC05FC05ABFEFE
(1648831986.065509) can1 1ED#419000000000102C
(1648831986.065698) can1 1EF#00000000
(1648831986.067425) can1 0C7#03FE0000
(1648831986.067635) can1 0F9#00006000000000FF
(1648831986.067877) can1 199#4FFF0B82F47D00FF
(1648831986.070948) can1 1E1#00FD130060
(1648831986.071108) can1 0F1#3EE500C0
(1648831986.071352) can1 1F1#AE0E000008000078
(1648831986.077528) can1 0C9#00000019E9410800
(1648831986.077784) can1 191#05FC05FC05ABF3F3
(1648831986.078023) can1 1A1#001001000000EB
(1648831986.078276) can1 1C3#05FC05FC0000F300
(1648831986.078539) can1 1ED#419000000000102C
(1648831986.078733) can1 1EF#00000000
(1648831986.079970) can1 0C7#03FE0000
(1648831986.080219) can1 0F9#00006000000000FF
(1648831986.080468) can1 199#8FFF0B82F47C00FF
(1648831986.087458) can1 19D#C0003FFD010000FF
(1648831986.087615) can1 1AF#000001
(1648831986.087864) can1 1F5#0F0F000100000300
(1648831986.090010) can1 0C9#0000001CC0410800
(1648831986.090262) can1 191#05FC05FC05ABC1C1
(1648831986.090523) can1 1ED#419000000000102C
(1648831986.090713) can1 1EF#00000000
(1648831986.092414) can1 0C7#03FE0000
(1648831986.092665) can1 0F9#00006000000000FF
(1648831986.092903) can1 199#CFFF0B82F47B00FF
(1648831986.102457) can1 0C9#000000138E410800
(1648831986.102694) can1 191#05FC05FC05AB9696
(1648831986.102950) can1 1A1#00100100000091
(1648831986.103204) can1 1C3#05FC05FC00009600
(1648831986.103460) can1 1ED#419000000000102C
(1648831986.103593) can1 1F3#4060
(1648831986.103773) can1 1EF#00000000
(1648831986.103987) can1 2C3#05FC06A00FFF
(1648831986.104180) can1 1E1#0000100000
(1648831986.104380) can1 2D1#000000000000
(1648831986.104544) can1 0F1#0AE5C000
(1648831986.104685) can1 2D3#0303
(1648831986.104936) can1 1F1#AE0E000008000078
(1648831986.105105) can1 0C7#03FE0000
(1648831986.105364) can1 3C1#076528A0E796E7AD
(1648831986.105598) can1 0F9#00006000000000FF
(1648831986.105830) can1 3D1#00D3800000000000
(1648831986.106061) can1 199#0FFF0B82F47E00FF
(1648831986.108940) can1 3E9#0000200080006000
(1648831986.109212) can1 3F9#840000005500FD0D
(1648831986.109363) can1 3FB#0008
(1648831986.109599) can1 4C1#00BD2D2976000000
(1648831986.109860) can1 4D1#000004031E40009C
(1648831986.112602) can1 19D#00000000010000FF
(1648831986.112738) can1 1AF#000001
(1648831986.112979) can1 1F5#0F0F000100000300
(1648831986.115014) can1 0C9#000000165D410800
(1648831986.115253) can1 191#05FC05FC05AB5959
(1648831986.115516) can1 1ED#419000000000102C
(1648831986.115703) can1 1EF#00000000
(1648831986.117465) can1 0C7#03FE0000
(1648831986.117702) can1 0F9#00006000000000FF
(1648831986.117942) can1 199#4FFF0B82F47D00FF
(1648831986.127469) can1 0C9#0000001930410800
(1648831986.127711) can1 191#05FC05FC05AB3131
(1648831986.127954) can1 1A1#00100100000036
(1648831986.128216) can1 1C3#05FC05FC00003100
(1648831986.128477) can1 1ED#419000000000102C
(1648831986.128666) can1 1EF#00000000
(1648831986.129978) can1 0C7#03FE0000
(1648831986.130233) can1 0F9#00006000000000FF
(1648831986.130479) can1 199#8FFF0B82F47C00FF
(1648831986.136020) can1 1E1#00FF110020
(1648831986.136163) can1 0F1#16E500C0
(1648831986.136418) can1 1F1#AE0E000008000078
(1648831986.137473) can1 19D#40003FFF010000FF
(1648831986.137630) can1 1AF#000001
(1648831986.137878) can1 1F5#0F0F000100000300
(1648831986.140084) can1 0C9#0000001C0B410800
(1648831986.140334) can1 191#05FC05FC05AB1E1E
(1648831986.140600) can1 1ED#419000000000102C
(1648831986.140788) can1 1EF#00000000
(1648831986.142450) can1 0C7#03FE0000
(1648831986.142702) can1 0F9#00006000000000FF
(1648831986.142940) can1 199#CFFF0B82F47B00FF
(1648831986.152484) can1 0C9#0000001300410800
(1648831986.152719) can1 191#05FC05FC05AB1313
(1648831986.152961) can1 1A1#00100100000000
(1648831986.153238) can1 1C3#05FC05FC00001300
(1648831986.153489) can1 1ED#419000000000102C
(1648831986.153672) can1 1EF#00000000
(1648831986.153926) can1 2C3#05FC06A00FFF
(1648831986.154135) can1 2D1#000000000000
(1648831986.154276) can1 2D3#0303
(1648831986.154972) can1 0C7#03FE0000
(1648831986.155231) can1 0F9#00006000000000FF
(1648831986.155473) can1 199#0FFF0B82F47E00FF
(1648831986.162454) can1 19D#80003FFE010000FF
(1648831986.162602) can1 1AF#000001
(1648831986.162846) can1 1F5#0F0F000100000300
(1648831986.165033) can1 0C9#0000001600410800
(1648831986.165285) can1 191#05FC05FC05AB0C0C
(1648831986.165537) can1 1ED#419000000000102C
(1648831986.165728) can1 1EF#00000000
(1648831986.167418) can1 0C7#03FE0000
(1648831986.167640) can1 0F9#00006000000000FF
(1648831986.167881) can1 199#4FFF0B82F47D00FF
(1648831986.168622) can1 1E1#00FE120040
(1648831986.168774) can1 0F1#22E500C0
(1648831986.169029) can1 1F1#AE0E000008000078
(1648831986.177468) can1 0C9#0000001900410800
(1648831986.177717) can1 191#05FC05FC05AB0909
(1648831986.177961) can1 1A1#00100100000000
(1648831986.178221) can1 1C3#05FC05FC00000900
(1648831986.178484) can1 1ED#419000000000102C
(1648831986.178674) can1 1EF#00000000
(1648831986.179989) can1 0C7#03FE0000
(1648831986.180226) can1 0F9#00006000000000FF
(1648831986.180471) can1 199#8FFF0B82F47C00FF
(1648831986.187439) can1 19D#C0003FFD010000FF
(1648831986.187590) can1 1AF#000001
(1648831986.187837) can1 1F5#0F0F000100000300
(1648831986.190017) can1 0C9#0000001C00410800
(1648831986.190277) can1 191#05FC05FC05AB0707
(1648831986.190539) can1 1ED#419000000000102C
(1648831986.190729) can1 1EF#00000000
(1648831986.192400) can1 0C7#03FE0000
(1648831986.192653) can1 0F9#00006000000000FF
(1648831986.192890) can1 199#CFFF0B82F47B00FF
(1648831986.200895) can1 1F3#80A0
(1648831986.201320) can1 1E1#00FD130060
(1648831986.201480) can1 0F1#3EE500C0
(1648831986.201738) can1 1F1#AE0E000008000078
(1648831986.202541) can1 0C9#0000001300410800
(1648831986.202798) can1 191#05FC05FC05AB0505
(1648831986.203047) can1 1A1#00100100000000
(1648831986.203306) can1 1C3#05FC05FC00000500
(1648831986.203569) can1 1ED#419000000000102C
(1648831986.203758) can1 1EF#00000000
(1648831986.203982) can1 2C3#05FC06A00FFF
(1648831986.204205) can1 2D1#000000000000
(1648831986.204361) can1 2D3#0303
(1648831986.204605) can1 3C1#076528A0E796E7AD
(1648831986.204875) can1 3D1#0036800000000000
(1648831986.205040) can1 0C7#03FE0000
(1648831986.205294) can1 0F9#00006000000000FF
(1648831986.205534) can1 199#0FFF0B82F47E00FF
(1648831986.208870) can1 3E9#0000200080006000
(1648831986.212559) can1 19D#00000000010000FF
(1648831986.212708) can1 1AF#000001
(1648831986.212956) can1 1F5#0F0F000100000300
(1648831986.213131) can1 4C9#402E0000
(1648831986.215024) can1 0C9#0000001600410800
(1648831986.215273) can1 191#05FC05FC05AB0404
(1648831986.215533) can1 1ED#419000000000102C
(1648831986.215723) can1 1EF#00000000
(1648831986.217418) can1 0C7#03FE0000
(1648831986.217654) can1 0F9#00006000000000FF
(1648831986.217884) can1 199#4FFF0B82F47D00FF
(1648831986.227451) can1 0C9#0000001900410800
(1648831986.227703) can1 191#05FC05FC05AB0404
(1648831986.227950) can1 1A1#00100100000000
(1648831986.228217) can1 1C3#05FC05FC00000400
(1648831986.228480) can1 1ED#419000000000102C
(1648831986.228670) can1 1EF#00000000
(1648831986.229990) can1 0C7#03FE0000
(1648831986.230252) can1 0F9#00006000000000FF
(1648831986.230503) can1 199#8FFF0B82F47C00FF
(1648831986.233620) can1 1E1#0000100000
(1648831986.233787) can1 0F1#0AE5C000
(1648831986.234035) can1 1F1#AE0E000008000078
(1648831986.237506) can1 19D#40003FFF010000FF
(1648831986.237657) can1 1AF#000001
(1648831986.237906) can1 1F5#0F0F000100000300
(1648831986.240114) can1 0C9#0000001C00410800
(1648831986.240346) can1 191#05FC05FC05AB0303
(1648831986.240606) can1 1ED#419000000000102C
(1648831986.240795) can1 1EF#00000000
(1648831986.242427) can1 0C7#03FE0000
(1648831986.242666) can1 0F9#00006000000000FF
(1648831986.242908) can1 199#CFFF0B82F47B00FF
(1648831986.252485) can1 0C9#0000001300410800
(1648831986.252731) can1 191#05FC05FC05AB0303
(1648831986.252970) can1 1A1#00100100000000
(1648831986.253229) can1 1C3#05FC05FC00000300
(1648831986.253491) can1 1ED#419000000000102C
(1648831986.253689) can1 1EF#00000000
(1648831986.253970) can1 2C3#05FC06A00FFF
(1648831986.254191) can1 2D1#000000000000
(1648831986.254341) can1 2D3#0303
(1648831986.254950) can1 0C7#03FE0000
(1648831986.255202) can1 0F9#00006000000000FF
(1648831986.255442) can1 199#0FFF0B82F47E00FF
(1648831986.262435) can1 19D#80003FFE010000FF
(1648831986.262589) can1 1AF#000001
(1648831986.262836) can1 1F5#0F0F000100000300
(1648831986.265019) can1 0C9#0000001600410800
(1648831986.265276) can1 191#05FC05FC05AB0303
(1648831986.265538) can1 1ED#419000000000102C
(1648831986.265730) can1 1EF#00000000
(1648831986.266392) can1 1E1#00FF110020
(1648831986.266558) can1 0F1#16E500C0
(1648831986.266806) can1 1F1#AE0E000008000078
(1648831986.267425) can1 0C7#03FE0000
(1648831986.267677) can1 0F9#00006000000000FF
(1648831986.267919) can1 199#4FFF0B82F47D00FF
(1648831986.277460) can1 0C9#0000001900410800
(1648831986.277719) can1 191#05FC05FC05AB0202
(1648831986.277965) can1 1A1#00100100000000
(1648831986.278226) can1 1C3#05FC05FC00000200
(1648831986.278488) can1 1ED#419000000000102C
(1648831986.278678) can1 1EF#00000000
(1648831986.279973) can1 0C7#03FE0000
(1648831986.280223) can1 0F9#00006000000000FF
(1648831986.280469) can1 199#8FFF0B82F47C00FF
(1648831986.287454) can1 19D#C0003FFD010000FF
(1648831986.287611) can1 1AF#000001
(1648831986.287872) can1 1F5#0F0F000100000300
(1648831986.290037) can1 0C9#0000001C00410800
(1648831986.290295) can1 191#05FC05FC05AB0202
(1648831986.290556) can1 1ED#419000000000102C
(1648831986.290747) can1 1EF#00000000
(1648831986.292449) can1 0C7#03FE0000
(1648831986.292703) can1 0F9#00006000000000FF
(1648831986.292940) can1 199#CFFF0B82F47B00FF
(1648831986.298779) can1 1E1#00FE120040
(1648831986.298943) can1 0F1#22E500C0
(1648831986.299188) can1 1F1#AE0E000008000078
(1648831986.299326) can1 1F3#C0E0
(1648831986.302526) can1 0C9#0000001300410800
(1648831986.302783) can1 191#05FC05FC05AB0202
(1648831986.303034) can1 1A1#00100100000000
(1648831986.303293) can1 1C3#05FC05FC00000200
(1648831986.303555) can1 1ED#419000000000102C
(1648831986.303779) can1 1EF#00000000
(1648831986.304000) can1 2C3#05FC06A00FFF
(1648831986.304231) can1 2D1#000000000000
(1648831986.304376) can1 2D3#0303
(1648831986.304625) can1 3C1#076528A0E796E7AD
(1648831986.304889) can1 3D1#0033800000000000
(1648831986.305070) can1 0C7#03FE0000
(1648831986.305320) can1 0F9#00006000000000FF
(1648831986.305559) can1 199#0FFF0B82F47E00FF
(1648831986.308875) can1 3E9#0000200080006000
(1648831986.312634) can1 19D#00000000010000FF
(1648831986.312737) can1 1AF#000001
(1648831986.313028) can1 1F5#0F0F000100000300
(1648831986.315053) can1 0C9#0000001600410800
(1648831986.315273) can1 191#05FC05FC05AB0202
(1648831986.315538) can1 1ED#419000000000102C
(1648831986.315726) can1 1EF#00000000
(1648831986.317419) can1 0C7#03FE0000
(1648831986.317668) can1 0F9#00006000000000FF
(1648831986.317909) can1 199#4FFF0B82F47D00FF
(1648831986.327487) can1 0C9#0000000A00410800
(1648831986.327742) can1 191#05FC05FC05AB0202
(1648831986.327983) can1 1A1#00100100000000
(1648831986.328243) can1 1C3#05FC05FC00000200
(1648831986.328506) can1 1ED#419000000000102C
(1648831986.328696) can1 1EF#00000000
(1648831986.330018) can1 0C7#03FE0000
(1648831986.330266) can1 0F9#00006000000000FF
(1648831986.330512) can1 199#8FFF0B82F47C00FF
(1648831986.331254) can1 1E1#00FD130060
(1648831986.331425) can1 0F1#3EE500C0
(1648831986.331660) can1 1F1#AE0E000008000078
(1648831986.337560) can1 19D#40003FFF010000FF
(1648831986.337725) can1 1AF#000001
(1648831986.337956) can1 1F5#0F0F000100000300
(1648831986.340019) can1 0C9#0000000D00410800
(1648831986.340270) can1 191#05FC05FC05AB0101
(1648831986.340534) can1 1ED#419000000000102C
(1648831986.340721) can1 1EF#00000000
(1648831986.342427) can1 0C7#03FE0000
(1648831986.342668) can1 0F9#00006000000000FF
(1648831986.342904) can1 199#CFFF0B82F47B00FF
(1648831986.352469) can1 0C9#0000000000410800
(1648831986.352718) can1 191#05FC05FC05AB0101
(1648831986.352970) can1 1A1#00100100000000
(1648831986.353230) can1 1C3#05FC05FC00000100
(1648831986.353490) can1 1ED#419000000000102C
(1648831986.353679) can1 1EF#00000000
(1648831986.353930) can1 2C3#05FC06A00FFF
(1648831986.354140) can1 2D1#000000000000
(1648831986.354286) can1 2D3#0303
(1648831986.355000) can1 0C7#03FE0000
(1648831986.355251) can1 0F9#00006000000000FF
(1648831986.355493) can1 199#0FFF0B82F47E00FF
(1648831986.358869) can1 3F9#840000005500FD0C
(1648831986.359021) can1 3FB#0008
(1648831986.362458) can1 19D#80003FFE010000FF
(1648831986.362611) can1 1AF#000001
(1648831986.362859) can1 1F5#0F0F000100000300
(1648831986.363769) can1 1E1#0000100000
(1648831986.363972) can1 0F1#0AE5C000
(1648831986.364174) can1 1F1#AE0E000008000078
(1648831986.365101) can1 0C9#0000000700410800
(1648831986.365355) can1 191#05FC05FC05AB0101
(1648831986.365617) can1 1ED#419000000000102C
(1648831986.365806) can1 1EF#00000000
(1648831986.367481) can1 0C7#03FE0000
(1648831986.367741) can1 0F9#00006000000000FF
(1648831986.367975) can1 199#4FFF0B82F47D00FF
(1648831986.377471) can1 0C9#0000000A00410800
(1648831986.377719) can1 191#05FC05FC05AB0101
(1648831986.377967) can1 1A1#00100100000000
(1648831986.378227) can1 1C3#05FC05FC00000100
(1648831986.378489) can1 1ED#419000000000102C
(1648831986.378678) can1 1EF#00000000
(1648831986.380006) can1 0C7#03FE0000
(1648831986.380241) can1 0F9#00006000000000FF
(1648831986.380490) can1 199#8FFF0B82F47C00FF
(1648831986.387464) can1 19D#C0003FFD010000FF
(1648831986.387615) can1 1AF#000001
(1648831986.387864) can1 1F5#0F0F000100000300
(1648831986.390030) can1 0C9#0000000D00410800
(1648831986.390272) can1 191#05FC05FC05AB0101
(1648831986.390534) can1 1ED#419000000000102C
(1648831986.390723) can1 1EF#00000000
(1648831986.392437) can1 0C7#03FE0000
(1648831986.392682) can1 0F9#00006000000000FF
(1648831986.392920) can1 199#CFFF0B82F47B00FF
(1648831986.396342) can1 1E1#00FF110020
(1648831986.396505) can1 0F1#16E500C0
(1648831986.396752) can1 1F1#AE0E000008000078
(1648831986.396891) can1 1F3#0020
(1648831986.402529) can1 0C9#0000000000410800
(1648831986.402787) can1 191#05FC05FC05AB0101
(1648831986.403033) can1 1A1#00100100000000
(1648831986.403296) can1 1C3#05FC05FC00000100
(1648831986.403558) can1 1ED#419000000000102C
(1648831986.403748) can1 1EF#00000000
(1648831986.403987) can1 2C3#05FC06A00FFF
(1648831986.404208) can1 2D1#000000000000
(1648831986.404358) can1 2D3#0303
(1648831986.404610) can1 3C1#076528A0E796E7AD
(1648831986.404873) can1 3D1#0033800000000000
(1648831986.405041) can1 0C7#03FE0000
(1648831986.405293) can1 0F9#00006000000000FF
(1648831986.405535) can1 199#0FFF0B82F47E00FF
(1648831986.408865) can1 3E9#0000200080006000
(1648831986.412561) can1 19D#00000000010000FF
(1648831986.412709) can1 1AF#000001
(1648831986.412963) can1 1F5#0F0F000100000300
(1648831986.415017) can1 0C9#0000000700410800
(1648831986.415257) can1 191#05FC05FC05AB0101
(1648831986.415518) can1 1ED#419000000000102C
(1648831986.415705) can1 1EF#00000000
(1648831986.417440) can1 0C7#03FE0000
(1648831986.417738) can1 0F9#00006000000000FF
(1648831986.417927) can1 199#4FFF0B82F47D00FF
(1648831986.427458) can1 0C9#0000000A00410800
(1648831986.427702) can1 191#05FC05FC05AB0101
(1648831986.427948) can1 1A1#00100100000000
(1648831986.428210) can1 1C3#05FC05FC00000100
(1648831986.428484) can1 1ED#419000000000102C
(1648831986.428661) can1 1EF#00000000
(1648831986.429090) can1 1E1#00FE120040
(1648831986.429354) can1 0F1#22E500C0
(1648831986.429591) can1 1F1#AE0E000008000078
(1648831986.429976) can1 0C7#03FE0000
(1648831986.430231) can1 0F9#00006000000000FF
(1648831986.430476) can1 199#8FFF0B82F47C00FF
(1648831986.437515) can1 19D#40003FFF010000FF
(1648831986.437711) can1 1AF#000001
(1648831986.437917) can1 1F5#0F0F000100000300
(1648831986.440002) can1 0C9#0000000D00410800
(1648831986.440257) can1 191#05FC05FC05AB0101
(1648831986.440517) can1 1ED#419000000000102C
(1648831986.440707) can1 1EF#00000000
(1648831986.442427) can1 0C7#03FE0000
(1648831986.442679) can1 0F9#00006000000000FF
(1648831986.442917) can1 199#CFFF0B82F47B00FF
(1648831986.452488) can1 0C9#0000000000410800
(1648831986.452726) can1 191#05FC05FC05AB0000
(1648831986.452971) can1 1A1#00100100000000
(1648831986.453235) can1 1C3#05FC05FC00000000
(1648831986.453497) can1 1ED#419000000000102C
(1648831986.453685) can1 1EF#00000000
(1648831986.453980) can1 2C3#05FC06A00FFF
(1648831986.454194) can1 2D1#000000000000
(1648831986.454345) can1 2D3#0303
(1648831986.454996) can1 0C7#03FE0000
(1648831986.455241) can1 0F9#00006000000000FF
(1648831986.455481) can1 199#0FFF0B82F47E00FF
(1648831986.461332) can1 1E1#00FD130060
(1648831986.461483) can1 0F1#3EE500C0
(1648831986.461726) can1 1F1#AE0E000008000078
(1648831986.462435) can1 19D#80003FFE010000FF
(1648831986.462589) can1 1AF#000001
(1648831986.462838) can1 1F5#0F0F000100000300
(1648831986.465098) can1 0C9#0000000700410800
(1648831986.465348) can1 191#05FC05FC05AB0000
(1648831986.465616) can1 1ED#419000000000102C
(1648831986.465798) can1 1EF#00000000
(1648831986.467457) can1 0C7#03FE0000
(1648831986.467713) can1 0F9#00006000000000FF
(1648831986.467987) can1 199#4FFF0B82F47D00FF
(1648831986.477461) can1 0C9#0000000A00410800
(1648831986.477711) can1 191#05FC05FC05AB0000
(1648831986.477955) can1 1A1#00100100000000
(1648831986.478218) can1 1C3#05FC05FC00000000
(1648831986.478481) can1 1ED#419000000000102C
(1648831986.478671) can1 1EF#00000000
(1648831986.479989) can1 0C7#03FE0000
(1648831986.480241) can1 0F9#00006000000000FF
(1648831986.480487) can1 199#8FFF0B82F47C00FF
(1648831986.487436) can1 19D#C0003FFD010000FF
(1648831986.487592) can1 1AF#000001
(1648831986.487840) can1 1F5#0F0F000100000300
(1648831986.490013) can1 0C9#0000000D00410800
(1648831986.490261) can1 191#05FC05FC05AB0000
(1648831986.490524) can1 1ED#419000000000102C
(1648831986.490713) can1 1EF#00000000
(1648831986.492436) can1 0C7#03FE0000
(1648831986.492694) can1 0F9#00006000000000FF
(1648831986.492923) can1 199#CFFF0B82F47B00FF
(1648831986.493961) can1 1E1#0000100000
(1648831986.494082) can1 0F1#0AE5C000
(1648831986.494318) can1 1F1#AE0E000008000078
(1648831986.494451) can1 1F3#4060
(1648831986.502449) can1 0C9#0000000000410800
(1648831986.502697) can1 191#05FC05FC05AB0000
(1648831986.502945) can1 1A1#00100100000000
(1648831986.503206) can1 1C3#05FC05FC00000000
(1648831986.503469) can1 1ED#419000000000102C
(1648831986.503658) can1 1EF#00000000
(1648831986.503906) can1 2C3#05FC06A00FFF
(1648831986.504117) can1 2D1#000000000000
(1648831986.504275) can1 2D3#0303
(1648831986.504517) can1 3C1#076528A0E796E7AD
(1648831986.504786) can1 3D1#0030800000000000
(1648831986.504997) can1 0C7#03FE0000
(1648831986.505236) can1 0F9#00006000000000FF
(1648831986.505479) can1 199#0FFF0B82F47E00FF
(1648831986.508844) can1 3E9#0000200080006000
(1648831986.512489) can1 19D#00000000010000FF
(1648831986.512642) can1 1AF#000001
(1648831986.512891) can1 1F5#0F0F000100000300
(1648831986.515005) can1 0C9#0000000700410800
(1648831986.515260) can1 191#05FC05FC05AB0000
(1648831986.515522) can1 1ED#419000000000102C
(1648831986.515712) can1 1EF#00000000
(1648831986.517444) can1 0C7#03FE0000
(1648831986.517696) can1 0F9#00006000000000FF
(1648831986.517985) can1 199#4FFF0B82F47D00FF
(1648831986.526364) can1 1E1#00FF110020
(1648831986.526530) can1 0F1#16E500C0
(1648831986.526777) can1 1F1#AE0E000008000078
(1648831986.527531) can1 0C9#0000000A00410800
(1648831986.527796) can1 191#05FC05FC05AB0000
(1648831986.528039) can1 1A1#00100100000000
(1648831986.528304) can1 1C3#05FC05FC00000000
(1648831986.528565) can1 1ED#419000000000102C
(1648831986.528756) can1 1EF#00000000
(1648831986.530056) can1 0C7#03FE0000
(1648831986.530307) can1 0F9#00006000000000FF
(1648831986.530572) can1 199#8FFF0B82F47C00FF
(1648831986.537535) can1 19D#40003FFF010000FF
(1648831986.537672) can1 1AF#000001
(1648831986.537912) can1 1F5#0F0F000100000300
(1648831986.540002) can1 0C9#0000000D00410800
(1648831986.540256) can1 191#05FC05FC05AB0000
(1648831986.540520) can1 1ED#419000000000102C
(1648831986.540707) can1 1EF#00000000
(1648831986.542443) can1 0C7#03FE0000
(1648831986.542687) can1 0F9#00006000000000FF
(1648831986.542923) can1 199#CFFF0B82F47B00FF
(1648831986.552462) can1 0C9#0000000000410800
(1648831986.552705) can1 191#05FC05FC05AB0000
(1648831986.552959) can1 1A1#00100100000000
(1648831986.553214) can1 1C3#05FC05FC00000000
(1648831986.553481) can1 1ED#419000000000102C
(1648831986.553668) can1 1EF#00000000
(1648831986.553927) can1 2C3#05FC06A00FFF
(1648831986.554123) can1 2D1#000000000000
(1648831986.554273) can1 2D3#0303
(1648831986.554974) can1 0C7#03FE0000
(1648831986.555217) can1 0F9#00006000000000FF
(1648831986.555464) can1 199#0FFF0B82F47E00FF
(1648831986.558890) can1 1E1#00FE120040
(1648831986.559050) can1 0F1#22E500C0
(1648831986.559297) can1 1F1#AE0E000008000078
(1648831986.562464) can1 19D#80003FFE010000FF
(1648831986.562617) can1 1AF#000001
(1648831986.562864) can1 1F5#0F0F000100000300
(1648831986.565069) can1 0C9#0000000700410800
(1648831986.565330) can1 191#05FC05FC05AB0000
(1648831986.565591) can1 1ED#419000000000102C
(1648831986.565780) can1 1EF#00000000
(1648831986.567479) can1 0C7#03FE0000
(1648831986.567731) can1 0F9#00006000000000FF
(1648831986.567973) can1 199#4FFF0B82F47D00FF
(1648831986.577456) can1 0C9#0000000A00410800
(1648831986.577713) can1 191#05FC05FC05AB0000
(1648831986.577955) can1 1A1#00100100000001
(1648831986.578215) can1 1C3#05FC05FC00000000
(1648831986.578508) can1 1ED#419000000000102C
(1648831986.578671) can1 1EF#00000000
(1648831986.579987) can1 0C7#03FE0000
(1648831986.580248) can1 0F9#00006000000000FF
(1648831986.580492) can1 199#8FFF0B82F47C00FF
(1648831986.587471) can1 19D#C0003FFD010000FF
(1648831986.587614) can1 1AF#000001
(1648831986.587855) can1 1F5#0F0F000100000300
(1648831986.590008) can1 0C9#0000000D00410800
(1648831986.590260) can1 191#05FC05FC05AB0000
(1648831986.590519) can1 1ED#419000000000102C
(1648831986.590708) can1 1EF#00000000
(1648831986.591498) can1 1E1#00FD130060
(1648831986.591657) can1 0F1#3EE500C0
(1648831986.591909) can1 1F1#AE0E000008000078
(1648831986.592037) can1 1F3#80A0
(1648831986.592419) can1 0C7#03FE0000
(1648831986.592670) can1 0F9#00006000000000FF
(1648831986.592908) can1 199#CFFF0B82F47B00FF
(1648831986.602466) can1 0C9#0000000000410800
(1648831986.602711) can1 191#05FC05FC05AB0000
(1648831986.602953) can1 1A1#00100100000001
(1648831986.603219) can1 1C3#05FC05FC00000000
(1648831986.603477) can1 1ED#419000000000102C
(1648831986.603667) can1 1EF#00000000
(1648831986.603914) can1 2C3#05FC06A00FFF
(1648831986.604126) can1 2D1#000000000000
(1648831986.604277) can1 2D3#0303
(1648831986.604526) can1 3C1#076528A0E796E7AD
(1648831986.604793) can1 3D1#0030800000000000
(1648831986.604990) can1 0C7#03FE0000
(1648831986.605242) can1 0F9#00006000000000FF
(1648831986.605486) can1 199#0FFF0B82F47E00FF
(1648831986.608849) can1 3E9#0000200080006000
(1648831986.609098) can1 3F9#840000005500FD0C
(1648831986.609246) can1 3FB#0008
(1648831986.609507) can1 4C1#00BD2D2976000000
(1648831986.609763) can1 4D1#000004031E40009C
(1648831986.610017) can1 4F1#022E022E00F4009C
(1648831986.610264) can1 772#00000000000000
(1648831986.612517) can1 19D#00000000010000FF
(1648831986.612674) can1 1AF#000001
(1648831986.612919) can1 1F5#0F0F000100000300
(1648831986.615006) can1 0C9#0000000700410800
(1648831986.615261) can1 191#05FC05FC05AB0000
(1648831986.615522) can1 1ED#019000000000102C
(1648831986.615711) can1 1EF#00000000
(1648831986.617631) can1 0C7#03FE0000
(1648831986.617871) can1 0F9#00006000000000FF
(1648831986.618128) can1 199#4FFF0B82F47D00FF
(1648831986.623967) can1 1E1#0000100000
(1648831986.624114) can1 0F1#0AE5C000
(1648831986.624362) can1 1F1#AE0E000008000078
(1648831986.627524) can1 0C9#0000000A00410800
(1648831986.627782) can1 191#05FC05FC05AB0000
(1648831986.628026) can1 1A1#00100100000002
(1648831986.628313) can1 1C3#05FC05FC00000000
(1648831986.628552) can1 1ED#019000000000102C
(1648831986.628742) can1 1EF#00000000
(1648831986.630085) can1 0C7#03FE0000
(1648831986.630336) can1 0F9#00006000000000FF
(1648831986.630582) can1 199#8FFF0B82F47C00FF
(1648831986.637541) can1 19D#40003FFF010000FF
(1648831986.637697) can1 1AF#000001
(1648831986.637945) can1 1F5#0F0F000100000300
(1648831986.639998) can1 0C9#0000000D00410800
(1648831986.640258) can1 191#05FC05FC05AB0000
(1648831986.640520) can1 1ED#019000000000102C
(1648831986.640710) can1 1EF#00000000
(1648831986.642418) can1 0C7#03FE0000
(1648831986.642672) can1 0F9#00004000000000FF
(1648831986.642909) can1 199#CFFF0B82F47B00FF
(1648831986.652450) can1 0C9#0000000000410800
(1648831986.652708) can1 191#05FC05FC05AB0000
(1648831986.652960) can1 1A1#00100100000003
(1648831986.653220) can1 1C3#05FC05FC00000000
(1648831986.653482) can1 1ED#019000000000102C
(1648831986.653673) can1 1EF#00000000
(1648831986.653916) can1 2C3#05FC06A00FFF
(1648831986.654140) can1 2D1#000000000000
(1648831986.654286) can1 2D3#0303
(1648831986.655003) can1 0C7#03FE0000
(1648831986.655258) can1 0F9#00004000000000FF
(1648831986.655508) can1 199#0FFF0B82F47E00FF
(1648831986.656530) can1 1E1#00FF110020
(1648831986.656659) can1 0F1#16E500C0
(1648831986.656898) can1 1F1#AE0E000008000078
(1648831986.662515) can1 19D#80003FFE010000FF
(1648831986.662649) can1 1AF#000001
(1648831986.662892) can1 1F5#0F0F000100000300
(1648831986.665008) can1 0C9#0000000700410800
(1648831986.665260) can1 191#05FC05FC05AB0000
(1648831986.665519) can1 1ED#019000000000102C
(1648831986.665712) can1 1EF#00000000
(1648831986.667467) can1 0C7#03FE0000
(1648831986.667710) can1 0F9#00004000000000FF
(1648831986.667950) can1 199#4FFF0B82F47D00FF
(1648831986.677461) can1 0C9#0000000A00410800
(1648831986.677710) can1 191#05FC05FC05AB0000
(1648831986.677952) can1 1A1#00100100000005
(1648831986.678217) can1 1C3#05FC05FC00000000
(1648831986.678478) can1 1ED#019000000000102C
(1648831986.678669) can1 1EF#00000000
(1648831986.679985) can1 0C7#03FE0000
(1648831986.680233) can1 0F9#00004000000000FF
(1648831986.680478) can1 199#8FFF0B82F47C00FF
(1648831986.687461) can1 19D#C0003FFD010000FF
(1648831986.687612) can1 1AF#000001
(1648831986.687856) can1 1F5#0F0F000100000300
(1648831986.689088) can1 1E1#00FE120040
(1648831986.689258) can1 0F1#22E500C0
(1648831986.689492) can1 1F1#AE0E000008000078
(1648831986.689626) can1 1F3#C0E0
(1648831986.690082) can1 0C9#0000000D00410800
(1648831986.690343) can1 191#05FC05FC05AB0000
(1648831986.690605) can1 1ED#019000000000102C
(1648831986.690793) can1 1EF#00000000
(1648831986.692551) can1 0C7#03FE0000
(1648831986.692797) can1 0F9#00004000000000FF
(1648831986.693021) can1 199#CFFF0B82F47B00FF
(1648831986.702469) can1 0C9#0000000000410800
(1648831986.702710) can1 191#05FC05FC05AB0000
(1648831986.702980) can1 1A1#00100100000007
(1648831986.703242) can1 1C3#05FC05FC00000000
(1648831986.703501) can1 1ED#019000000000102C
(1648831986.703691) can1 1EF#00000000
(1648831986.703975) can1 2C3#05FC06A00FFF
(1648831986.704206) can1 2D1#000000000000
(1648831986.704349) can1 2D3#0303
(1648831986.704600) can1 3C1#076528A0E796E7AD
(1648831986.704867) can1 3D1#0030800000000000
(1648831986.705034) can1 0C7#03FE0000
(1648831986.705286) can1 0F9#00004000000000FF
(1648831986.705529) can1 199#0FFF0B82F47E00FF
(1648831986.708850) can1 3E9#0000200080006000
(1648831986.712506) can1 19D#00000000010000FF
(1648831986.712663) can1 1AF#000001
(1648831986.712910) can1 1F5#0F0F000100000300
(1648831986.713080) can1 4C9#402E0000
(1648831986.713314) can1 77F#00000000000000
(1648831986.715019) can1 0C9#0000000700410800
(1648831986.715278) can1 191#05FC05FC05AB0000
(1648831986.715542) can1 1ED#019000000000102C
(1648831986.715731) can1 1EF#00000000
(1648831986.717453) can1 0C7#03FE0000
(1648831986.717706) can1 0F9#00004000000000FF
(1648831986.717947) can1 199#4FFF0B82F47D00FF
(1648831986.721538) can1 1E1#00FD130060
(1648831986.721703) can1 0F1#3EE500C0
(1648831986.721951) can1 1F1#AE0E000008000078
(1648831986.727521) can1 0C9#0000000A00410800
(1648831986.727777) can1 191#05FC05FC05AB0000
(1648831986.728025) can1 1A1#00100100000008
(1648831986.728289) can1 1C3#05FC05FC00000000
(1648831986.728552) can1 1ED#019000000000102C
(1648831986.728742) can1 1EF#00000000
(1648831986.730050) can1 0C7#03FE0000
(1648831986.730304) can1 0F9#00004000000000FF
(1648831986.730551) can1 199#8FFF0B82F47C00FF
(1648831986.737529) can1 19D#40003FFF010000FF
(1648831986.737686) can1 1AF#000001
(1648831986.737956) can1 1F5#0F0F000100000300
(1648831986.739999) can1 0C9#0000000D00410800
(1648831986.740263) can1 191#05FC05FC05AB0000
(1648831986.740525) can1 1ED#019000000000102C
(1648831986.740713) can1 1EF#00000000
(1648831986.742456) can1 0C7#03FE0000
(1648831986.742680) can1 0F9#00004000000000FF
(1648831986.742921) can1 199#CFFF0B82F47B00FF
(1648831986.752480) can1 0C9#0000000000410800
(1648831986.752712) can1 191#05FC05FC05AB0000
(1648831986.752956) can1 1A1#00100100000008
(1648831986.753222) can1 1C3#05FC05FC00000000
(1648831986.753482) can1 1ED#019000000000102C
(1648831986.753674) can1 1EF#00000000
(1648831986.753922) can1 2C3#05FC06A00FFF
(1648831986.754128) can1 2D1#000000000000
(1648831986.754278) can1 2D3#0303
(1648831986.754484) can1 1E1#0000100000
(1648831986.754720) can1 0F1#0AE5C000
(1648831986.754968) can1 1F1#AE0E000008000078
(1648831986.755136) can1 0C7#03FE0000
(1648831986.755462) can1 0F9#00004000000000FF
(1648831986.755703) can1 199#0FFF0B82F47E00FF
(1648831986.762508) can1 19D#80003FFE010000FF
(1648831986.762658) can1 1AF#000001
(1648831986.762906) can1 1F5#0F0F000100000300
(1648831986.765015) can1 0C9#0000000700410800
(1648831986.765261) can1 191#05FC05FC05AB0000
(1648831986.765522) can1 1ED#019000000000102C
(1648831986.765713) can1 1EF#00000000
(1648831986.767444) can1 0C7#03FE0000
(1648831986.767690) can1 0F9#00004000000000FF
(1648831986.767941) can1 199#4FFF0B82F47D00FF
(1648831986.777458) can1 0C9#0000000A00410800
(1648831986.777710) can1 191#05FC05FC05AB0000
(1648831986.777957) can1 1A1#00100100000008
(1648831986.778221) can1 1C3#05FC05FC00000000
(1648831986.778485) can1 1ED#019000000000102C
(1648831986.778677) can1 1EF#00000000
(1648831986.780015) can1 0C7#03FE0000
(1648831986.780264) can1 0F9#00004000000000FF
(1648831986.780510) can1 199#8FFF0B82F47C00FF
(1648831986.786784) can1 1E1#00FF110020
(1648831986.786940) can1 0F1#16E500C0
(1648831986.787182) can1 1F1#AE0E000008000078
(1648831986.787312) can1 4E9#8120
(1648831986.787555) can1 19D#C0003FFD010000FF
(1648831986.787693) can1 1F3#0020
(1648831986.787846) can1 1AF#000001
(1648831986.788098) can1 1F5#0F0F000100000300
(1648831986.790095) can1 0C9#0000000D00410800
(1648831986.790349) can1 191#05FC05FC05AB0000
(1648831986.790609) can1 1ED#019000000000102C
(1648831986.790799) can1 1EF#00000000
(1648831986.792535) can1 0C7#03FE0000
(1648831986.792788) can1 0F9#00004000000000FF
(1648831986.793023) can1 199#CFFF0B82F47B00FF
(1648831986.802472) can1 0C9#0000000000410800
(1648831986.802709) can1 191#05FC05FC05AB0000
(1648831986.802976) can1 1A1#00100100000008
(1648831986.803240) can1 1C3#05FC05FC00000000
(1648831986.803506) can1 1ED#019000000000102C
(1648831986.803698) can1 1EF#00000000
(1648831986.803974) can1 2C3#05FC06A00FFF
(1648831986.804200) can1 2D1#000000000000
(1648831986.804349) can1 2D3#0303
(1648831986.804625) can1 3C1#076528A0E796E7AD
(1648831986.804873) can1 3D1#0030800000000000
(1648831986.805038) can1 0C7#03FE0000
(1648831986.805291) can1 0F9#00004000000000FF
(1648831986.805547) can1 199#0FFF0B82F47E00FF
(1648831986.808852) can1 3E9#0000200080006000
(1648831986.812514) can1 19D#00000000010000FF
(1648831986.812669) can1 1AF#000001
(1648831986.812921) can1 1F5#0F0F000100000300
(1648831986.815008) can1 0C9#0000000700410800
(1648831986.815260) can1 191#05FC05FC05AB0000
(1648831986.815525) can1 1ED#019000000000102C
(1648831986.815709) can1 1EF#00000000
(1648831986.817469) can1 0C7#03FE0000
(1648831986.817710) can1 0F9#00004000000000FF
(1648831986.817951) can1 199#4FFF0B82F47D00FF
(1648831986.819170) can1 1E1#00FE120040
(1648831986.819369) can1 0F1#22E500C0
(1648831986.819575) can1 1F1#AE0E000008000078
(1648831986.827451) can1 0C9#0000000A00410800
(1648831986.827710) can1 191#05FC05FC05AB0000
(1648831986.827963) can1 1A1#00100100000008
(1648831986.828224) can1 1C3#05FC05FC00000000
(1648831986.828485) can1 1ED#019000000000102C
(1648831986.828699) can1 1EF#00000000
(1648831986.830008) can1 0C7#03FE0000
(1648831986.830258) can1 0F9#00004000000000FF
(1648831986.830505) can1 199#8FFF0B82F47C00FF
(1648831986.837487) can1 19D#40003FFF010000FF
(1648831986.837643) can1 1AF#000001
(1648831986.837891) can1 1F5#0F0F000100000300
(1648831986.840005) can1 0C9#0000000D00410800
(1648831986.840265) can1 191#05FC05FC05AB0000
(1648831986.840527) can1 1ED#019000000000102C
(1648831986.840717) can1 1EF#00000000
(1648831986.842459) can1 0C7#03FE0000
(1648831986.842710) can1 0F9#00004000000000FF
(1648831986.842948) can1 199#CFFF0B82F47B00FF
(1648831986.851697) can1 1E1#00FD130060
(1648831986.851853) can1 0F1#3EE500C0
(1648831986.852106) can1 1F1#AE0E000008000078
(1648831986.852522) can1 0C9#0000000000410800
(1648831986.852794) can1 191#05FC05FC05AB0000
(1648831986.853027) can1 1A1#00100100000008
(1648831986.853292) can1 1C3#05FC05FC00000000
(1648831986.853550) can1 1ED#019000000000102C
(1648831986.853736) can1 1EF#00000000
(1648831986.853983) can1 2C3#05FC06A00FFF
(1648831986.854210) can1 2D1#000000000000
(1648831986.854364) can1 2D3#0303
(1648831986.855037) can1 0C7#03FE0000
(1648831986.855315) can1 0F9#00004000000000FF
(1648831986.855531) can1 199#0FFF0B82F47E00FF
(1648831986.858920) can1 3F9#040000005500FD0D
(1648831986.859048) can1 3FB#0008
(1648831986.862531) can1 19D#80003FFE010000FF
(1648831986.862658) can1 1AF#000001
(1648831986.862909) can1 1F5#0F0F000100000300
(1648831986.865019) can1 0C9#0000000700410800
(1648831986.865260) can1 191#05FC05FC05AB0000
(1648831986.865522) can1 1ED#019000000000102C
(1648831986.865711) can1 1EF#00000000
(1648831986.867481) can1 0C7#03FE0000
(1648831986.867738) can1 0F9#00004000000000FF
(1648831986.867962) can1 199#4FFF0B82F47D00FF
(1648831986.877477) can1 0C9#0000000A01410800
(1648831986.877739) can1 191#05FC05FC05AB0000
(1648831986.877989) can1 1A1#00100100000009
(1648831986.878239) can1 1C3#05FC05FC00000000
(1648831986.878502) can1 1ED#019000000000102C
(1648831986.878700) can1 1EF#00000000
(1648831986.880038) can1 0C7#03FE0000
(1648831986.880277) can1 0F9#00004000000000FF
(1648831986.880522) can1 199#8FFF0B82F47C00FF
(1648831986.884008) can1 1F3#4060
(1648831986.884447) can1 1E1#0000100000
(1648831986.884609) can1 0F1#0AE5C000
(1648831986.884854) can1 1F1#AE0E000008000078
(1648831986.887548) can1 19D#C0003FFD010000FF
(1648831986.887690) can1 1AF#000001
(1648831986.887937) can1 1F5#0F0F000100000300
(1648831986.890106) can1 0C9#0000000D03410800
(1648831986.890354) can1 191#05FC05FC05AB0000
(1648831986.890615) can1 1ED#019000000000102C
(1648831986.890803) can1 1EF#00000000
(1648831986.892487) can1 0C7#03FE0000
(1648831986.892736) can1 0F9#00004000000000FF
(1648831986.892978) can1 199#CFFF0B82F47B00FF
(1648831986.902475) can1 0C9#0000000005410800
(1648831986.902736) can1 191#05FC05FC05AB0000
(1648831986.902982) can1 1A1#0010010000000E
(1648831986.903240) can1 1C3#05FC05FC00000000
(1648831986.903500) can1 1ED#019000000000102C
(1648831986.903699) can1 1EF#00000000
(1648831986.903981) can1 2C3#05FC06A00FFF
(1648831986.904205) can1 2D1#000000000000
(1648831986.904353) can1 2D3#0303
(1648831986.904610) can1 3C1#076528A0E796E7AD
(1648831986.904868) can1 3D1#0030800000000000
(1648831986.905043) can1 0C7#03FE0000
(1648831986.905289) can1 0F9#00004000000000FF
(1648831986.905529) can1 199#0FFF0B82F47E00FF
(1648831986.908880) can1 3E9#0000200080006000
(1648831986.912536) can1 19D#00000000010000FF
(1648831986.912688) can1 1AF#000001
(1648831986.912930) can1 1F5#0F0F000100000300
(1648831986.915044) can1 0C9#000000070A410800
(1648831986.915285) can1 191#05FC05FC05AB0000
(1648831986.915553) can1 1ED#019000000000102C
(1648831986.915734) can1 1EF#00000000
(1648831986.916757) can1 1E1#00FF110020
(1648831986.916919) can1 0F1#16E500C0
(1648831986.917166) can1 1F1#AE0E000008000078
(1648831986.917442) can1 0C7#03FE0000
(1648831986.917698) can1 0F9#00004000000000FF
(1648831986.917940) can1 199#4FFF0B82F47D00FF
(1648831986.927472) can1 0C9#0000000A0F410800
(1648831986.927727) can1 191#05FC05FC05AB0000
(1648831986.927970) can1 1A1#00100100000018
(1648831986.928245) can1 1C3#05FC05FC00000000
(1648831986.928497) can1 1ED#019000000000102C
(1648831986.928688) can1 1EF#00000000
(1648831986.930037) can1 0C7#03FE0000
(1648831986.930288) can1 0F9#00004000000000FF
(1648831986.930533) can1 199#8FFF0B82F47C00FF
(1648831986.937508) can1 19D#40003FFF010000FF
(1648831986.937654) can1 1AF#000001
(1648831986.937909) can1 1F5#0F0F000100000300
(1648831986.940018) can1 0C9#0000000D14410800
(1648831986.940275) can1 191#05FC05FC05AB0101
(1648831986.940538) can1 1ED#019000000000102C
(1648831986.940727) can1 1EF#00000000
(1648831986.942461) can1 0C7#03FE0000
(1648831986.942714) can1 0F9#00004000000000FF
(1648831986.942951) can1 199#CFFF0B82F47B00FF
(1648831986.949282) can1 1E1#00FE120040
(1648831986.949441) can1 0F1#22E500C0
(1648831986.949688) can1 1F1#AE0E000008000078
(1648831986.952551) can1 0C9#000000131A410800
(1648831986.952809) can1 191#05FC05FC05AB0303
(1648831986.953051) can1 1A1#00100100000023
(1648831986.953313) can1 1C3#05FC05FC00000300
(1648831986.953575) can1 1ED#019000000000102C
(1648831986.953767) can1 1EF#00000000
(1648831986.953992) can1 2C3#05FC06A00FFF
(1648831986.954213) can1 2D1#000000000000
(1648831986.954364) can1 2D3#0303
(1648831986.955074) can1 0C7#03FE0000
(1648831986.955326) can1 0F9#00004000000000FF
(1648831986.955585) can1 199#0FFF0B82F47E00FF
(1648831986.962527) can1 19D#80003FFE010000FF
(1648831986.962687) can1 1AF#000001
(1648831986.962934) can1 1F5#0F0F000100000300
(1648831986.965018) can1 0C9#0000001622410800
(1648831986.965278) can1 191#05FC05FC05AB0707
(1648831986.965540) can1 1ED#019000000000102C
(1648831986.965730) can1 1EF#00000000
(1648831986.967478) can1 0C7#03FE0000
(1648831986.967724) can1 0F9#00004000000000FF
(1648831986.967975) can1 199#4FFF0B82F47D00FF
(1648831986.977476) can1 0C9#000000192E410800
(1648831986.977724) can1 191#05FC05FC05AB0D0D
(1648831986.977965) can1 1A1#00100100000036
(1648831986.978226) can1 1C3#05FC05FC00000D00
(1648831986.978491) can1 1ED#019000000000102C
(1648831986.978694) can1 1EF#00000000
(1648831986.980007) can1 0C7#03FE0000
(1648831986.980258) can1 0F9#00004000000000FF
(1648831986.980502) can1 199#8FFF0B82F47C00FF
(1648831986.981879) can1 1E1#00FD130060
(1648831986.982045) can1 0F1#3EE500C0
(1648831986.982290) can1 1F1#AE0E000008000078
(1648831986.982423) can1 1F3#80A0
(1648831986.987580) can1 19D#C0003FFD010000FF
(1648831986.987716) can1 1AF#000001
(1648831986.987967) can1 1F5#0F0F000100000300
(1648831986.990026) can1 0C9#0000001C3D410800
(1648831986.990278) can1 191#05FC05FC05AB1717
(1648831986.990537) can1 1ED#019000000000102C
(1648831986.990727) can1 1EF#00000000
(1648831986.992473) can1 0C7#03FE0000
(1648831986.992722) can1 0F9#00004000000000FF
(1648831986.992963) can1 199#CFFF0B82F47B00FF
(1648831987.002455) can1 0C9#0000001351410800
(1648831987.002704) can1 191#05FC05FC05AB2C2C
(1648831987.002945) can1 1A1#00100100000058
(1648831987.003207) can1 1C3#05FC05FC00002C00
(1648831987.003469) can1 1ED#019000000000102C
(1648831987.003659) can1 1EF#00000000
(1648831987.003915) can1 2C3#05FC06A00FFF
(1648831987.004120) can1 2D1#000000000000
(1648831987.004270) can1 2D3#0303
(1648831987.004523) can1 3C1#076528A0E796E7AD
(1648831987.004788) can1 3D1#0047800000000000
(1648831987.005000) can1 0C7#03FE0000
(1648831987.005270) can1 0F9#00004000000000FF
(1648831987.005514) can1 199#0FFF0B82F47E00FF
(1648831987.008899) can1 3E9#0000200080006000
(1648831987.012552) can1 19D#00000000010000FF
(1648831987.012696) can1 1AF#000001
(1648831987.012943) can1 1F5#0F0F000100000300
(1648831987.014328) can1 1E1#0000100000
(1648831987.014491) can1 0F1#0AE5C000
(1648831987.014739) can1 1F1#AE0E000008000078
(1648831987.015084) can1 0C9#0000001667410800
(1648831987.015337) can1 191#05FC05FC05AB5353
(1648831987.015598) can1 1ED#019000000000102C
(1648831987.015806) can1 1EF#00000000
(1648831987.017516) can1 0C7#03FE0000
(1648831987.017765) can1 0F9#00004000000000FF
(1648831987.018006) can1 199#4FFF0B82F47D00FF
(1648831987.027464) can1 0C9#0000001983410800
