(1648252455.094933) can1 1F1#AE0E000008000078
(1648252455.097494) can1 0C7#03FE0000
(1648252455.097744) can1 0F9#00004000000000FF
(1648252455.097978) can1 0C9#8409410700410800
(1648252455.098211) can1 199#CFFF0B82F47B00FF
(1648252455.098452) can1 191#06C806C806C40000
(1648252455.098702) can1 1ED#41900164019873F9
(1648252455.098888) can1 1EF#00000275
(1648252455.109890) can1 0C7#03FE0000
(1648252455.110140) can1 0F9#00004000000000FF
(1648252455.110382) can1 199#0FFF0B82F47E00FF
(1648252455.110889) can1 0C9#8409070A00410800
(1648252455.111146) can1 191#06C806C806C80000
(1648252455.111394) can1 1A1#00100140000000
(1648252455.111656) can1 1C3#06C806D000000000
(1648252455.111958) can1 1ED#41900164019873F9
(1648252455.112142) can1 1EF#00000274
(1648252455.117925) can1 19D#000000000008F5FF
(1648252455.118087) can1 1AF#000000
(1648252455.118325) can1 1F5#0F0F000100000800
(1648252455.122359) can1 0C7#03FE0000
(1648252455.122610) can1 0F9#00004000000000FF
(1648252455.122852) can1 199#4FFF0B82F47D00FF
(1648252455.123088) can1 0C9#8409070D00410800
(1648252455.123340) can1 191#06CA06CA06C80000
(1648252455.123596) can1 1ED#4190016901B073F9
(1648252455.123783) can1 1EF#00000274
(1648252455.126964) can1 1E1#0000100000
(1648252455.127124) can1 0F1#0AE5C000
(1648252455.127378) can1 1F1#AE0E000008000078
(1648252455.134992) can1 0C7#03FE0000
(1648252455.135244) can1 0F9#00004000000000FF
(1648252455.135492) can1 199#8FFF0B82F47C00FF
(1648252455.136213) can1 0C9#84090B0000410800
(1648252455.136470) can1 191#06CA06CA06CA0000
(1648252455.136720) can1 1A1#00100140000000
(1648252455.136980) can1 1C3#06CA06D300000000
(1648252455.137236) can1 1ED#4190016901B073F9
(1648252455.137422) can1 1EF#00000274
(1648252455.137656) can1 2C3#095606A0078D
(1648252455.137899) can1 2D1#000000000000
(1648252455.138058) can1 2D3#0303
(1648252455.143035) can1 19D#40003FFF0008C1FF
(1648252455.143199) can1 1AF#000000
(1648252455.143444) can1 1F5#0F0F000100000800
(1648252455.147360) can1 0C7#03FE0000
(1648252455.147609) can1 0F9#00004000000000FF
(1648252455.147849) can1 199#CFFF0B82F47B00FF
(1648252455.148081) can1 0C9#84090B0700410800
(1648252455.148335) can1 191#06D606D606CA0000
(1648252455.148591) can1 1ED#4190016C01B873F9
(1648252455.148773) can1 1EF#00000274
(1648252455.159527) can1 1E1#00FF110020
(1648252455.159697) can1 0F1#16E500C0
(1648252455.159938) can1 1F1#AE0E000008000078
(1648252455.160098) can1 0C7#03FE0000
(1648252455.160261) can1 1F3#80A0
(1648252455.160488) can1 0F9#00004000000000FF
(1648252455.160738) can1 199#0FFF0B82F47E00FF
(1648252455.161309) can1 0C9#84092C0A00410800
(1648252455.161594) can1 191#06D606D606D60000
(1648252455.161845) can1 1A1#00100140000000
(1648252455.162084) can1 1C3#06D606E300000000
(1648252455.162334) can1 1ED#4190017101B873F9
(1648252455.162524) can1 1EF#0000027C
(1648252455.165909) can1 7E0#0201070000000000
(1648252455.166739) can1 7E8#0341076BAAAAAAAA
(1648252455.168012) can1 19D#80003FFE0008B8FF
(1648252455.168176) can1 1AF#000000
(1648252455.168417) can1 1F5#0F0F000100000800
(1648252455.172380) can1 0C7#03FE0000
(1648252455.172633) can1 0F9#00004000000000FF
(1648252455.172870) can1 0C9#84092C0D00410800
(1648252455.173108) can1 199#4FFF0B82F47D00FF
(1648252455.173344) can1 191#06D706D706D60000
(1648252455.173600) can1 1ED#4190017101C873F9
(1648252455.173790) can1 1EF#0000027C
(1648252455.184911) can1 0C7#03FE0000
(1648252455.185162) can1 0F9#00004000000000FF
(1648252455.185415) can1 0C9#84092C0000410800
(1648252455.185642) can1 199#8FFF0B82F47C00FF
(1648252455.185874) can1 191#06D706D706D70000
(1648252455.186316) can1 1A1#00100140000000
(1648252455.186579) can1 1C3#06D706E400000000
(1648252455.186833) can1 1ED#4190017801C873F9
(1648252455.187038) can1 1EF#00000277
(1648252455.187258) can1 2C3#095206A00790
(1648252455.187482) can1 2D1#000000000000
(1648252455.187640) can1 2D3#0303
(1648252455.187931) can1 3C1#0765480000000000
(1648252455.188189) can1 3D1#0117800000470000
(1648252455.191729) can1 3E9#0000000080004000
(1648252455.191974) can1 1E1#00FE120040
(1648252455.192224) can1 0F1#22E500C0
(1648252455.192472) can1 1F1#AE0E000008000078
(1648252455.192935) can1 19D#C0003FFD0008A9FF
(1648252455.193080) can1 1AF#000000
(1648252455.193341) can1 1F5#0F0F000100000800
(1648252455.197466) can1 0C7#03FE0000
(1648252455.197712) can1 0F9#00004000000000FF
(1648252455.197950) can1 0C9#8409580700410800
(1648252455.198187) can1 199#CFFF0B82F47B00FF
(1648252455.198419) can1 191#06D606D606D70000
(1648252455.198675) can1 1ED#4190017801C873F9
(1648252455.198860) can1 1EF#00000277
(1648252455.206088) can1 7E0#0201090000000000
(1648252455.209876) can1 0C7#03FE0000
(1648252455.210129) can1 0F9#00004000000000FF
(1648252455.210398) can1 199#0FFF0B82F47E00FF
(1648252455.210602) can1 0C9#8409580A00410800
(1648252455.210836) can1 7E8#0341096FAAAAAAAA
(1648252455.211068) can1 191#06D606D606D60000
(1648252455.211318) can1 1A1#00100140000000
(1648252455.211582) can1 1C3#06D606DD00000000
(1648252455.211832) can1 1ED#4190017701C873F9
(1648252455.212025) can1 1EF#00000277
(1648252455.217957) can1 19D#000000000008A8FF
(1648252455.218118) can1 1AF#000000
(1648252455.218358) can1 1F5#0F0F000100000800
(1648252455.218536) can1 4C9#403C0000
(1648252455.218766) can1 77F#00000000000000
(1648252455.222388) can1 0C7#03FE0000
(1648252455.222642) can1 0F9#00004000000000FF
(1648252455.222883) can1 199#4FFF0B82F47D00FF
(1648252455.223117) can1 0C9#8409540D00410800
(1648252455.223373) can1 191#06D306D306D60000
(1648252455.223625) can1 1ED#4190017701C073F9
(1648252455.223809) can1 1EF#00000278
(1648252455.224527) can1 1E1#00FD130060
(1648252455.224696) can1 0F1#3EE500C0
(1648252455.224939) can1 1F1#AE0E000008000078
(1648252455.234930) can1 0C7#03FE0000
(1648252455.235176) can1 0F9#00004000000000FF
(1648252455.235413) can1 0C9#8409540000410800
(1648252455.235667) can1 199#8FFF0B82F47C00FF
(1648252455.235890) can1 191#06D306D306D30000
(1648252455.236139) can1 1A1#00100140000000
(1648252455.236401) can1 1C3#06D306D500000000
(1648252455.236655) can1 1ED#4190017401C073F9
(1648252455.236881) can1 1EF#00000278
(1648252455.237101) can1 2C3#095B06A00788
(1648252455.237326) can1 2D1#000000000000
(1648252455.237483) can1 2D3#0303
(1648252455.242964) can1 19D#40003FFF00089CFF
(1648252455.243126) can1 1AF#000000
(1648252455.243419) can1 1F5#0F0F000100000800
(1648252455.247393) can1 0C7#03FE0000
(1648252455.247643) can1 0F9#00004000000000FF
(1648252455.247881) can1 199#CFFF0B82F47B00FF
(1648252455.248119) can1 0C9#8409420700410800
(1648252455.248375) can1 191#06D206D206D30000
(1648252455.248628) can1 1ED#4190017701B873F9
(1648252455.248815) can1 1EF#0000027B
(1648252455.250183) can1 7E0#0201070000000000
(1648252455.254196) can1 7E8#0341076BAAAAAAAA
(1648252455.256704) can1 1F3#C0E0
(1648252455.257156) can1 1E1#0000100000
(1648252455.257317) can1 0F1#0AE5C000
(1648252455.257571) can1 1F1#AE0E000008000078
(1648252455.259990) can1 0C7#03FE0000
(1648252455.260244) can1 0F9#00004000000000FF
(1648252455.260482) can1 0C9#8409420A00410800
(1648252455.260718) can1 199#0FFF0B82F47E00FF
(1648252455.260952) can1 191#06D206D206D20000
(1648252455.261204) can1 1A1#00100140000000
(1648252455.261463) can1 1C3#06D206D500000000
(1648252455.261715) can1 1ED#4190017701B873F9
(1648252455.261903) can1 1EF#0000027B
(1648252455.268043) can1 19D#80003FFE0008A0FF
(1648252455.268195) can1 1AF#000000
(1648252455.268448) can1 1F5#0F0F000100000800
(1648252455.272369) can1 0C7#03FE0000
(1648252455.272621) can1 0F9#00004000000000FF
(1648252455.272864) can1 199#4FFF0B82F47D00FF
(1648252455.273097) can1 0C9#8409460D00410800
(1648252455.273353) can1 191#06D406D406D20000
(1648252455.273609) can1 1ED#4190017701C073F9
(1648252455.273791) can1 1EF#00000276
(1648252455.284921) can1 0C7#03FE0000
(1648252455.285175) can1 0F9#00004000000000FF
(1648252455.285409) can1 0C9#8409460000410800
(1648252455.285651) can1 199#8FFF0B82F47C00FF
(1648252455.285887) can1 191#06D406D406D40000
(1648252455.286133) can1 1A1#00100140000000
(1648252455.286396) can1 1C3#06D406D800000000
(1648252455.286654) can1 1ED#4190017E01C073F9
(1648252455.286880) can1 1EF#00000276
(1648252455.287098) can1 2C3#095A06A0078A
(1648252455.287337) can1 2D1#000000000000
(1648252455.287494) can1 2D3#0303
(1648252455.287748) can1 3C1#0765480000000000
(1648252455.288010) can1 3D1#0117800000460000
(1648252455.289421) can1 1E1#00FF110020
(1648252455.289591) can1 0F1#16E500C0
(1648252455.289836) can1 1F1#AE0E000008000078
(1648252455.291804) can1 3E9#0000000080004000
(1648252455.292940) can1 19D#C0003FFD0008A5FF
(1648252455.293102) can1 1AF#000000
(1648252455.293346) can1 1F5#0F0F000100000800
(1648252455.293595) can1 7E0#0201090000000000
(1648252455.297441) can1 0C7#03FE0000
(1648252455.297688) can1 0F9#00004000000000FF
(1648252455.297922) can1 199#CFFF0B82F47B00FF
(1648252455.298158) can1 0C9#8409740700410800
(1648252455.298388) can1 7E8#0341096FAAAAAAAA
(1648252455.298622) can1 191#06D506D506D40000
(1648252455.298882) can1 1ED#4190017C01C073F9
(1648252455.299066) can1 1EF#0000026F
(1648252455.309907) can1 0C7#03FE0000
(1648252455.310155) can1 0F9#00004000000000FF
(1648252455.310389) can1 0C9#8409740A00410800
(1648252455.310628) can1 199#0FFF0B82F47E00FF
(1648252455.310863) can1 191#06D506D506D50000
(1648252455.311112) can1 1A1#00100140000000
(1648252455.311373) can1 1C3#06D506D800000000
(1648252455.311632) can1 1ED#4190017C01C073F9
(1648252455.311881) can1 1EF#0000026F
(1648252455.317911) can1 19D#000000000008B8FF
(1648252455.318053) can1 1AF#000000
(1648252455.318313) can1 1F5#0F0F000100000800
(1648252455.321949) can1 1E1#00FE120040
(1648252455.322047) can1 0F1#22E500C0
(1648252455.322328) can1 1F1#AE0E000008000078
(1648252455.322487) can1 0C7#03FE0000
(1648252455.322749) can1 0F9#00004000000000FF
(1648252455.322984) can1 0C9#8409720D00410800
(1648252455.323222) can1 199#4FFF0B82F47D00FF
(1648252455.323460) can1 191#06D006D006D50000
(1648252455.323716) can1 1ED#4190017C01C073F9
(1648252455.323902) can1 1EF#00000275
(1648252455.334922) can1 0C7#03FE0000
(1648252455.335172) can1 0F9#00004000000000FF
(1648252455.335414) can1 0C9#8409720000410800
(1648252455.335654) can1 199#8FFF0B82F47C00FF
(1648252455.335889) can1 191#06D006D006D00000
(1648252455.336138) can1 1A1#00100140000000
(1648252455.336400) can1 1C3#06D006D000000000
(1648252455.336654) can1 1ED#4190017A01C073F9
(1648252455.336884) can1 1EF#0000027C
(1648252455.337108) can1 2C3#095F06A00786
(1648252455.337333) can1 2D1#000000000000
(1648252455.337491) can1 2D3#0303
(1648252455.337751) can1 7E0#0201070000000000
(1648252455.341683) can1 7E8#0341076BAAAAAAAA
(1648252455.341928) can1 3F9#041EDD0055000017
(1648252455.342090) can1 3FB#0208
(1648252455.342942) can1 19D#40003FFF0008BAFF
(1648252455.343100) can1 1AF#000000
(1648252455.343348) can1 1F5#0F0F000100000800
(1648252455.347381) can1 0C7#03FE0000
(1648252455.347633) can1 0F9#00004000000000FF
(1648252455.347871) can1 0C9#8409660700410800
(1648252455.348104) can1 199#CFFF0B82F47B00FF
(1648252455.348340) can1 191#06CF06CF06D00000
(1648252455.348594) can1 1ED#4190017A01B873F9
(1648252455.348782) can1 1EF#0000027C
(1648252455.354406) can1 1E1#00FD130060
(1648252455.354569) can1 0F1#3EE500C0
(1648252455.354820) can1 1F1#AE0E000008000078
(1648252455.359929) can1 0C7#03FE0000
(1648252455.360178) can1 0F9#00004000000000FF
(1648252455.360419) can1 199#0FFF0B82F47E00FF
(1648252455.361287) can1 0C9#8409710A00410800
(1648252455.361547) can1 191#06CF06CF06CF0000
(1648252455.361793) can1 1A1#00100140000000
(1648252455.362053) can1 1C3#06CF06CF00000000
(1648252455.362309) can1 1ED#4190017C01B873F9
(1648252455.362498) can1 1EF#0000027C
(1648252455.367958) can1 19D#80003FFE0008B0FF
(1648252455.368111) can1 1AF#000000
(1648252455.368361) can1 1F5#0F0F000100000800
(1648252455.372377) can1 0C7#03FE0000
(1648252455.372630) can1 0F9#00004000000000FF
(1648252455.372865) can1 0C9#8409710D00410800
(1648252455.373103) can1 199#4FFF0B82F47D00FF
(1648252455.373339) can1 191#06D006D006CF0000
(1648252455.373594) can1 1ED#4190017C01B873F9
(1648252455.373843) can1 1EF#0000027C
(1648252455.381044) can1 7E0#0201090000000000
(1648252455.384924) can1 0C7#03FE0000
(1648252455.385178) can1 0F9#00004000000000FF
(1648252455.385427) can1 199#8FFF0B82F47C00FF
(1648252455.386287) can1 7E8#0341096FAAAAAAAA
(1648252455.386526) can1 0C9#8409730000410800
(1648252455.386784) can1 191#06D006D006D00000
(1648252455.387031) can1 1A1#00100140000000
(1648252455.387289) can1 1C3#06D006D200000000
(1648252455.387479) can1 1E1#0000100000
(1648252455.387649) can1 0F1#0AE5C000
(1648252455.387879) can1 1ED#4190017C01B873F9
(1648252455.388128) can1 1F1#AE0E000008000078
(1648252455.388297) can1 1EF#00000279
(1648252455.388513) can1 2C3#095D06A00788
(1648252455.388741) can1 2D1#000000000000
(1648252455.388899) can1 2D3#0303
(1648252455.389152) can1 3C1#0765480000000000
(1648252455.389416) can1 3D1#0117800000480000
(1648252455.391746) can1 3E9#0000000080004000
(1648252455.392990) can1 19D#C0003FFD0008C4FF
(1648252455.393158) can1 1AF#000000
(1648252455.393389) can1 1F5#0F0F000100000800
(1648252455.397431) can1 0C7#03FE0000
(1648252455.397681) can1 0F9#00004000000000FF
(1648252455.397913) can1 0C9#8409730700410800
(1648252455.398148) can1 199#CFFF0B82F47B00FF
(1648252455.398386) can1 191#06D006D006D00000
(1648252455.398642) can1 1ED#4190017C01C073F9
(1648252455.398826) can1 1EF#00000279
(1648252455.409903) can1 0C7#03FE0000
(1648252455.410150) can1 0F9#00004000000000FF
(1648252455.410391) can1 199#0FFF0B82F47E00FF
(1648252455.411113) can1 0C9#8409750A00410800
(1648252455.411373) can1 191#06D006D006D00000
(1648252455.411621) can1 1A1#00100140000000
(1648252455.411950) can1 1C3#06D006D000000000
(1648252455.412207) can1 1ED#4190017C01C073F9
(1648252455.412390) can1 1EF#00000278
(1648252455.417919) can1 19D#000000000008D4FF
(1648252455.418080) can1 1AF#000000
(1648252455.418320) can1 1F5#0F0F000100000800
(1648252455.419409) can1 1E1#00FF110020
(1648252455.419571) can1 0F1#16E500C0
(1648252455.419822) can1 1F1#AE0E000008000078
(1648252455.422411) can1 0C7#03FE0000
(1648252455.422661) can1 0F9#00004000000000FF
(1648252455.422903) can1 199#4FFF0B82F47D00FF
(1648252455.423137) can1 0C9#8409750D00410800
(1648252455.423392) can1 191#06CF06CF06D00000
(1648252455.423648) can1 1ED#4190018101C073F9
(1648252455.423833) can1 1EF#00000278
(1648252455.425651) can1 7E0#0201070000000000
(1648252455.429289) can1 7E8#0341076BAAAAAAAA
(1648252455.434919) can1 0C7#03FE0000
(1648252455.435169) can1 0F9#00004000000000FF
(1648252455.435419) can1 199#8FFF0B82F47C00FF
(1648252455.435655) can1 0C9#8409920000410800
(1648252455.435908) can1 191#06CF06CF06CF0000
(1648252455.436158) can1 1A1#00100140000000
(1648252455.436417) can1 1C3#06CF06CF00000000
(1648252455.436672) can1 1ED#4190018101C073F9
(1648252455.436873) can1 1EF#00000279
(1648252455.437096) can1 2C3#095E06A00788
(1648252455.437320) can1 2D1#000000000000
(1648252455.437478) can1 2D3#0303
(1648252455.442929) can1 19D#40003FFF0008CCFF
(1648252455.443183) can1 1AF#000000
(1648252455.443345) can1 1F5#0F0F000100000800
(1648252455.447382) can1 0C7#03FE0000
(1648252455.447649) can1 0F9#00004000000000FF
(1648252455.447888) can1 0C9#8409920700410800
(1648252455.448124) can1 199#CFFF0B82F47B00FF
(1648252455.448356) can1 191#06CF06CF06CF0000
(1648252455.448615) can1 1ED#4190017D01C073F9
(1648252455.448801) can1 1EF#00000279
(1648252455.451965) can1 1E1#00FE120040
(1648252455.452126) can1 0F1#22E500C0
(1648252455.452377) can1 1F1#AE0E000008000078
(1648252455.452473) can1 1F3#0020
(1648252455.459980) can1 0C7#03FE0000
(1648252455.460234) can1 0F9#00004000000000FF
(1648252455.460469) can1 0C9#84098A0A00410800
(1648252455.460708) can1 199#0FFF0B82F47E00FF
(1648252455.460943) can1 191#06CF06CF06CF0000
(1648252455.461192) can1 1A1#00100140000000
(1648252455.461451) can1 1C3#06CF06CF00000000
(1648252455.461710) can1 1ED#4190017D01C073F9
(1648252455.461892) can1 1EF#00000277
(1648252455.468041) can1 19D#80003FFE0008F9FF
(1648252455.468195) can1 1AF#000000
(1648252455.468444) can1 1F5#0F0F000100000800
(1648252455.468692) can1 7E0#0201090000000000
(1648252455.472392) can1 0C7#03FE0000
(1648252455.472642) can1 0F9#00004000000000FF
(1648252455.472884) can1 199#4FFF0B82F47D00FF
(1648252455.473120) can1 0C9#84098A0D00410800
(1648252455.473351) can1 7E8#0341096FAAAAAAAA
(1648252455.473585) can1 191#06CD06CD06CF0000
(1648252455.473839) can1 1ED#4190017A01B873F9
(1648252455.474023) can1 1EF#00000277
(1648252455.484386) can1 1E1#00FD130060
(1648252455.484549) can1 0F1#3EE500C0
(1648252455.484800) can1 1F1#AE0E000008000078
(1648252455.484959) can1 0C7#03FE0000
(1648252455.485221) can1 0F9#00004000000000FF
(1648252455.485459) can1 0C9#8409780000410800
(1648252455.485700) can1 199#8FFF0B82F47C00FF
(1648252455.485936) can1 191#06CD06CD06CD0000
(1648252455.486182) can1 1A1#00100140000000
(1648252455.486442) can1 1C3#06CD06CB00000000
(1648252455.486696) can1 1ED#4190017A01B873F9
(1648252455.486880) can1 1EF#00000275
(1648252455.487106) can1 2C3#096006A00785
(1648252455.487334) can1 2D1#000000000000
(1648252455.487492) can1 2D3#0303
(1648252455.487745) can1 3C1#0765480000000000
(1648252455.488009) can1 3D1#0117800000480000
(1648252455.491715) can1 3E9#0000000080004000
(1648252455.492961) can1 19D#C0003FFD0008E3FF
(1648252455.493179) can1 1AF#000000
(1648252455.493374) can1 1F5#0F0F000100000800
(1648252455.497413) can1 0C7#03FE0000
(1648252455.497663) can1 0F9#00004000000000FF
(1648252455.497897) can1 0C9#8409780700410800
(1648252455.498131) can1 199#CFFF0B82F47B00FF
(1648252455.498367) can1 191#06CC06CC06CD0000
(1648252455.498621) can1 1ED#4190017801B073F9
(1648252455.498807) can1 1EF#00000275
(1648252455.509880) can1 0C7#03FE0000
(1648252455.510131) can1 0F9#00004000000000FF
(1648252455.510369) can1 0C9#84096A0A00410800
(1648252455.510609) can1 199#0FFF0B82F47E00FF
(1648252455.510841) can1 191#06CC06CC06CC0000
(1648252455.511091) can1 1A1#00100140000000
(1648252455.511351) can1 1C3#06CC06CD00000000
(1648252455.511606) can1 1ED#4190017801B073F9
(1648252455.511899) can1 1EF#00000275
(1648252455.512715) can1 7E0#0201070000000000
(1648252455.516678) can1 7E8#0341076BAAAAAAAA
(1648252455.516880) can1 1E1#0000100000
(1648252455.517161) can1 0F1#0AE5C000
(1648252455.517407) can1 1F1#AE0E000008000078
(1648252455.517918) can1 19D#000000000008E9FF
(1648252455.518081) can1 1AF#000000
(1648252455.518324) can1 1F5#0F0F000100000800
(1648252455.522428) can1 0C7#03FE0000
(1648252455.522682) can1 0F9#00004000000000FF
(1648252455.522923) can1 199#4FFF0B82F47D00FF
(1648252455.523157) can1 0C9#84096A0D00410800
(1648252455.523413) can1 191#06CC06CC06CC0000
(1648252455.523665) can1 1ED#4190017801B873F9
(1648252455.523851) can1 1EF#00000275
(1648252455.534924) can1 0C7#03FE0000
(1648252455.535171) can1 0F9#00004000000000FF
(1648252455.535414) can1 0C9#84096C0000410800
(1648252455.535657) can1 199#8FFF0B82F47C00FF
(1648252455.535890) can1 191#06CC06CC06CC0000
(1648252455.536141) can1 1A1#00100140000000
(1648252455.536399) can1 1C3#06CC06CD00000000
(1648252455.536651) can1 1ED#4190017801B873F9
(1648252455.536871) can1 1EF#00000275
(1648252455.537093) can1 2C3#095D06A00788
(1648252455.537318) can1 2D1#000000000000
(1648252455.537455) can1 2D3#0303
(1648252455.542958) can1 19D#40003FFF0008E0FF
(1648252455.543133) can1 1AF#000000
(1648252455.543363) can1 1F5#0F0F000100000800
(1648252455.547365) can1 0C7#03FE0000
(1648252455.547616) can1 0F9#00004000000000FF
(1648252455.547910) can1 199#CFFF0B82F47B00FF
(1648252455.548086) can1 0C9#84096C0700410800
(1648252455.548344) can1 191#06CE06CE06CC0000
(1648252455.548596) can1 1ED#4190017B01B873F9
(1648252455.548845) can1 1EF#00000275
(1648252455.549630) can1 1E1#00FF110020
(1648252455.549752) can1 0F1#16E500C0
(1648252455.549980) can1 1F1#AE0E000008000078
(1648252455.550076) can1 1F3#4060
(1648252455.556035) can1 7E0#0201090000000000
(1648252455.559907) can1 0C7#03FE0000
(1648252455.560156) can1 0F9#00004000000000FF
(1648252455.560395) can1 199#0FFF0B82F47E00FF
(1648252455.560636) can1 0C9#84097C0A00410800
(1648252455.560867) can1 7E8#0341096FAAAAAAAA
(1648252455.561101) can1 191#06CE06CE06CE0000
(1648252455.561351) can1 1A1#00100140000000
(1648252455.561609) can1 1C3#06CE06D000000000
(1648252455.561927) can1 1ED#4190017B01B873F9
(1648252455.562113) can1 1EF#00000276
(1648252455.567902) can1 19D#80003FFE0008CBFF
(1648252455.568055) can1 1AF#000000
(1648252455.568307) can1 1F5#0F0F000100000800
(1648252455.572364) can1 0C7#03FE0000
(1648252455.572615) can1 0F9#00004000000000FF
(1648252455.572916) can1 199#4FFF0B82F47D00FF
(1648252455.573087) can1 0C9#84097C0D00410800
(1648252455.573348) can1 191#06CE06CE06CE0000
(1648252455.573633) can1 1ED#4190017C01C073F9
(1648252455.573794) can1 1EF#00000276
(1648252455.581859) can1 1E1#00FE120040
(1648252455.582022) can1 0F1#22E500C0
(1648252455.582268) can1 1F1#AE0E000008000078
(1648252455.584954) can1 0C7#03FE0000
(1648252455.585208) can1 0F9#00004000000000FF
(1648252455.585447) can1 0C9#8409830000410800
(1648252455.585687) can1 199#8FFF0B82F47C00FF
(1648252455.585923) can1 191#06CE06CE06CE0000
(1648252455.586171) can1 1A1#00100140000000
(1648252455.586429) can1 1C3#06CE06CE00000000
(1648252455.586689) can1 1ED#4190017C01C073F9
(1648252455.586877) can1 1EF#0000027C
(1648252455.587097) can1 2C3#095F06A00789
(1648252455.587325) can1 2D1#000000000000
(1648252455.587482) can1 2D3#0303
(1648252455.587736) can1 3C1#0765480000000000
(1648252455.587999) can1 3D1#0117800000480000
(1648252455.592430) can1 3E9#0000000080004000
(1648252455.592700) can1 3F9#041EDD0055000017
(1648252455.592960) can1 19D#C0003FFD0008E0FF
(1648252455.593056) can1 3FB#0208
(1648252455.593249) can1 1AF#000000
(1648252455.593493) can1 4C1#01BC704165000000
(1648252455.593735) can1 1F5#0F0F000100000800
(1648252455.593968) can1 4D1#080045031E4000BB
(1648252455.597451) can1 0C7#03FE0000
(1648252455.597698) can1 0F9#00004000000000FF
(1648252455.597934) can1 0C9#8409830700410800
(1648252455.598170) can1 199#CFFF0B82F47B00FF
(1648252455.598402) can1 191#06CE06CE06CE0000
(1648252455.598654) can1 1ED#4190017B01B873F9
(1648252455.598846) can1 1EF#0000027C
(1648252455.600228) can1 7E0#0201070000000000
(1648252455.604180) can1 7E8#0341076BAAAAAAAA
(1648252455.609905) can1 0C7#03FE0000
(1648252455.610151) can1 0F9#00004000000000FF
(1648252455.610387) can1 0C9#84097D0A00410800
(1648252455.610627) can1 199#0FFF0B82F47E00FF
(1648252455.610859) can1 191#06CE06CE06CE0000
(1648252455.611107) can1 1A1#00100140000000
(1648252455.611367) can1 1C3#06CE06CE00000000
(1648252455.611618) can1 1ED#4190017B01B873F9
(1648252455.611866) can1 1EF#0000027A
(1648252455.614341) can1 1E1#00FD130060
(1648252455.614502) can1 0F1#3EE500C0
(1648252455.614754) can1 1F1#AE0E000008000078
(1648252455.617903) can1 19D#000000000008DCFF
(1648252455.618069) can1 1AF#000000
(1648252455.618314) can1 1F5#0F0F000100000800
(1648252455.622454) can1 0C7#03FE0000
(1648252455.622703) can1 0F9#00004000000000FF
(1648252455.622939) can1 0C9#84097D0D00410800
(1648252455.623179) can1 199#4FFF0B82F47D00FF
(1648252455.623413) can1 191#06CD06CD06CE0000
(1648252455.623668) can1 1ED#4190017801B873F9
(1648252455.623854) can1 1EF#0000027A
(1648252455.634921) can1 0C7#03FE0000
(1648252455.635169) can1 0F9#00004000000000FF
(1648252455.635410) can1 0C9#8409690000410800
(1648252455.635649) can1 199#8FFF0B82F47C00FF
(1648252455.635895) can1 191#06CD06CD06CD0000
(1648252455.636136) can1 1A1#00100140000000
(1648252455.636392) can1 1C3#06CD06CD00000000
(1648252455.636646) can1 1ED#4190017801B873F9
(1648252455.636866) can1 1EF#00000277
(1648252455.637090) can1 2C3#095F06A00787
(1648252455.637314) can1 2D1#000000000000
(1648252455.637473) can1 2D3#0303
(1648252455.642947) can1 19D#40003FFF0008EBFF
(1648252455.643110) can1 1AF#000000
(1648252455.643385) can1 1F5#0F0F000100000800
(1648252455.643602) can1 7E0#0201090000000000
(1648252455.646906) can1 1E1#0000100000
(1648252455.647122) can1 0F1#0AE5C000
(1648252455.647319) can1 1F1#AE0E000008000078
(1648252455.647479) can1 0C7#03FE0000
(1648252455.647640) can1 1F3#80A0
(1648252455.647869) can1 0F9#00004000000000FF
(1648252455.648103) can1 0C9#8409690700410800
(1648252455.648340) can1 199#CFFF0B82F47B00FF
(1648252455.648571) can1 191#06CD06CD06CD0000
(1648252455.648803) can1 7E8#0341096FAAAAAAAA
(1648252455.649038) can1 1ED#4190017701B873F9
(1648252455.649220) can1 1EF#00000277
(1648252455.659897) can1 0C7#03FE0000
(1648252455.660152) can1 0F9#00004000000000FF
(1648252455.660385) can1 0C9#8409600A00410800
(1648252455.660624) can1 199#0FFF0B82F47E00FF
(1648252455.660860) can1 191#06CD06CD06CD0000
(1648252455.661106) can1 1A1#00100140000000
(1648252455.661366) can1 1C3#06CD06D000000000
(1648252455.661621) can1 1ED#4190017701B873F9
(1648252455.661862) can1 1EF#00000276
(1648252455.667919) can1 19D#80003FFE0008DCFF
(1648252455.668072) can1 1AF#000000
(1648252455.668336) can1 1F5#0F0F000100000800
(1648252455.672390) can1 0C7#03FE0000
(1648252455.672644) can1 0F9#00004000000000FF
(1648252455.672878) can1 0C9#8409600D00410800
(1648252455.673117) can1 199#4FFF0B82F47D00FF
(1648252455.673353) can1 191#06CE06CE06CD0000
(1648252455.673605) can1 1ED#4190017801B873F9
(1648252455.673854) can1 1EF#00000276
(1648252455.679331) can1 1E1#00FF110020
(1648252455.679491) can1 0F1#16E500C0
(1648252455.679739) can1 1F1#AE0E000008000078
(1648252455.684960) can1 0C7#03FE0000
(1648252455.685233) can1 0F9#00004000000000FF
(1648252455.685476) can1 0C9#8409580000410800
(1648252455.685720) can1 199#8FFF0B82F47C00FF
(1648252455.685953) can1 191#06CE06CE06CE0000
(1648252455.686202) can1 1A1#00100140000000
(1648252455.686462) can1 1C3#06CE06D100000000
(1648252455.686715) can1 1ED#4190017801B873F9
(1648252455.686898) can1 1EF#00000278
(1648252455.687120) can1 2C3#095C06A00789
(1648252455.687345) can1 2D1#000000000000
(1648252455.687482) can1 2D3#0303
(1648252455.687759) can1 3C1#0765480000000000
(1648252455.688017) can1 3D1#0117800000470000
(1648252455.688267) can1 7E0#0201070000000000
(1648252455.691809) can1 7E8#0341076BAAAAAAAA
(1648252455.692058) can1 3E9#0000000080004000
(1648252455.692990) can1 19D#C0003FFD0008C9FF
(1648252455.693152) can1 1AF#000000
(1648252455.693396) can1 1F5#0F0F000100000800
(1648252455.697394) can1 0C7#03FE0000
(1648252455.697645) can1 0F9#00004000000000FF
(1648252455.697877) can1 0C9#8409580700410800
(1648252455.698110) can1 199#CFFF0B82F47B00FF
(1648252455.698349) can1 191#06D006D006CE0000
(1648252455.698605) can1 1ED#4190017C01C073F9
(1648252455.698789) can1 1EF#00000278
(1648252455.709907) can1 0C7#03FE0000
(1648252455.710194) can1 0F9#00004000000000FF
(1648252455.710383) can1 0C9#8409730A00410800
(1648252455.710628) can1 199#0FFF0B82F47E00FF
(1648252455.710863) can1 191#06D006D006D00000
(1648252455.711111) can1 1A1#00100140000000
(1648252455.711371) can1 1C3#06D006D300000000
(1648252455.711627) can1 1ED#4190017C01C073F9
(1648252455.711861) can1 1EF#00000279
(1648252455.712151) can1 1E1#00FE120040
(1648252455.712405) can1 0F1#22E500C0
(1648252455.712653) can1 1F1#AE0E000008000078
(1648252455.718011) can1 19D#000000000008CFFF
(1648252455.718161) can1 1AF#000000
(1648252455.718412) can1 1F5#0F0F000100000800
(1648252455.718591) can1 4C9#403C0000
(1648252455.722376) can1 0C7#03FE0000
(1648252455.722628) can1 0F9#00004000000000FF
(1648252455.722866) can1 0C9#8409730D00410800
(1648252455.723103) can1 199#4FFF0B82F47D00FF
(1648252455.723339) can1 191#06D006D006D00000
(1648252455.723599) can1 1ED#4190017B01C073F9
(1648252455.723798) can1 1EF#00000279
(1648252455.731171) can1 7E0#0201090000000000
(1648252455.734935) can1 0C7#03FE0000
(1648252455.735186) can1 0F9#00004000000000FF
(1648252455.735424) can1 0C9#84096E0000410800
(1648252455.735666) can1 199#8FFF0B82F47C00FF
(1648252455.735912) can1 191#06D006D006D00000
(1648252455.736133) can1 7E8#0341096FAAAAAAAA
(1648252455.736365) can1 1A1#00100140000000
(1648252455.736624) can1 1C3#06D006D000000000
(1648252455.736935) can1 1ED#4190017B01C073F9
(1648252455.737121) can1 1EF#00000278
(1648252455.737339) can1 2C3#095E06A0078A
(1648252455.737565) can1 2D1#000000000000
(1648252455.737777) can1 2D3#0303
(1648252455.742940) can1 19D#40003FFF0008D0FF
(1648252455.743100) can1 1AF#000000
(1648252455.743349) can1 1F5#0F0F000100000800
(1648252455.744380) can1 1E1#00FD130060
(1648252455.744612) can1 0F1#3EE500C0
(1648252455.744800) can1 1F1#AE0E000008000078
(1648252455.744896) can1 1F3#C0E0
(1648252455.747473) can1 0C7#03FE0000
(1648252455.747727) can1 0F9#00004000000000FF
(1648252455.747959) can1 0C9#84096E0700410800
(1648252455.748193) can1 199#CFFF0B82F47B00FF
(1648252455.748430) can1 191#06D006D006D00000
(1648252455.748683) can1 1ED#4190017801B873F9
(1648252455.748917) can1 1EF#00000278
(1648252455.759890) can1 0C7#03FE0000
(1648252455.760137) can1 0F9#00004000000000FF
(1648252455.760371) can1 0C9#8409590A00410800
(1648252455.760611) can1 199#0FFF0B82F47E00FF
(1648252455.760845) can1 191#06D006D006D00000
(1648252455.761093) can1 1A1#00100140000000
(1648252455.761391) can1 1C3#06D006D100000000
(1648252455.761606) can1 1ED#4190017801B873F9
(1648252455.761857) can1 1EF#00000275
(1648252455.767911) can1 19D#80003FFE0008C3FF
(1648252455.768094) can1 1AF#000000
(1648252455.768338) can1 1F5#0F0F000100000800
(1648252455.772399) can1 0C7#03FE0000
(1648252455.772649) can1 0F9#00004000000000FF
(1648252455.772881) can1 0C9#8409590D00410800
(1648252455.773121) can1 199#4FFF0B82F47D00FF
(1648252455.773355) can1 191#06D006D006D00000
(1648252455.773607) can1 1ED#4190017701B873F9
(1648252455.773796) can1 1EF#00000275
(1648252455.775497) can1 7E0#0201070000000000
(1648252455.776808) can1 1E1#0000100000
(1648252455.776974) can1 0F1#0AE5C000
(1648252455.777218) can1 1F1#AE0E000008000078
(1648252455.779608) can1 7E8#0341076BAAAAAAAA
(1648252455.784949) can1 0C7#03FE0000
(1648252455.785200) can1 0F9#00004000000000FF
(1648252455.785437) can1 0C9#8409550000410800
(1648252455.785680) can1 199#8FFF0B82F47C00FF
(1648252455.785914) can1 191#06D006D006D00000
(1648252455.786164) can1 1A1#00100140000000
(1648252455.786426) can1 1C3#06D006D300000000
(1648252455.786675) can1 1ED#4190017701B873F9
(1648252455.786859) can1 1EF#00000273
(1648252455.787080) can1 2C3#095C06A00788
(1648252455.787305) can1 2D1#000000000000
(1648252455.787463) can1 2D3#0303
(1648252455.787719) can1 3C1#0765480000000000
(1648252455.787980) can1 3D1#0117800000480000
(1648252455.792201) can1 3E9#0000000080004000
(1648252455.792980) can1 19D#C0003FFD0008E1FF
(1648252455.793124) can1 1AF#000000
(1648252455.793385) can1 1F5#0F0F000100000800
(1648252455.797431) can1 0C7#03FE0000
(1648252455.797677) can1 0F9#00004000000000FF
(1648252455.797912) can1 0C9#8409550700410800
(1648252455.798147) can1 199#CFFF0B82F47B00FF
(1648252455.798382) can1 191#06D006D006D00000
(1648252455.798636) can1 1ED#4190017901B873F9
(1648252455.798821) can1 1EF#00000273
(1648252455.809294) can1 1E1#00FF110020
(1648252455.809460) can1 0F1#16E500C0
(1648252455.809706) can1 1F1#AE0E000008000078
(1648252455.809910) can1 0C7#03FE0000
(1648252455.810176) can1 0F9#00004000000000FF
(1648252455.810414) can1 0C9#8409600A00410800
(1648252455.810650) can1 199#0FFF0B82F47E00FF
(1648252455.810886) can1 191#06D006D006D00000
(1648252455.811136) can1 1A1#00100140000000
(1648252455.811393) can1 1C3#06D006D300000000
(1648252455.811646) can1 1ED#4190017901B873F9
(1648252455.811858) can1 1EF#00000271
(1648252455.817999) can1 19D#000000000008C5FF
(1648252455.818168) can1 1AF#000000
(1648252455.818424) can1 1F5#0F0F000100000800
(1648252455.818968) can1 7E0#0201090000000000
(1648252455.822397) can1 0C7#03FE0000
(1648252455.822651) can1 0F9#00004000000000FF
(1648252455.822887) can1 199#4FFF0B82F47D00FF
(1648252455.823124) can1 0C9#8409600D00410800
(1648252455.823357) can1 7E8#0341096FAAAAAAAA
(1648252455.823592) can1 191#06D106D106D00000
(1648252455.823846) can1 1ED#4190017901C073F9
(1648252455.824032) can1 1EF#00000271
(1648252455.834937) can1 0C7#03FE0000
(1648252455.835185) can1 0F9#00004000000000FF
(1648252455.835423) can1 0C9#8409640000410800
(1648252455.835664) can1 199#8FFF0B82F47C00FF
(1648252455.835897) can1 191#06D106D106D10000
(1648252455.836148) can1 1A1#00100140000000
(1648252455.836408) can1 1C3#06D106D300000000
(1648252455.836662) can1 1ED#4190017901C073F9
(1648252455.836859) can1 1EF#0000026F
(1648252455.837076) can1 2C3#095C06A0078A
(1648252455.837302) can1 2D1#000000000000
(1648252455.837462) can1 2D3#0303
(1648252455.841700) can1 3F9#041EE50055000019
(1648252455.841887) can1 1E1#00FE120040
(1648252455.842050) can1 0F1#22E500C0
(1648252455.842145) can1 3FB#0208
(1648252455.842433) can1 1F1#AE0E000008000078
(1648252455.842531) can1 1F3#0020
(1648252455.842973) can1 19D#40003FFF0008C5FF
(1648252455.843125) can1 1AF#000000
(1648252455.843378) can1 1F5#0F0F000100000800
(1648252455.847474) can1 0C7#03FE0000
(1648252455.847726) can1 0F9#00004000000000FF
(1648252455.847962) can1 0C9#8409640700410800
(1648252455.848194) can1 199#CFFF0B82F47B00FF
(1648252455.848428) can1 191#06D106D106D10000
(1648252455.848684) can1 1ED#4190017801B873F9
(1648252455.848868) can1 1EF#0000026F
(1648252455.859917) can1 0C7#03FE0000
(1648252455.860168) can1 0F9#00004000000000FF
(1648252455.860401) can1 0C9#8409690A00410800
(1648252455.860639) can1 199#0FFF0B82F47E00FF
(1648252455.860874) can1 191#06D106D106D10000
(1648252455.861123) can1 1A1#00100140000000
(1648252455.861385) can1 1C3#06D106D300000000
(1648252455.861641) can1 1ED#4190017801B873F9
(1648252455.861855) can1 1EF#00000274
(1648252455.862719) can1 7E0#0201070000000000
(1648252455.866664) can1 7E8#0341076BAAAAAAAA
(1648252455.867908) can1 19D#80003FFE0008C5FF
(1648252455.868069) can1 1AF#000000
(1648252455.868315) can1 1F5#0F0F000100000800
(1648252455.872383) can1 0C7#03FE0000
(1648252455.872646) can1 0F9#00004000000000FF
(1648252455.872880) can1 0C9#8409690D00410800
(1648252455.873117) can1 199#4FFF0B82F47D00FF
(1648252455.873351) can1 191#06D006D006D10000
(1648252455.873609) can1 1ED#4190017A01C073F9
(1648252455.873791) can1 1EF#00000274
(1648252455.874472) can1 1E1#00FD130060
(1648252455.874643) can1 0F1#3EE500C0
(1648252455.874885) can1 1F1#AE0E000008000078
(1648252455.884924) can1 0C7#03FE0000
(1648252455.885178) can1 0F9#00004000000000FF
(1648252455.885413) can1 0C9#8409750000410800
(1648252455.885654) can1 199#8FFF0B82F47C00FF
(1648252455.885892) can1 191#06D006D006D00000
(1648252455.886138) can1 1A1#00100140000000
(1648252455.886396) can1 1C3#06D006D200000000
(1648252455.886655) can1 1ED#4190017A01C073F9
(1648252455.886853) can1 1EF#00000274
(1648252455.887073) can1 2C3#095C06A00789
(1648252455.887301) can1 2D1#000000000000
(1648252455.887458) can1 2D3#0303
(1648252455.887712) can1 3C1#0765480000000000
(1648252455.887975) can1 3D1#0117800000480000
(1648252455.891697) can1 3E9#0000000080004000
(1648252455.892933) can1 19D#C0003FFD0008B0FF
(1648252455.893095) can1 1AF#000000
(1648252455.893339) can1 1F5#0F0F000100000800
(1648252455.897423) can1 0C7#03FE0000
(1648252455.897678) can1 0F9#00004000000000FF
(1648252455.897912) can1 0C9#8409750700410800
(1648252455.898145) can1 199#CFFF0B82F47B00FF
(1648252455.898383) can1 191#06CF06CF06D00000
(1648252455.898640) can1 1ED#4190017B01C073F9
(1648252455.898824) can1 1EF#00000274
(1648252455.906027) can1 7E0#0201090000000000
(1648252455.906794) can1 1E1#0000100000
(1648252455.906956) can1 0F1#0AE5C000
(1648252455.907209) can1 1F1#AE0E000008000078
(1648252455.909954) can1 0C7#03FE0000
(1648252455.910206) can1 0F9#00004000000000FF
(1648252455.910440) can1 7E8#0341096FAAAAAAAA
(1648252455.910677) can1 0C9#84097E0A00410800
(1648252455.910914) can1 199#0FFF0B82F47E00FF
(1648252455.911151) can1 191#06CF06CF06CF0000
(1648252455.911399) can1 1A1#00100140000000
(1648252455.911659) can1 1C3#06CF06D000000000
(1648252455.911928) can1 1ED#4190017B01C073F9
(1648252455.912113) can1 1EF#00000275
(1648252455.917970) can1 19D#000000000008D0FF
(1648252455.918136) can1 1AF#000000
(1648252455.918374) can1 1F5#0F0F000100000800
(1648252455.922401) can1 0C7#03FE0000
(1648252455.922654) can1 0F9#00004000000000FF
(1648252455.922895) can1 199#4FFF0B82F47D00FF
(1648252455.923133) can1 0C9#84097E0D00410800
(1648252455.923389) can1 191#06CE06CE06CF0000
(1648252455.923643) can1 1ED#4190017E01C073F9
(1648252455.923830) can1 1EF#00000275
(1648252455.934987) can1 0C7#03FE0000
(1648252455.935235) can1 0F9#00004000000000FF
(1648252455.935471) can1 0C9#84098F0000410800
(1648252455.935715) can1 199#8FFF0B82F47C00FF
(1648252455.935947) can1 191#06CE06CE06CE0000
(1648252455.936196) can1 1A1#00100140000000
(1648252455.936455) can1 1C3#06CE06CE00000000
(1648252455.936709) can1 1ED#4190017E01C073F9
(1648252455.936894) can1 1EF#00000278
(1648252455.937115) can1 2C3#095E06A00788
(1648252455.937340) can1 2D1#000000000000
(1648252455.937497) can1 2D3#0303
(1648252455.939290) can1 1E1#00FF110020
(1648252455.939447) can1 0F1#16E500C0
(1648252455.939702) can1 1F1#AE0E000008000078
(1648252455.943122) can1 19D#40003FFF0008C9FF
(1648252455.943284) can1 1AF#000000
(1648252455.943527) can1 1F5#0F0F000100000800
(1648252455.947457) can1 0C7#03FE0000
(1648252455.947707) can1 0F9#00004000000000FF
(1648252455.947945) can1 199#CFFF0B82F47B00FF
(1648252455.948183) can1 0C9#84098F0700410800
(1648252455.948436) can1 191#06CC06CC06CE0000
(1648252455.948689) can1 1ED#4190017D01B873F9
(1648252455.948876) can1 1EF#00000278
(1648252455.949802) can1 7E0#0201070000000000
(1648252455.954188) can1 7E8#0341076BAAAAAAAA
(1648252455.959925) can1 0C7#03FE0000
(1648252455.960171) can1 0F9#00004000000000FF
(1648252455.960405) can1 0C9#84098B0A00410800
(1648252455.960645) can1 199#0FFF0B82F47E00FF
(1648252455.960877) can1 191#06CC06CC06CC0000
(1648252455.961127) can1 1A1#00100140000000
(1648252455.961389) can1 1C3#06CC06CB00000000
(1648252455.961642) can1 1ED#4190017D01B873F9
(1648252455.961852) can1 1EF#0000027D
(1648252455.968018) can1 19D#80003FFE0008E3FF
(1648252455.968168) can1 1AF#000000
(1648252455.968419) can1 1F5#0F0F000100000800
(1648252455.971777) can1 1E1#00FE120040
(1648252455.971938) can1 0F1#22E500C0
(1648252455.972184) can1 1F1#AE0E000008000078
(1648252455.972368) can1 0C7#03FE0000
(1648252455.972618) can1 0F9#00004000000000FF
(1648252455.972861) can1 199#4FFF0B82F47D00FF
(1648252455.973096) can1 0C9#84098B0D00410800
(1648252455.973349) can1 191#06CC06CC06CC0000
(1648252455.973603) can1 1ED#4190017E01B873F9
(1648252455.973791) can1 1EF#0000027D
(1648252455.984913) can1 0C7#03FE0000
(1648252455.985165) can1 0F9#00004000000000FF
(1648252455.985407) can1 0C9#8409900000410800
(1648252455.985647) can1 199#8FFF0B82F47C00FF
(1648252455.985881) can1 191#06CC06CC06CC0000
(1648252455.986131) can1 1A1#00100140000000
(1648252455.986390) can1 1C3#06CC06CB00000000
(1648252455.986644) can1 1ED#4190017E01B873F9
(1648252455.986852) can1 1EF#0000027B
(1648252455.987072) can1 2C3#095F06A00786
(1648252455.987298) can1 2D1#000000000000
(1648252455.987457) can1 2D3#0303
(1648252455.987711) can1 3C1#0765480000000000
(1648252455.988053) can1 3D1#0117800000480000
(1648252455.991716) can1 3E9#0000000080004000
(1648252455.992912) can1 19D#C0003FFD0008EBFF
(1648252455.993072) can1 1AF#000000
(1648252455.993320) can1 1F5#0F0F000100000800
(1648252455.993566) can1 7E0#0201090000000000
(1648252455.997400) can1 0C7#03FE0000
(1648252455.997651) can1 0F9#00004000000000FF
(1648252455.997881) can1 7E8#0341096FAAAAAAAA
(1648252455.998117) can1 0C9#8409900700410800
(1648252455.998352) can1 199#CFFF0B82F47B00FF
(1648252455.998587) can1 191#06CA06CA06CC0000
(1648252455.998847) can1 1ED#4190018001C073F9
(1648252455.999035) can1 1EF#0000027B
(1648252456.004265) can1 1E1#00FD130060
(1648252456.004426) can1 0F1#3EE500C0
(1648252456.004680) can1 1F1#AE0E000008000078
(1648252456.009959) can1 0C7#03FE0000
(1648252456.010204) can1 0F9#00004000000000FF
(1648252456.010442) can1 0C9#84099A0A00410800
(1648252456.010680) can1 199#0FFF0B82F47E00FF
(1648252456.010916) can1 191#06CA06CA06CA0000
(1648252456.011168) can1 1A1#00100140000000
(1648252456.011424) can1 1C3#06CA06CA00000000
(1648252456.011685) can1 1ED#4190018001C073F9
(1648252456.011871) can1 1EF#00000278
(1648252456.017970) can1 19D#000000000008D9FF
(1648252456.018109) can1 1AF#000000
(1648252456.018374) can1 1F5#0F0F000100000800
(1648252456.022401) can1 0C7#03FE0000
(1648252456.022677) can1 0F9#00004000000000FF
(1648252456.022913) can1 0C9#84099A0D00410800
(1648252456.023149) can1 199#4FFF0B82F47D00FF
(1648252456.023387) can1 191#06CA06CA06CA0000
(1648252456.023643) can1 1ED#4190017E01B873F9
(1648252456.023825) can1 1EF#00000278
(1648252456.034936) can1 0C7#03FE0000
(1648252456.035186) can1 0F9#00004000000000FF
(1648252456.035425) can1 0C9#8409910000410800
(1648252456.035666) can1 199#8FFF0B82F47C00FF
(1648252456.035907) can1 191#06CA06CA06CA0000
(1648252456.036164) can1 1A1#00100140000000
(1648252456.036417) can1 1C3#06CA06C800000000
(1648252456.036671) can1 1ED#4190017E01B873F9
(1648252456.036853) can1 1EF#00000276
(1648252456.037078) can1 2C3#096006A00786
(1648252456.037267) can1 1E1#0000100000
(1648252456.037474) can1 2D1#000000000000
(1648252456.037724) can1 7E0#0201070000000000
(1648252456.037897) can1 0F1#0AE5C000
(1648252456.038138) can1 1F1#AE0E000008000078
(1648252456.038234) can1 1F3#4060
(1648252456.038408) can1 2D3#0303
(1648252456.041726) can1 7E8#0341076BAAAAAAAA
(1648252456.043014) can1 19D#40003FFF0008EDFF
(1648252456.043177) can1 1AF#000000
(1648252456.043421) can1 1F5#0F0F000100000800
(1648252456.047444) can1 0C7#03FE0000
(1648252456.047647) can1 0F9#00004000000000FF
(1648252456.047884) can1 199#CFFF0B82F47B00FF
(1648252456.048118) can1 0C9#8409910700410800
(1648252456.048427) can1 191#06C906C906CA0000
(1648252456.048628) can1 1ED#4190017A01B073F9
(1648252456.048812) can1 1EF#00000276
(1648252456.059899) can1 0C7#03FE0000
(1648252456.060146) can1 0F9#00004000000000FF
(1648252456.060382) can1 0C9#8409770A00410800
(1648252456.060621) can1 199#0FFF0B82F47E00FF
(1648252456.060858) can1 191#06C906C906C90000
(1648252456.061108) can1 1A1#00100140000000
(1648252456.061367) can1 1C3#06C906C900000000
(1648252456.061624) can1 1ED#4190017C01B073F9
(1648252456.061844) can1 1EF#00000276
(1648252456.067923) can1 19D#80003FFE0008F7FF
(1648252456.068060) can1 1AF#000000
(1648252456.068324) can1 1F5#0F0F000100000800
(1648252456.069285) can1 1E1#00FF110020
(1648252456.069446) can1 0F1#16E500C0
(1648252456.069695) can1 1F1#AE0E000008000078
(1648252456.072444) can1 0C7#03FE0000
(1648252456.072694) can1 0F9#00004000000000FF
(1648252456.072928) can1 0C9#8409770D00410800
(1648252456.073167) can1 199#4FFF0B82F47D00FF
(1648252456.073400) can1 191#06CA06CA06C90000
(1648252456.073657) can1 1ED#4190017C01B873F9
(1648252456.073842) can1 1EF#00000276
(1648252456.081158) can1 7E0#0201090000000000
(1648252456.084905) can1 0C7#03FE0000
(1648252456.085159) can1 0F9#00004000000000FF
(1648252456.085400) can1 199#8FFF0B82F47C00FF
(1648252456.085638) can1 0C9#8409720000410800
(1648252456.085871) can1 7E8#0341096FAAAAAAAA
(1648252456.086108) can1 191#06CA06CA06CA0000
(1648252456.086356) can1 1A1#00100140000000
(1648252456.086695) can1 1C3#06CA06CC00000000
(1648252456.086950) can1 1ED#4190017C01B873F9
(1648252456.087134) can1 1EF#00000277
(1648252456.087356) can1 2C3#095D06A00786
(1648252456.087580) can1 2D1#000000000000
(1648252456.087764) can1 2D3#0303
(1648252456.088028) can1 3C1#0765480000000000
(1648252456.088289) can1 3D1#0117800000480000
(1648252456.091711) can1 3E9#0000000080004000
(1648252456.091977) can1 3F9#041EE50055000018
(1648252456.092138) can1 3FB#0208
(1648252456.092391) can1 4C1#01BC704265000000
(1648252456.092648) can1 4D1#080045031E4000BB
(1648252456.092898) can1 4F1#022E022E00F400BB
(1648252456.093140) can1 19D#C0003FFD0008E0FF
(1648252456.093372) can1 772#00000000000000
(1648252456.093529) can1 1AF#000000
(1648252456.093812) can1 1F5#0F0F000100000800
(1648252456.097481) can1 0C7#03FE0000
(1648252456.097732) can1 0F9#00004000000000FF
(1648252456.097965) can1 0C9#8409720700410800
(1648252456.098201) can1 199#CFFF0B82F47B00FF
(1648252456.098435) can1 191#06CC06CC06CA0000
(1648252456.098691) can1 1ED#4190017F01C073F9
(1648252456.098878) can1 1EF#00000277
(1648252456.101769) can1 1E1#00FE120040
(1648252456.101931) can1 0F1#22E500C0
(1648252456.102181) can1 1F1#AE0E000008000078
(1648252456.109976) can1 0C7#03FE0000
(1648252456.110235) can1 0F9#00004000000000FF
(1648252456.110471) can1 0C9#8409890A00410800
(1648252456.110707) can1 199#0FFF0B82F47E00FF
(1648252456.110941) can1 191#06CC06CC06CC0000
(1648252456.111215) can1 1A1#00100140000000
(1648252456.111474) can1 1C3#06CC06CE00000000
(1648252456.111730) can1 1ED#4190017F01C073F9
(1648252456.111915) can1 1EF#00000278
(1648252456.118012) can1 19D#0000000000090EFF
(1648252456.118173) can1 1AF#000000
(1648252456.118427) can1 1F5#0F0F000100000800
(1648252456.122390) can1 0C7#03FE0000
(1648252456.122641) can1 0F9#00004000000000FF
(1648252456.122875) can1 0C9#8409890D00410800
(1648252456.123112) can1 199#4FFF0B82F47D00FF
(1648252456.123346) can1 191#06CC06CC06CC0000
(1648252456.123610) can1 1ED#4190018001C073F9
(1648252456.123792) can1 1EF#00000278
(1648252456.125234) can1 7E0#0201070000000000
(1648252456.129463) can1 7E8#0341076BAAAAAAAA
(1648252456.134391) can1 1E1#00FD130060
(1648252456.134552) can1 0F1#3EE500C0
(1648252456.134806) can1 1F1#AE0E000008000078
(1648252456.134965) can1 0C7#03FE0000
(1648252456.135061) can1 1F3#80A0
(1648252456.135389) can1 0F9#00004000000000FF
(1648252456.135600) can1 0C9#84098D0000410800
(1648252456.135834) can1 199#8FFF0B82F47C00FF
(1648252456.136069) can1 191#06CC06CC06CC0000
(1648252456.136163) can1 4E9#8120
(1648252456.136430) can1 1A1#00100140000000
(1648252456.136694) can1 1C3#06CC06CC00000000
(1648252456.136952) can1 1ED#4190018001C073F9
(1648252456.137136) can1 1EF#00000279
(1648252456.137359) can1 2C3#095E06A00788
(1648252456.137597) can1 2D1#000000000000
(1648252456.137775) can1 2D3#0303
(1648252456.143213) can1 19D#40003FFF0008F7FF
(1648252456.143375) can1 1AF#000000
(1648252456.143618) can1 1F5#0F0F000100000800
(1648252456.147395) can1 0C7#03FE0000
(1648252456.147648) can1 0F9#00004000000000FF
(1648252456.147855) can1 0C9#84098D0700410800
(1648252456.148091) can1 199#CFFF0B82F47B00FF
(1648252456.148327) can1 191#06CB06CB06CC0000
(1648252456.148583) can1 1ED#4190017F01B873F9
(1648252456.148769) can1 1EF#00000279
(1648252456.159926) can1 0C7#03FE0000
(1648252456.160175) can1 0F9#00004000000000FF
(1648252456.160411) can1 0C9#8409850A00410800
(1648252456.160655) can1 199#0FFF0B82F47E00FF
(1648252456.160905) can1 191#06CB06CB06CB0000
(1648252456.161133) can1 1A1#00100140000000
(1648252456.161389) can1 1C3#06CB06CB00000000
(1648252456.161645) can1 1ED#4190017F01B873F9
(1648252456.161842) can1 1EF#0000027A
(1648252456.166745) can1 1E1#0000100000
(1648252456.166911) can1 0F1#0AE5C000
(1648252456.167159) can1 1F1#AE0E000008000078
(1648252456.167920) can1 19D#80003FFE0008EFFF
(1648252456.168081) can1 1AF#000000
(1648252456.168328) can1 1F5#0F0F000100000800
(1648252456.168818) can1 7E0#0201090000000000
(1648252456.172449) can1 0C7#03FE0000
(1648252456.172706) can1 0F9#00004000000000FF
(1648252456.172944) can1 199#4FFF0B82F47D00FF
(1648252456.173177) can1 0C9#8409850D00410800
(1648252456.173411) can1 7E8#0341096FAAAAAAAA
(1648252456.173645) can1 191#06CB06CB06CB0000
(1648252456.173900) can1 1ED#4190017E01B873F9
(1648252456.174085) can1 1EF#0000027A
(1648252456.184929) can1 0C7#03FE0000
(1648252456.185181) can1 0F9#00004000000000FF
(1648252456.185430) can1 199#8FFF0B82F47C00FF
(1648252456.186112) can1 0C9#84097F0000410800
(1648252456.186367) can1 191#06CB06CB06CB0000
(1648252456.186619) can1 1A1#00100140000000
(1648252456.186914) can1 1C3#06CB06CB00000000
(1648252456.187166) can1 1ED#4190017B01B873F9
(1648252456.187351) can1 1EF#00000271
(1648252456.187569) can1 2C3#095E06A00787
(1648252456.187830) can1 2D1#000000000000
(1648252456.187989) can1 2D3#0303
(1648252456.188243) can1 3C1#0765480000000000
(1648252456.188503) can1 3D1#0117800000470000
(1648252456.191686) can1 3E9#0000000080004000
(1648252456.192944) can1 19D#C0003FFD0008E5FF
(1648252456.193104) can1 1AF#000000
(1648252456.193351) can1 1F5#0F0F000100000800
(1648252456.197432) can1 0C7#03FE0000
(1648252456.197680) can1 0F9#00004000000000FF
(1648252456.197918) can1 0C9#84097F0700410800
(1648252456.198150) can1 199#CFFF0B82F47B00FF
(1648252456.198387) can1 191#06CB06CB06CB0000
(1648252456.198640) can1 1ED#4190017B01B873F9
(1648252456.198823) can1 1EF#00000271
(1648252456.199505) can1 1E1#00FF110020
(1648252456.199676) can1 0F1#16E500C0
(1648252456.199918) can1 1F1#AE0E000008000078
(1648252456.209907) can1 0C7#03FE0000
(1648252456.210201) can1 0F9#00004000000000FF
(1648252456.210398) can1 199#0FFF0B82F47E00FF
(1648252456.210774) can1 0C9#84097C0A00410800
(1648252456.211032) can1 191#06CB06CB06CB0000
(1648252456.211280) can1 1A1#00100140000000
(1648252456.211544) can1 1C3#06CB06CC00000000
(1648252456.211798) can1 1ED#4190017B01B873F9
(1648252456.211981) can1 1EF#00000274
(1648252456.212771) can1 7E0#0201070000000000
(1648252456.216628) can1 7E8#0341076BAAAAAAAA
(1648252456.217977) can1 19D#000000000008DFFF
(1648252456.218139) can1 1AF#000000
(1648252456.218385) can1 1F5#0F0F000100000800
(1648252456.218563) can1 4C9#403C0000
(1648252456.218791) can1 77F#00000000000000
(1648252456.222425) can1 0C7#03FE0000
(1648252456.222676) can1 0F9#00004000000000FF
(1648252456.222912) can1 0C9#84097C0D00410800
(1648252456.223152) can1 199#4FFF0B82F47D00FF
(1648252456.223388) can1 191#06CB06CB06CB0000
(1648252456.223643) can1 1ED#4190017C01B873F9
(1648252456.223828) can1 1EF#00000274
(1648252456.231833) can1 1E1#00FE120040
(1648252456.231994) can1 0F1#22E500C0
(1648252456.232240) can1 1F1#AE0E000008000078
(1648252456.232337) can1 1F3#C0E0
(1648252456.235029) can1 0C7#03FE0000
(1648252456.235282) can1 0F9#00004000000000FF
(1648252456.235520) can1 0C9#8409800000410800
(1648252456.235761) can1 199#8FFF0B82F47C00FF
(1648252456.235999) can1 191#06CB06CB06CB0000
(1648252456.236260) can1 1A1#00100140000000
(1648252456.236506) can1 1C3#06CB06CD00000000
(1648252456.236764) can1 1ED#4190017E01B873F9
(1648252456.236946) can1 1EF#0000027A
(1648252456.237166) can1 2C3#095D06A00788
(1648252456.237394) can1 2D1#000000000000
(1648252456.237551) can1 2D3#0303
(1648252456.243045) can1 19D#40003FFF0008E1FF
(1648252456.243208) can1 1AF#000000
(1648252456.243451) can1 1F5#0F0F000100000800
(1648252456.247439) can1 0C7#03FE0000
(1648252456.247654) can1 0F9#00004000000000FF
(1648252456.247888) can1 0C9#8409800700410800
(1648252456.248122) can1 199#CFFF0B82F47B00FF
(1648252456.248360) can1 191#06CB06CB06CB0000
(1648252456.248619) can1 1ED#4190018001C073F9
(1648252456.248803) can1 1EF#0000027A
(1648252456.255992) can1 7E0#0201090000000000
(1648252456.259923) can1 0C7#03FE0000
(1648252456.260175) can1 0F9#00004000000000FF
(1648252456.260417) can1 0C9#84098C0A00410800
(1648252456.260653) can1 199#0FFF0B82F47E00FF
(1648252456.260889) can1 191#06CB06CB06CB0000
(1648252456.261123) can1 7E8#0341096FAAAAAAAA
(1648252456.261352) can1 1A1#00100140000000
(1648252456.261610) can1 1C3#06CB06CD00000000
(1648252456.261915) can1 1ED#4190018001C073F9
(1648252456.262098) can1 1EF#00000278
(1648252456.264240) can1 1E1#00FD130060
(1648252456.264440) can1 0F1#3EE500C0
(1648252456.264654) can1 1F1#AE0E000008000078
(1648252456.267941) can1 19D#80003FFE0008EDFF
(1648252456.268104) can1 1AF#000000
(1648252456.268347) can1 1F5#0F0F000100000800
(1648252456.272430) can1 0C7#03FE0000
(1648252456.272683) can1 0F9#00004000000000FF
(1648252456.272918) can1 0C9#84098C0D00410800
(1648252456.273156) can1 199#4FFF0B82F47D00FF
(1648252456.273391) can1 191#06CB06CA06CB0000
(1648252456.273646) can1 1ED#4190018201C073F9
(1648252456.273830) can1 1EF#00000278
(1648252456.284927) can1 0C7#03FE0000
(1648252456.285179) can1 0F9#00004000000000FF
(1648252456.285415) can1 0C9#84099D0000410800
(1648252456.285658) can1 199#8FFF0B82F47C00FF
(1648252456.285890) can1 191#06CB06CA06CA0000
(1648252456.286140) can1 1A1#00100140000000
(1648252456.286400) can1 1C3#06CB06CB00000000
(1648252456.286654) can1 1ED#4190018201C073F9
(1648252456.286840) can1 1EF#0000027D
(1648252456.287062) can1 2C3#095E06A00787
(1648252456.287287) can1 2D1#000000000000
(1648252456.287444) can1 2D3#0303
(1648252456.287703) can1 3C1#0765480000000000
(1648252456.287964) can1 3D1#0117800000480000
(1648252456.291791) can1 3E9#0000000080004000
(1648252456.292942) can1 19D#C0003FFD0008F5FF
(1648252456.293102) can1 1AF#000000
(1648252456.293346) can1 1F5#0F0F000100000800
(1648252456.296740) can1 1E1#0000100000
(1648252456.296906) can1 0F1#0AE5C000
(1648252456.297148) can1 1F1#AE0E000008000078
(1648252456.297404) can1 0C7#03FE0000
(1648252456.297654) can1 0F9#00004000000000FF
(1648252456.297892) can1 199#CFFF0B82F47B00FF
(1648252456.298130) can1 0C9#84099D0700410800
(1648252456.298385) can1 191#06C806C806CA0000
(1648252456.298641) can1 1ED#4190018201C073F9
(1648252456.298828) can1 1EF#0000027D
(1648252456.300483) can1 7E0#0201070000000000
(1648252456.304145) can1 7E8#0341076BAAAAAAAA
(1648252456.309923) can1 0C7#03FE0000
(1648252456.310170) can1 0F9#00004000000000FF
(1648252456.310406) can1 0C9#8409970A00410800
(1648252456.310646) can1 199#0FFF0B82F47E00FF
(1648252456.310878) can1 191#06C806C806C80000
(1648252456.311126) can1 1A1#00100140000000
(1648252456.311386) can1 1C3#06C806C700000000
(1648252456.311641) can1 1ED#4190018401C073F9
(1648252456.311836) can1 1EF#00000280
(1648252456.317933) can1 19D#000000000008F1FF
(1648252456.318094) can1 1AF#000000
(1648252456.318334) can1 1F5#0F0F000100000800
(1648252456.322424) can1 0C7#03FE0000
(1648252456.322674) can1 0F9#00004000000000FF
(1648252456.322908) can1 0C9#8409970D00410800
(1648252456.323148) can1 199#4FFF0B82F47D00FF
(1648252456.323383) can1 191#06C906C906C80000
(1648252456.323639) can1 1ED#4190018201B873F9
(1648252456.323829) can1 1EF#00000280
(1648252456.329291) can1 1E1#00FF110020
(1648252456.329452) can1 0F1#16E500C0
(1648252456.329703) can1 1F1#AE0E000008000078
(1648252456.329799) can1 1F3#0020
(1648252456.335026) can1 0C7#03FE0000
(1648252456.335279) can1 0F9#00004000000000FF
(1648252456.335517) can1 0C9#8409880000410800
(1648252456.335759) can1 199#8FFF0B82F47C00FF
(1648252456.335998) can1 191#06C906C906C90000
(1648252456.336245) can1 1A1#00100140000000
(1648252456.336505) can1 1C3#06C906C800000000
(1648252456.336763) can1 1ED#4190017F01B873F9
(1648252456.336955) can1 1EF#00000278
(1648252456.337178) can1 2C3#095F06A00786
(1648252456.337405) can1 2D1#000000000000
(1648252456.337560) can1 2D3#0303
(1648252456.341743) can1 3F9#041EED0055000018
(1648252456.341906) can1 3FB#0208
(1648252456.343026) can1 19D#40003FFF0008EEFF
(1648252456.343187) can1 1AF#000000
(1648252456.343434) can1 1F5#0F0F000100000800
(1648252456.343680) can1 7E0#0201090000000000
(1648252456.347400) can1 0C7#03FE0000
(1648252456.347713) can1 0F9#00004000000000FF
(1648252456.347882) can1 7E8#0341096FAAAAAAAA
(1648252456.348119) can1 0C9#8409880700410800
(1648252456.348355) can1 199#CFFF0B82F47B00FF
(1648252456.348587) can1 191#06CA06CA06C90000
(1648252456.348901) can1 1ED#4190017E01B873F9
(1648252456.349087) can1 1EF#00000278
(1648252456.359907) can1 0C7#03FE0000
(1648252456.360155) can1 0F9#00004000000000FF
(1648252456.360393) can1 0C9#84097F0A00410800
(1648252456.360629) can1 199#0FFF0B82F47E00FF
(1648252456.360867) can1 191#06CA06CA06CA0000
(1648252456.361125) can1 1A1#00100140000000
(1648252456.361375) can1 1C3#06CA06CB00000000
(1648252456.361629) can1 1ED#4190017E01B873F9
(1648252456.361833) can1 1EF#00000274
(1648252456.362018) can1 1E1#00FE120040
(1648252456.362411) can1 0F1#22E500C0
(1648252456.362660) can1 1F1#AE0E000008000078
(1648252456.367966) can1 19D#80003FFE0008F9FF
(1648252456.368117) can1 1AF#000000
(1648252456.368371) can1 1F5#0F0F000100000800
(1648252456.372409) can1 0C7#03FE0000
(1648252456.372661) can1 0F9#00004000000000FF
(1648252456.372897) can1 0C9#84097F0D00410800
(1648252456.373133) can1 199#4FFF0B82F47D00FF
(1648252456.373367) can1 191#06CB06CB06CA0000
(1648252456.373623) can1 1ED#4190017E01B873F9
(1648252456.373806) can1 1EF#00000274
(1648252456.384940) can1 0C7#03FE0000
(1648252456.385205) can1 0F9#00004000000000FF
(1648252456.385445) can1 0C9#8409800000410800
(1648252456.385683) can1 199#8FFF0B82F47C00FF
(1648252456.385921) can1 191#06CB06CB06CB0000
(1648252456.386168) can1 1A1#00100140000000
(1648252456.386426) can1 1C3#06CB06CD00000000
(1648252456.386682) can1 1ED#4190017E01B873F9
(1648252456.386864) can1 1EF#00000272
(1648252456.387086) can1 2C3#095D06A00787
(1648252456.387338) can1 7E0#0201070000000000
(1648252456.387544) can1 2D1#000000000000
(1648252456.387702) can1 2D3#0303
(1648252456.387960) can1 3C1#0765480000000000
(1648252456.388236) can1 3D1#0117800000480000
(1648252456.391633) can1 7E8#0341076BAAAAAAAA
(1648252456.391885) can1 3E9#0000000080004000
(1648252456.392976) can1 19D#C0003FFD0008E1FF
(1648252456.393138) can1 1AF#000000
(1648252456.393393) can1 1F5#0F0F000100000800
(1648252456.394184) can1 1E1#00FD130060
(1648252456.394353) can1 0F1#3EE500C0
(1648252456.394599) can1 1F1#AE0E000008000078
(1648252456.397489) can1 0C7#03FE0000
(1648252456.397739) can1 0F9#00004000000000FF
(1648252456.397976) can1 0C9#8409800700410800
(1648252456.398208) can1 199#CFFF0B82F47B00FF
(1648252456.398444) can1 191#06CB06CB06CB0000
(1648252456.398700) can1 1ED#4190017E01B873F9
(1648252456.398882) can1 1EF#00000272
(1648252456.409932) can1 0C7#03FE0000
(1648252456.410186) can1 0F9#00004000000000FF
(1648252456.410424) can1 0C9#8409820A00410800
(1648252456.410662) can1 199#0FFF0B82F47E00FF
(1648252456.410900) can1 191#06CB06CB06CB0000
(1648252456.411149) can1 1A1#00100140000000
(1648252456.411407) can1 1C3#06CB06CD00000000
(1648252456.411663) can1 1ED#4190017E01B873F9
(1648252456.411847) can1 1EF#00000270
(1648252456.417976) can1 19D#000000000008F5FF
(1648252456.418139) can1 1AF#000000
(1648252456.418378) can1 1F5#0F0F000100000800
(1648252456.422407) can1 0C7#03FE0000
(1648252456.422660) can1 0F9#00004000000000FF
(1648252456.422895) can1 0C9#8409820D00410800
(1648252456.423133) can1 199#4FFF0B82F47D00FF
(1648252456.423371) can1 191#06CB06CB06CB0000
(1648252456.423623) can1 1ED#4190017E01B873F9
(1648252456.423809) can1 1EF#00000275
(1648252456.426738) can1 1E1#0000100000
(1648252456.426898) can1 0F1#0AE5C000
(1648252456.427149) can1 1F1#AE0E000008000078
(1648252456.427247) can1 1F3#4060
(1648252456.430991) can1 7E0#0201090000000000
(1648252456.435033) can1 0C7#03FE0000
(1648252456.435287) can1 0F9#00004000000000FF
(1648252456.435524) can1 0C9#84097F0000410800
(1648252456.435765) can1 199#8FFF0B82F47C00FF
(1648252456.436004) can1 191#06CB06CB06CB0000
(1648252456.436234) can1 7E8#0341096FAAAAAAAA
(1648252456.436476) can1 1A1#00100140000000
(1648252456.436727) can1 1C3#06CB06CC00000000
(1648252456.436978) can1 1ED#4190017E01B873F9
(1648252456.437164) can1 1EF#00000275
(1648252456.437387) can1 2C3#095D06A00787
(1648252456.437612) can1 2D1#000000000000
(1648252456.437768) can1 2D3#0303
(1648252456.443063) can1 19D#40003FFF0008D2FF
(1648252456.443223) can1 1AF#000000
(1648252456.443468) can1 1F5#0F0F000100000800
(1648252456.447416) can1 0C7#03FE0000
(1648252456.447674) can1 0F9#00004000000000FF
(1648252456.447908) can1 0C9#84097F0700410800
(1648252456.448180) can1 199#CFFF0B82F47B00FF
(1648252456.448379) can1 191#06CB06CB06CB0000
(1648252456.448817) can1 1ED#4190017A01B873F9
(1648252456.449003) can1 1EF#00000276
(1648252456.459155) can1 1E1#00FF110020
(1648252456.459321) can1 0F1#16E500C0
(1648252456.459567) can1 1F1#AE0E000008000078
(1648252456.459927) can1 0C7#03FE0000
(1648252456.460179) can1 0F9#00004000000000FF
(1648252456.460415) can1 0C9#8409690A00410800
(1648252456.460651) can1 199#0FFF0B82F47E00FF
(1648252456.460887) can1 191#06CB06CB06CB0000
(1648252456.461139) can1 1A1#00100140000000
(1648252456.461395) can1 1C3#06CB06CD00000000
(1648252456.461648) can1 1ED#4190017A01B873F9
(1648252456.461833) can1 1EF#00000276
(1648252456.468030) can1 19D#80003FFE0008E3FF
(1648252456.468191) can1 1AF#000000
(1648252456.468439) can1 1F5#0F0F000100000800
(1648252456.472420) can1 0C7#03FE0000
(1648252456.472672) can1 0F9#00004000000000FF
(1648252456.472915) can1 199#4FFF0B82F47D00FF
(1648252456.473706) can1 0C9#84096F0D00410800
(1648252456.473962) can1 191#06CD06CD06CB0000
(1648252456.474216) can1 1ED#4190017B01B873F9
(1648252456.474400) can1 1EF#00000275
(1648252456.475602) can1 7E0#0201070000000000
(1648252456.479501) can1 7E8#0341076BAAAAAAAA
(1648252456.484924) can1 0C7#03FE0000
(1648252456.485177) can1 0F9#00004000000000FF
(1648252456.485515) can1 0C9#84096F0000410800
(1648252456.485611) can1 199#8FFF0B82F47C00FF
(1648252456.485890) can1 191#06CD06CD06CD0000
(1648252456.486141) can1 1A1#00100140000000
(1648252456.486398) can1 1C3#06CD06D100000000
(1648252456.486652) can1 1ED#4190018001B873F9
(1648252456.486840) can1 1EF#00000275
(1648252456.487058) can1 2C3#095A06A00787
(1648252456.487284) can1 2D1#000000000000
(1648252456.487443) can1 2D3#0303
(1648252456.487728) can1 3C1#0765480000000000
(1648252456.487991) can1 3D1#0117800000480000
(1648252456.491634) can1 1E1#00FE120040
(1648252456.491795) can1 0F1#22E500C0
(1648252456.492043) can1 1F1#AE0E000008000078
(1648252456.492295) can1 3E9#0000000080004000
(1648252456.492959) can1 19D#C0003FFD0008D9FF
(1648252456.493112) can1 1AF#000000
(1648252456.493367) can1 1F5#0F0F000100000800
(1648252456.497488) can1 0C7#03FE0000
(1648252456.497740) can1 0F9#00004000000000FF
(1648252456.497980) can1 199#CFFF0B82F47B00FF
(1648252456.498595) can1 0C9#84098E0700410800
(1648252456.498849) can1 191#06CD06CD06CD0000
(1648252456.499112) can1 1ED#4190018001C073F9
(1648252456.499325) can1 1EF#00000272
(1648252456.509911) can1 0C7#03FE0000
(1648252456.510162) can1 0F9#00004000000000FF
(1648252456.510396) can1 0C9#84098E0A00410800
(1648252456.510634) can1 199#0FFF0B82F47E00FF
(1648252456.510870) can1 191#06CD06CD06CD0000
(1648252456.511119) can1 1A1#00100140000000
(1648252456.511379) can1 1C3#06CD06D000000000
(1648252456.511641) can1 1ED#4190018001C073F9
(1648252456.511825) can1 1EF#00000272
(1648252456.517960) can1 19D#000000000008F5FF
(1648252456.518101) can1 1AF#000000
(1648252456.518362) can1 1F5#0F0F000100000800
(1648252456.518860) can1 7E0#0201090000000000
(1648252456.522435) can1 0C7#03FE0000
(1648252456.522685) can1 0F9#00004000000000FF
(1648252456.522933) can1 199#4FFF0B82F47D00FF
(1648252456.523169) can1 0C9#84098B0D00410800
(1648252456.523399) can1 7E8#0341096FAAAAAAAA
(1648252456.523638) can1 191#06CA06CA06CD0000
(1648252456.523899) can1 1ED#4190018001C073F9
(1648252456.524081) can1 1EF#00000278
(1648252456.524510) can1 1E1#00FD130060
(1648252456.524775) can1 0F1#3EE500C0
(1648252456.525021) can1 1F1#AE0E000008000078
(1648252456.525119) can1 1F3#80A0
(1648252456.534960) can1 0C7#03FE0000
(1648252456.535230) can1 0F9#00004000000000FF
(1648252456.535469) can1 0C9#84098B0000410800
(1648252456.535713) can1 199#8FFF0B82F47C00FF
(1648252456.535949) can1 191#06CA06CA06CA0000
(1648252456.536197) can1 1A1#00100140000000
(1648252456.536459) can1 1C3#06CA06CB00000000
(1648252456.536715) can1 1ED#4190018101C073F9
(1648252456.536897) can1 1EF#00000278
(1648252456.537120) can1 2C3#095E06A00788
(1648252456.537348) can1 2D1#000000000000
(1648252456.537506) can1 2D3#0303
(1648252456.542992) can1 19D#40003FFF0008E9FF
(1648252456.543153) can1 1AF#000000
(1648252456.543419) can1 1F5#0F0F000100000800
(1648252456.547395) can1 0C7#03FE0000
(1648252456.547678) can1 0F9#00004000000000FF
(1648252456.547880) can1 0C9#8409950700410800
(1648252456.548116) can1 199#CFFF0B82F47B00FF
(1648252456.548410) can1 191#06CA06CA06CA0000
(1648252456.548606) can1 1ED#4190018101B873F9
(1648252456.548792) can1 1EF#00000278
(1648252456.556678) can1 1E1#0000100000
(1648252456.556774) can1 0F1#0AE5C000
(1648252456.557029) can1 1F1#AE0E000008000078
(1648252456.559974) can1 0C7#03FE0000
(1648252456.560268) can1 0F9#00004000000000FF
(1648252456.560460) can1 0C9#8409950A00410800
(1648252456.560701) can1 199#0FFF0B82F47E00FF
(1648252456.560939) can1 191#06CA06CA06CA0000
(1648252456.561189) can1 1A1#00100140000000
(1648252456.561446) can1 1C3#06CA06CA00000000
(1648252456.561703) can1 1ED#4190018301C073F9
(1648252456.561889) can1 1EF#00000278
(1648252456.562762) can1 7E0#0201070000000000
(1648252456.566628) can1 7E8#0341076BAAAAAAAA
(1648252456.568006) can1 19D#80003FFE0008F9FF
(1648252456.568150) can1 1AF#000000
(1648252456.568410) can1 1F5#0F0F000100000800
(1648252456.572397) can1 0C7#03FE0000
(1648252456.572647) can1 0F9#00004000000000FF
(1648252456.572883) can1 0C9#8409A00D00410800
(1648252456.573123) can1 199#4FFF0B82F47D00FF
(1648252456.573355) can1 191#06C906C906CA0000
(1648252456.573614) can1 1ED#4190018301C073F9
(1648252456.573802) can1 1EF#0000027B
(1648252456.584930) can1 0C7#03FE0000
(1648252456.585183) can1 0F9#00004000000000FF
(1648252456.585428) can1 0C9#8409A00000410800
(1648252456.585705) can1 199#8FFF0B82F47C00FF
(1648252456.585906) can1 191#06C906C906C90000
(1648252456.586155) can1 1A1#00100140000000
(1648252456.586412) can1 1C3#06C906C900000000
(1648252456.586665) can1 1ED#4190018001B873F9
(1648252456.586863) can1 1EF#0000027B
(1648252456.587081) can1 2C3#095E06A00787
(1648252456.587307) can1 2D1#000000000000
(1648252456.587467) can1 2D3#0303
(1648252456.587720) can1 3C1#0765480000000000
(1648252456.587982) can1 3D1#0117800000480000
(1648252456.589099) can1 1E1#00FF110020
(1648252456.589255) can1 0F1#16E500C0
(1648252456.589511) can1 1F1#AE0E000008000078
(1648252456.591744) can1 3E9#0000000080004000
(1648252456.592008) can1 3F9#041EED0055000017
(1648252456.592166) can1 3FB#0208
(1648252456.592427) can1 4C1#01BC704265000000
(1648252456.592679) can1 4D1#080045031E4000BB
(1648252456.592939) can1 19D#C0003FFD0008E6FF
(1648252456.593093) can1 1AF#000000
(1648252456.593345) can1 1F5#0F0F000100000800
(1648252456.597520) can1 0C7#03FE0000
(1648252456.597774) can1 0F9#00004000000000FF
(1648252456.598008) can1 0C9#84098D0700410800
(1648252456.598244) can1 199#CFFF0B82F47B00FF
(1648252456.598478) can1 191#06C806C806C90000
(1648252456.598731) can1 1ED#4190018001B873F9
(1648252456.598914) can1 1EF#00000276
(1648252456.605988) can1 7E0#0201090000000000
(1648252456.609925) can1 0C7#03FE0000
(1648252456.610177) can1 0F9#00004000000000FF
(1648252456.610413) can1 0C9#84098D0A00410800
(1648252456.610649) can1 199#0FFF0B82F47E00FF
(1648252456.610884) can1 191#06C806C806C80000
(1648252456.611118) can1 7E8#0341096FAAAAAAAA
(1648252456.611346) can1 1A1#00100140000000
(1648252456.611604) can1 1C3#06C806C700000000
(1648252456.611912) can1 1ED#4190017A01B073F9
(1648252456.612095) can1 1EF#00000276
(1648252456.617939) can1 19D#000000000008F3FF
(1648252456.618102) can1 1AF#000000
(1648252456.618345) can1 1F5#0F0F000100000800
(1648252456.621660) can1 1E1#00FE120040
(1648252456.621823) can1 0F1#22E500C0
(1648252456.622068) can1 1F1#AE0E000008000078
(1648252456.622164) can1 1F3#C0E0
(1648252456.622427) can1 0C7#03FE0000
(1648252456.622677) can1 0F9#00004000000000FF
(1648252456.622909) can1 0C9#8409670D00410800
(1648252456.623149) can1 199#4FFF0B82F47D00FF
(1648252456.623381) can1 191#06C806C806C80000
(1648252456.623638) can1 1ED#4190017A01B073F9
(1648252456.623823) can1 1EF#00000274
(1648252456.634939) can1 0C7#03FE0000
(1648252456.635194) can1 0F9#00004000000000FF
(1648252456.635482) can1 0C9#8409670000410800
(1648252456.635672) can1 199#8FFF0B82F47C00FF
(1648252456.635906) can1 191#06C806C806C80000
(1648252456.636156) can1 1A1#00100140000000
(1648252456.636412) can1 1C3#06C806C900000000
(1648252456.636678) can1 1ED#4190017901B073F9
(1648252456.636846) can1 1EF#00000274
(1648252456.637074) can1 2C3#095D06A00785
(1648252456.637325) can1 2D1#000000000000
(1648252456.637464) can1 2D3#0303
(1648252456.642965) can1 19D#40003FFF0008F1FF
(1648252456.643126) can1 1AF#000000
(1648252456.643374) can1 1F5#0F0F000100000800
(1648252456.647409) can1 0C7#03FE0000
(1648252456.647694) can1 0F9#00004000000000FF
(1648252456.647899) can1 0C9#8409600700410800
(1648252456.648131) can1 199#CFFF0B82F47B00FF
(1648252456.648365) can1 191#06CB06CB06C80000
(1648252456.648687) can1 1ED#4190017901B073F9
(1648252456.648784) can1 1EF#0000026F
(1648252456.650479) can1 7E0#0201070000000000
(1648252456.654075) can1 1E1#00FD130060
(1648252456.654236) can1 0F1#3EE500C0
(1648252456.654487) can1 1F1#AE0E000008000078
(1648252456.654721) can1 7E8#0341076BAAAAAAAA
(1648252456.659972) can1 0C7#03FE0000
(1648252456.660223) can1 0F9#00004000000000FF
(1648252456.660462) can1 0C9#8409600A00410800
(1648252456.660698) can1 199#0FFF0B82F47E00FF
(1648252456.660934) can1 191#06CB06CB06CB0000
(1648252456.661184) can1 1A1#00100140000000
(1648252456.661442) can1 1C3#06CB06CF00000000
(1648252456.661696) can1 1ED#4190017901B073F9
(1648252456.661884) can1 1EF#0000026F
(1648252456.667990) can1 19D#80003FFE0008EFFF
(1648252456.668156) can1 1AF#000000
(1648252456.668398) can1 1F5#0F0F000100000800
(1648252456.672417) can1 0C7#03FE0000
(1648252456.672668) can1 0F9#00004000000000FF
(1648252456.672904) can1 0C9#84095E0D00410800
(1648252456.673141) can1 199#4FFF0B82F47D00FF
(1648252456.673377) can1 191#06CD06CD06CB0000
(1648252456.673633) can1 1ED#4190017901B873F9
(1648252456.673821) can1 1EF#00000272
(1648252456.684934) can1 0C7#03FE0000
(1648252456.685189) can1 0F9#00004000000000FF
(1648252456.685424) can1 0C9#84095E0000410800
(1648252456.685702) can1 199#8FFF0B82F47C00FF
(1648252456.685904) can1 191#06CD06CD06CD0000
(1648252456.686149) can1 1A1#00100140000000
(1648252456.686411) can1 1C3#06CD06D200000000
(1648252456.686665) can1 1ED#4190017601B873F9
(1648252456.686847) can1 1EF#00000272
(1648252456.687035) can1 1E1#0000100000
(1648252456.687237) can1 2C3#095906A00789
(1648252456.687406) can1 0F1#0AE5C000
(1648252456.687649) can1 1F1#AE0E000008000078
(1648252456.687859) can1 2D1#000000000000
(1648252456.688017) can1 2D3#0303
(1648252456.688270) can1 3C1#0765480000000000
(1648252456.688532) can1 3D1#01178000005A0000
(1648252456.691738) can1 3E9#0000000080004000
(1648252456.693015) can1 19D#C0003FFD0008E1FF
(1648252456.693176) can1 1AF#000000
(1648252456.693446) can1 1F5#0F0F000100000800
(1648252456.694078) can1 7E0#0201090000000000
(1648252456.697429) can1 0C7#03FE0000
(1648252456.697680) can1 0F9#00004000000000FF
(1648252456.697912) can1 7E8#0341096FAAAAAAAA
(1648252456.698148) can1 0C9#84094F0700410800
(1648252456.698380) can1 199#CFFF0B82F47B00FF
(1648252456.698615) can1 191#06CE06CE06CD0000
(1648252456.698869) can1 1ED#4190017601B873F9
(1648252456.699050) can1 1EF#00000277
(1648252456.709939) can1 0C7#03FE0000
(1648252456.710205) can1 0F9#00004000000000FF
(1648252456.710422) can1 0C9#84094F0A00410800
(1648252456.710660) can1 199#0FFF0B82F47E00FF
(1648252456.710896) can1 191#06CE06CE06CE0000
(1648252456.711143) can1 1A1#00100140000000
(1648252456.711403) can1 1C3#06CE06D300000000
(1648252456.711656) can1 1ED#4190017B01B873F9
(1648252456.711838) can1 1EF#00000277
(1648252456.717995) can1 19D#000000000008CCFF
(1648252456.718152) can1 1AF#000000
(1648252456.718398) can1 1F5#0F0F000100000800
(1648252456.718576) can1 4C9#403C0000
(1648252456.719344) can1 1E1#00FF110020
(1648252456.719503) can1 0F1#16E500C0
(1648252456.719756) can1 1F1#AE0E000008000078
(1648252456.719853) can1 1F3#0020
(1648252456.722486) can1 0C7#03FE0000
(1648252456.722739) can1 0F9#00004000000000FF
(1648252456.722974) can1 0C9#84095C0D00410800
(1648252456.723210) can1 199#4FFF0B82F47D00FF
(1648252456.723447) can1 191#06D006D006CE0000
(1648252456.723700) can1 1ED#4190017B01B873F9
(1648252456.723882) can1 1EF#00000277
(1648252456.734954) can1 0C7#03FE0000
(1648252456.735208) can1 0F9#00004000000000FF
(1648252456.735443) can1 0C9#84095C0000410800
(1648252456.735684) can1 199#8FFF0B82F47C00FF
(1648252456.735922) can1 191#06D006D006D00000
(1648252456.736168) can1 1A1#00100140000000
(1648252456.736427) can1 1C3#06D006D500000000
(1648252456.736698) can1 1ED#4190017D01C073F9
(1648252456.736869) can1 1EF#00000277
(1648252456.737091) can1 2C3#095806A00789
(1648252456.737343) can1 7E0#0201070000000000
(1648252456.737549) can1 2D1#000000000000
(1648252456.737733) can1 2D3#0303
(1648252456.741621) can1 7E8#0341076BAAAAAAAA
(1648252456.742973) can1 19D#40003FFF0008DDFF
(1648252456.743133) can1 1AF#000000
(1648252456.743380) can1 1F5#0F0F000100000800
(1648252456.747412) can1 0C7#03FE0000
(1648252456.747671) can1 0F9#00004000000000FF
(1648252456.747924) can1 0C9#84096B0700410800
(1648252456.748134) can1 199#CFFF0B82F47B00FF
(1648252456.748370) can1 191#06D006D006D00000
(1648252456.748629) can1 1ED#4190017D01C073F9
(1648252456.748859) can1 1EF#00000276
(1648252456.751571) can1 1E1#00FE120040
(1648252456.751735) can1 0F1#22E500C0
(1648252456.752005) can1 1F1#AE0E000008000078
(1648252456.759979) can1 0C7#03FE0000
(1648252456.760232) can1 0F9#00004000000000FF
(1648252456.760467) can1 0C9#84096B0A00410800
(1648252456.760705) can1 199#0FFF0B82F47E00FF
(1648252456.760943) can1 191#06D006D006D00000
(1648252456.761231) can1 1A1#00100140000000
(1648252456.761450) can1 1C3#06D006D400000000
(1648252456.761707) can1 1ED#4190017E01C073F9
(1648252456.761889) can1 1EF#00000276
(1648252456.767993) can1 19D#80003FFE0008BCFF
(1648252456.768092) can1 1AF#000000
(1648252456.768383) can1 1F5#0F0F000100000800
(1648252456.772423) can1 0C7#03FE0000
(1648252456.772676) can1 0F9#00004000000000FF
(1648252456.772907) can1 0C9#8409730D00410800
(1648252456.773145) can1 199#4FFF0B82F47D00FF
(1648252456.773383) can1 191#06CF06CF06D00000
(1648252456.773638) can1 1ED#4190017E01C073F9
(1648252456.773822) can1 1EF#00000277
(1648252456.781055) can1 7E0#0201090000000000
(1648252456.784052) can1 1E1#00FD130060
(1648252456.784214) can1 0F1#3EE500C0
(1648252456.784467) can1 1F1#AE0E000008000078
(1648252456.784923) can1 0C7#03FE0000
(1648252456.785176) can1 0F9#00004000000000FF
(1648252456.785420) can1 199#8FFF0B82F47C00FF
(1648252456.785658) can1 0C9#8409730000410800
(1648252456.785890) can1 7E8#0341096FAAAAAAAA
(1648252456.786126) can1 191#06CF06CF06CF0000
(1648252456.786372) can1 1A1#00100140000000
(1648252456.786637) can1 1C3#06CF06D200000000
(1648252456.786890) can1 1ED#4190018101C073F9
(1648252456.787073) can1 1EF#00000277
(1648252456.787293) can1 2C3#095B06A00789
(1648252456.787521) can1 2D1#000000000000
(1648252456.787677) can1 2D3#0303
(1648252456.787932) can1 3C1#0765480000000000
(1648252456.788195) can1 3D1#0117800000480000
(1648252456.791654) can1 3E9#0000000080004000
(1648252456.793021) can1 19D#C0003FFD0008C9FF
(1648252456.793183) can1 1AF#000000
(1648252456.793427) can1 1F5#0F0F000100000800
(1648252456.797453) can1 0C7#03FE0000
(1648252456.797707) can1 0F9#00004000000000FF
(1648252456.797940) can1 0C9#8409850700410800
(1648252456.798174) can1 199#CFFF0B82F47B00FF
(1648252456.798409) can1 191#06CE06CE06CF0000
(1648252456.798664) can1 1ED#4190018101C073F9
(1648252456.798850) can1 1EF#00000275
(1648252456.809948) can1 0C7#03FE0000
(1648252456.810200) can1 0F9#00004000000000FF
(1648252456.810433) can1 0C9#8409850A00410800
(1648252456.810675) can1 199#0FFF0B82F47E00FF
(1648252456.810905) can1 191#06CE06CE06CE0000
(1648252456.811153) can1 1A1#00100140000000
(1648252456.811415) can1 1C3#06CE06D000000000
(1648252456.811670) can1 1ED#4190018201C073F9
(1648252456.811856) can1 1EF#00000275
(1648252456.816305) can1 1F3#4060
(1648252456.816756) can1 1E1#0000100000
(1648252456.816919) can1 0F1#0AE5C000
(1648252456.817177) can1 1F1#AE0E000008000078
(1648252456.817996) can1 19D#000000000008D2FF
(1648252456.818158) can1 1AF#000000
(1648252456.818403) can1 1F5#0F0F000100000800
(1648252456.822532) can1 0C7#03FE0000
(1648252456.822772) can1 0F9#00004000000000FF
(1648252456.823005) can1 0C9#8409890D00410800
(1648252456.823242) can1 199#4FFF0B82F47D00FF
(1648252456.823477) can1 191#06CD06CD06CE0000
(1648252456.823757) can1 1ED#4190018201C073F9
(1648252456.823918) can1 1EF#00000278
(1648252456.825252) can1 7E0#0201070000000000
(1648252456.829234) can1 7E8#0341076BAAAAAAAA
(1648252456.834957) can1 0C7#03FE0000
(1648252456.835208) can1 0F9#00004000000000FF
(1648252456.835453) can1 0C9#8409890000410800
(1648252456.835697) can1 199#8FFF0B82F47C00FF
(1648252456.835931) can1 191#06CD06CD06CD0000
(1648252456.836182) can1 1A1#00100140000000
(1648252456.836438) can1 1C3#06CD06CD00000000
(1648252456.836707) can1 1ED#4190018001B873F9
(1648252456.836879) can1 1EF#00000278
(1648252456.837104) can1 2C3#095E06A00788
(1648252456.837329) can1 2D1#000000000000
(1648252456.837490) can1 2D3#0303
(1648252456.841657) can1 3F9#041EF6005500001A
(1648252456.841822) can1 3FB#0208
(1648252456.843010) can1 19D#40003FFF0008E5FF
(1648252456.843176) can1 1AF#000000
(1648252456.843414) can1 1F5#0F0F000100000800
(1648252456.847402) can1 0C7#03FE0000
(1648252456.847699) can1 0F9#00004000000000FF
(1648252456.847885) can1 0C9#84097F0700410800
(1648252456.848120) can1 199#CFFF0B82F47B00FF
(1648252456.848374) can1 191#06CB06CB06CD0000
(1648252456.848643) can1 1ED#4190018001B873F9
(1648252456.848798) can1 1EF#0000027C
(1648252456.849372) can1 1E1#00FF110020
(1648252456.849565) can1 0F1#16E500C0
(1648252456.849788) can1 1F1#AE0E000008000078
(1648252456.859946) can1 0C7#03FE0000
(1648252456.860198) can1 0F9#00004000000000FF
(1648252456.860436) can1 0C9#84097F0A00410800
(1648252456.860672) can1 199#0FFF0B82F47E00FF
(1648252456.860908) can1 191#06CB06CB06CB0000
(1648252456.861160) can1 1A1#00100140000000
(1648252456.861416) can1 1C3#06CB06CB00000000
(1648252456.861670) can1 1ED#4190017E01B873F9
(1648252456.861862) can1 1EF#0000027C
(1648252456.867947) can1 19D#80003FFE0008E0FF
(1648252456.868110) can1 1AF#000000
(1648252456.868355) can1 1F5#0F0F000100000800
(1648252456.868601) can1 7E0#0201090000000000
(1648252456.872414) can1 0C7#03FE0000
(1648252456.872674) can1 0F9#00004000000000FF
(1648252456.872904) can1 7E8#0341096FAAAAAAAA
(1648252456.873136) can1 0C9#8409710D00410800
(1648252456.873375) can1 199#4FFF0B82F47D00FF
(1648252456.873610) can1 191#06CB06CB06CB0000
(1648252456.873865) can1 1ED#4190017E01B873F9
(1648252456.874052) can1 1EF#0000027D
(1648252456.881539) can1 1E1#00FE120040
(1648252456.881700) can1 0F1#22E500C0
(1648252456.881950) can1 1F1#AE0E000008000078
(1648252456.884993) can1 0C7#03FE0000
(1648252456.885245) can1 0F9#00004000000000FF
(1648252456.885483) can1 0C9#8409710000410800
(1648252456.885723) can1 199#8FFF0B82F47C00FF
(1648252456.885959) can1 191#06CB06CB06CB0000
(1648252456.886209) can1 1A1#00100140000000
(1648252456.886468) can1 1C3#06CB06CC00000000
(1648252456.886759) can1 1ED#4190018001B873F9
(1648252456.886910) can1 1EF#0000027D
(1648252456.887135) can1 2C3#095D06A00787
(1648252456.887356) can1 2D1#000000000000
(1648252456.887515) can1 2D3#0303
(1648252456.887768) can1 3C1#0765480000000000
(1648252456.888030) can1 3D1#0117800000480000
(1648252456.891652) can1 3E9#0000000080004000
(1648252456.893018) can1 19D#C0003FFD0008EBFF
(1648252456.893180) can1 1AF#000000
(1648252456.893425) can1 1F5#0F0F000100000800
(1648252456.897454) can1 0C7#03FE0000
(1648252456.897706) can1 0F9#00004000000000FF
(1648252456.897946) can1 0C9#8409800700410800
(1648252456.898177) can1 199#CFFF0B82F47B00FF
(1648252456.898412) can1 191#06CD06CD06CB0000
(1648252456.898668) can1 1ED#4190018001B873F9
(1648252456.898853) can1 1EF#0000027E
(1648252456.909919) can1 0C7#03FE0000
(1648252456.910170) can1 0F9#00004000000000FF
(1648252456.910407) can1 0C9#8409800A00410800
(1648252456.910644) can1 199#0FFF0B82F47E00FF
(1648252456.910880) can1 191#06CD06CD06CD0000
(1648252456.911129) can1 1A1#00100140000000
(1648252456.911389) can1 1C3#06CD06CF00000000
(1648252456.911643) can1 1ED#4190017B01B873F9
(1648252456.911827) can1 1EF#0000027E
(1648252456.912266) can1 7E0#0201070000000000
(1648252456.914080) can1 1E1#00FD130060
(1648252456.914243) can1 0F1#3EE500C0
(1648252456.914492) can1 1F1#AE0E000008000078
(1648252456.914590) can1 1F3#80A0
(1648252456.916689) can1 7E8#0341076BAAAAAAAA
(1648252456.917960) can1 19D#000000000008D9FF
(1648252456.918124) can1 1AF#000000
(1648252456.918365) can1 1F5#0F0F000100000800
(1648252456.922519) can1 0C7#03FE0000
(1648252456.922773) can1 0F9#00004000000000FF
(1648252456.923006) can1 0C9#84095E0D00410800
(1648252456.923244) can1 199#4FFF0B82F47D00FF
(1648252456.923480) can1 191#06CD06CD06CD0000
(1648252456.923732) can1 1ED#4190017D01B873F9
(1648252456.923922) can1 1EF#0000027C
(1648252456.934944) can1 0C7#03FE0000
(1648252456.935189) can1 0F9#00004000000000FF
(1648252456.935427) can1 0C9#84095E0000410800
(1648252456.935670) can1 199#8FFF0B82F47C00FF
(1648252456.935902) can1 191#06CD06CD06CD0000
(1648252456.936152) can1 1A1#00100140000000
(1648252456.936414) can1 1C3#06CD06CE00000000
(1648252456.936667) can1 1ED#4190017D01B873F9
(1648252456.936855) can1 1EF#0000027C
(1648252456.937082) can1 2C3#095E06A00788
(1648252456.937307) can1 2D1#000000000000
(1648252456.937444) can1 2D3#0303
(1648252456.942973) can1 19D#40003FFF0008DDFF
(1648252456.943126) can1 1AF#000000
(1648252456.943378) can1 1F5#0F0F000100000800
(1648252456.946497) can1 1E1#0000100000
(1648252456.946665) can1 0F1#0AE5C000
(1648252456.946929) can1 1F1#AE0E000008000078
(1648252456.947422) can1 0C7#03FE0000
(1648252456.947672) can1 0F9#00004000000000FF
(1648252456.947937) can1 0C9#84095A0700410800
(1648252456.948142) can1 199#CFFF0B82F47B00FF
(1648252456.948374) can1 191#06CE06CE06CD0000
(1648252456.948661) can1 1ED#4190017D01B073F9
(1648252456.948834) can1 1EF#00000276
(1648252456.956053) can1 7E0#0201090000000000
(1648252456.959942) can1 0C7#03FE0000
(1648252456.960193) can1 0F9#00004000000000FF
(1648252456.960423) can1 7E8#0341096FAAAAAAAA
(1648252456.960661) can1 0C9#84095A0A00410800
(1648252456.960901) can1 199#0FFF0B82F47E00FF
(1648252456.961133) can1 191#06CE06CE06CE0000
(1648252456.961383) can1 1A1#00100140000000
(1648252456.961643) can1 1C3#06CE06D100000000
(1648252456.961897) can1 1ED#4190017F01B873F9
(1648252456.962082) can1 1EF#00000276
(1648252456.967988) can1 19D#80003FFE0008D7FF
(1648252456.968159) can1 1AF#000000
(1648252456.968415) can1 1F5#0F0F000100000800
(1648252456.972405) can1 0C7#03FE0000
(1648252456.972655) can1 0F9#00004000000000FF
(1648252456.972889) can1 0C9#84096A0D00410800
(1648252456.973129) can1 199#4FFF0B82F47D00FF
(1648252456.973364) can1 191#06D006D006CE0000
(1648252456.973620) can1 1ED#4190017F01C073F9
(1648252456.973805) can1 1EF#0000027A
(1648252456.978967) can1 1E1#00FF110020
(1648252456.979135) can1 0F1#16E500C0
(1648252456.979382) can1 1F1#AE0E000008000078
(1648252456.984988) can1 0C7#03FE0000
(1648252456.985240) can1 0F9#00004000000000FF
(1648252456.985489) can1 199#8FFF0B82F47C00FF
(1648252456.985722) can1 0C9#84096A0000410800
(1648252456.985978) can1 191#06D006D006D00000
(1648252456.986228) can1 1A1#00100140000000
(1648252456.986485) can1 1C3#06D006D400000000
(1648252456.986749) can1 1ED#4190017F01C073F9
(1648252456.987001) can1 1EF#0000027A
(1648252456.987145) can1 2C3#095A06A0078A
(1648252456.987381) can1 2D1#000000000000
(1648252456.987537) can1 2D3#0303
(1648252456.987893) can1 3C1#0765480000000000
(1648252456.988090) can1 3D1#0117800000490000
(1648252456.991663) can1 3E9#0000000080004000
(1648252456.993027) can1 19D#C0003FFD0008D9FF
(1648252456.993189) can1 1AF#000000
(1648252456.993434) can1 1F5#0F0F000100000800
(1648252456.997424) can1 0C7#03FE0000
(1648252456.997675) can1 0F9#00004000000000FF
(1648252456.997913) can1 0C9#84096B0700410800
(1648252456.998145) can1 199#CFFF0B82F47B00FF
(1648252456.998381) can1 191#06D006D006D00000
(1648252456.998641) can1 1ED#4190018201C073F9
(1648252456.998823) can1 1EF#0000027E
(1648252456.999787) can1 7E0#0201070000000000
(1648252457.004157) can1 7E8#0341076BAAAAAAAA
(1648252457.009943) can1 0C7#03FE0000
(1648252457.010188) can1 0F9#00004000000000FF
(1648252457.010426) can1 0C9#84096B0A00410800
(1648252457.010662) can1 199#0FFF0B82F47E00FF
(1648252457.010898) can1 191#06D006D006D00000
(1648252457.011151) can1 1A1#00100140000000
(1648252457.011406) can1 1C3#06D006D200000000
(1648252457.011663) can1 1ED#4190018201C073F9
(1648252457.011850) can1 1E1#00FE120040
(1648252457.012019) can1 1EF#0000027E
(1648252457.012240) can1 0F1#22E500C0
(1648252457.012608) can1 1F1#AE0E000008000078
(1648252457.012704) can1 1F3#C0E0
(1648252457.018043) can1 19D#000000000008D7FF
(1648252457.018196) can1 1AF#000000
(1648252457.018446) can1 1F5#0F0F000100000800
(1648252457.022436) can1 0C7#03FE0000
(1648252457.022700) can1 0F9#00004000000000FF
(1648252457.022932) can1 0C9#84096A0D00410800
(1648252457.023170) can1 199#4FFF0B82F47D00FF
(1648252457.023408) can1 191#06D006D006D00000
(1648252457.023663) can1 1ED#4190017F01B873F9
(1648252457.023849) can1 1EF#00000275
(1648252457.034970) can1 0C7#03FE0000
(1648252457.035216) can1 0F9#00004000000000FF
(1648252457.035453) can1 0C9#84096A0000410800
(1648252457.035696) can1 199#8FFF0B82F47C00FF
(1648252457.035930) can1 191#06D006D006D00000
(1648252457.036181) can1 1A1#00100140000000
(1648252457.036461) can1 1C3#06D006D100000000
(1648252457.036715) can1 1ED#4190018201C073F9
(1648252457.036932) can1 1EF#00000275
(1648252457.037151) can1 2C3#095D06A00789
(1648252457.037375) can1 2D1#000000000000
(1648252457.037513) can1 2D3#0303
(1648252457.042980) can1 19D#40003FFF0008BFFF
(1648252457.043141) can1 1AF#000000
(1648252457.043385) can1 1F5#0F0F000100000800
(1648252457.043635) can1 7E0#0201090000000000
(1648252457.044227) can1 1E1#00FD130060
(1648252457.044387) can1 0F1#3EE500C0
(1648252457.044643) can1 1F1#AE0E000008000078
(1648252457.047459) can1 0C7#03FE0000
(1648252457.047711) can1 0F9#00004000000000FF
(1648252457.047985) can1 199#CFFF0B82F47B00FF
(1648252457.048186) can1 0C9#84097D0700410800
(1648252457.048413) can1 7E8#0341096FAAAAAAAA
(1648252457.048651) can1 191#06D006D006D00000
(1648252457.048973) can1 1ED#4190018201C073F9
(1648252457.049070) can1 1EF#00000276
(1648252457.059927) can1 0C7#03FE0000
(1648252457.060178) can1 0F9#00004000000000FF
(1648252457.060413) can1 0C9#84097D0A00410800
(1648252457.060655) can1 199#0FFF0B82F47E00FF
(1648252457.060888) can1 191#06D006D006D00000
(1648252457.061138) can1 1A1#00100140000000
(1648252457.061398) can1 1C3#06D006D100000000
(1648252457.061648) can1 1ED#4190018901C873F9
(1648252457.061832) can1 1EF#00000276
(1648252457.067943) can1 19D#80003FFE0008E7FF
(1648252457.068108) can1 1AF#000000
(1648252457.068348) can1 1F5#0F0F000100000800
(1648252457.072428) can1 0C7#03FE0000
(1648252457.072678) can1 0F9#00004000000000FF
(1648252457.072914) can1 0C9#8409A60D00410800
(1648252457.073154) can1 199#4FFF0B82F47D00FF
(1648252457.073388) can1 191#06CF06CF06D00000
(1648252457.073643) can1 1ED#4190018601C873F9
(1648252457.073830) can1 1EF#0000027B
(1648252457.076415) can1 1E1#0000100000
(1648252457.076581) can1 0F1#0AE5C000
(1648252457.076826) can1 1F1#AE0E000008000078
(1648252457.084957) can1 0C7#03FE0000
(1648252457.085209) can1 0F9#00004000000000FF
(1648252457.085451) can1 0C9#8409A60000410800
(1648252457.085688) can1 199#8FFF0B82F47C00FF
(1648252457.085922) can1 191#06CF06CF06CF0000
(1648252457.086174) can1 1A1#00100140000000
(1648252457.086430) can1 1C3#06CF06CF00000000
(1648252457.086684) can1 1ED#4190018601C873F9
(1648252457.086871) can1 1EF#0000027B
(1648252457.087088) can1 2C3#095E06A00789
(1648252457.087365) can1 2D1#000000000000
(1648252457.087463) can1 2D3#0303
(1648252457.087745) can1 3C1#0765480000000000
(1648252457.087995) can1 7E0#0201070000000000
(1648252457.088239) can1 3D1#0117800000480000
(1648252457.092291) can1 7E8#0341076BAAAAAAAA
(1648252457.092542) can1 3E9#0000000080004000
(1648252457.092808) can1 3F9#041EFB0055000018
(1648252457.093048) can1 19D#C0003FFD0008D8FF
(1648252457.093144) can1 3FB#0208
(1648252457.093340) can1 1AF#000000
(1648252457.093582) can1 4C1#01BC704265000000
(1648252457.093826) can1 1F5#0F0F000100000800
(1648252457.094062) can1 4D1#080045031E4000BB
(1648252457.094312) can1 4F1#022E022E00F400BB
(1648252457.094561) can1 772#00000000000000
(1648252457.097505) can1 0C7#03FE0000
(1648252457.097756) can1 0F9#00004000000000FF
(1648252457.097994) can1 0C9#8409A60700410800
(1648252457.098267) can1 199#CFFF0B82F47B00FF
(1648252457.098480) can1 191#06CA06CA06CF0000
(1648252457.098716) can1 1ED#4190018601C073F9
(1648252457.098904) can1 1EF#0000027B
(1648252457.108893) can1 1E1#00FF110020
(1648252457.109060) can1 0F1#16E500C0
(1648252457.109308) can1 1F1#AE0E000008000078
(1648252457.109941) can1 0C7#03FE0000
(1648252457.110194) can1 0F9#00004000000000FF
(1648252457.110431) can1 0C9#8409A60A00410800
(1648252457.110667) can1 199#0FFF0B82F47E00FF
(1648252457.110904) can1 191#06CA06CA06CA0000
(1648252457.111157) can1 1A1#00100140000000
(1648252457.111415) can1 1C3#06CA06C600000000
(1648252457.111667) can1 1ED#4190018A01C873F9
(1648252457.111855) can1 1EF#0000027B
(1648252457.118024) can1 19D#000000000008EFFF
(1648252457.118164) can1 1AF#000000
(1648252457.118451) can1 1F5#0F0F000100000800
(1648252457.122407) can1 0C7#03FE0000
(1648252457.122659) can1 0F9#00004000000000FF
(1648252457.122903) can1 199#4FFF0B82F47D00FF
(1648252457.123266) can1 0C9#8409BC0D00410800
(1648252457.123521) can1 191#06C806C806CA0000
(1648252457.123780) can1 1ED#4190018701C073F9
(1648252457.123964) can1 1EF#0000027B
(1648252457.131656) can1 7E0#0201090000000000
(1648252457.134990) can1 0C7#03FE0000
(1648252457.135240) can1 0F9#00004000000000FF
(1648252457.135477) can1 0C9#8409BC0000410800
(1648252457.135720) can1 199#8FFF0B82F47C00FF
(1648252457.135952) can1 191#06C806C806C80000
(1648252457.136185) can1 7E8#0341096FAAAAAAAA
(1648252457.136416) can1 1A1#00100140000000
(1648252457.136675) can1 1C3#06C806C500000000
(1648252457.136962) can1 1ED#4190018901C073F9
(1648252457.137131) can1 1EF#0000027B
(1648252457.137356) can1 2C3#096206A00785
(1648252457.137581) can1 2D1#000000000000
(1648252457.137736) can1 2D3#0303
(1648252457.141373) can1 1E1#00FE120040
(1648252457.141534) can1 0F1#22E500C0
(1648252457.141785) can1 1F1#AE0E000008000078
(1648252457.143020) can1 19D#40003FFF000901FF
(1648252457.143181) can1 1AF#000000
(1648252457.143428) can1 1F5#0F0F000100000800
(1648252457.147457) can1 0C7#03FE0000
(1648252457.147707) can1 0F9#00004000000000FF
(1648252457.147935) can1 0C9#8409C70700410800
(1648252457.148167) can1 199#CFFF0B82F47B00FF
(1648252457.148402) can1 191#06C606C606C80000
(1648252457.148667) can1 1ED#4190018901C073F9
(1648252457.148844) can1 1EF#00000276
(1648252457.159939) can1 0C7#03FE0000
(1648252457.160193) can1 0F9#00004000000000FF
(1648252457.160427) can1 0C9#8409C70A00410800
(1648252457.160665) can1 199#0FFF0B82F47E00FF
(1648252457.160903) can1 191#06C606C606C60000
(1648252457.161149) can1 1A1#00100140000000
(1648252457.161409) can1 1C3#06C606C100000000
(1648252457.161668) can1 1ED#4190018A01C073F9
(1648252457.161849) can1 1EF#00000276
(1648252457.167938) can1 19D#80003FFE00091BFF
(1648252457.168101) can1 1AF#000000
(1648252457.168347) can1 1F5#0F0F000100000800
(1648252457.172429) can1 0C7#03FE0000
(1648252457.172683) can1 0F9#00004000000000FF
(1648252457.172918) can1 0C9#8409CA0D00410800
(1648252457.173155) can1 199#4FFF0B82F47D00FF
(1648252457.173393) can1 191#06C306C306C60000
(1648252457.173648) can1 1ED#4190018701C073F9
(1648252457.173860) can1 1EF#00000279
(1648252457.174198) can1 1E1#00FD130060
(1648252457.174459) can1 0F1#3EE500C0
(1648252457.174707) can1 1F1#AE0E000008000078
(1648252457.175550) can1 7E0#0201070000000000
(1648252457.179713) can1 7E8#0341076BAAAAAAAA
(1648252457.184952) can1 0C7#03FE0000
(1648252457.185206) can1 0F9#00004000000000FF
(1648252457.185447) can1 0C9#8409CA0000410800
(1648252457.185685) can1 199#8FFF0B82F47C00FF
(1648252457.185922) can1 191#06C306C306C30000
(1648252457.186171) can1 1A1#00100140000000
(1648252457.186431) can1 1C3#06C306BE00000000
(1648252457.186685) can1 1ED#4190018701B873F9
(1648252457.186867) can1 1EF#00000279
(1648252457.187087) can1 2C3#096406A00784
(1648252457.187315) can1 2D1#000000000000
(1648252457.187472) can1 2D3#0303
(1648252457.187743) can1 3C1#0765480000000000
(1648252457.187990) can1 3D1#0117800000490000
(1648252457.191638) can1 3E9#0000000080004000
(1648252457.192959) can1 19D#C0003FFD00092AFF
(1648252457.193122) can1 1AF#000000
(1648252457.193365) can1 1F5#0F0F000100000800
(1648252457.197454) can1 0C7#03FE0000
(1648252457.197704) can1 0F9#00004000000000FF
(1648252457.197938) can1 0C9#8409C70700410800
(1648252457.198172) can1 199#CFFF0B82F47B00FF
(1648252457.198408) can1 191#06C206C206C30000
(1648252457.198658) can1 1ED#4190018701B873F9
(1648252457.198844) can1 1EF#0000027D
(1648252457.206113) can1 1F3#0020
(1648252457.206621) can1 1E1#0000100000
(1648252457.206781) can1 0F1#0AE5C000
(1648252457.207036) can1 1F1#AE0E000008000078
(1648252457.207132) can1 4E9#8120
(1648252457.210097) can1 0C7#03FE0000
(1648252457.210290) can1 0F9#00004000000000FF
(1648252457.210525) can1 0C9#8409C70A00410800
(1648252457.210763) can1 199#0FFF0B82F47E00FF
(1648252457.210998) can1 191#06C206C206C20000
(1648252457.211245) can1 1A1#00100140000000
(1648252457.211507) can1 1C3#06C206BE00000000
(1648252457.211760) can1 1ED#4190018701B873F9
(1648252457.211945) can1 1EF#0000027D
(1648252457.218080) can1 19D#00000000000924FF
(1648252457.218221) can1 1AF#000000
(1648252457.218482) can1 1F5#0F0F000100000800
(1648252457.218660) can1 4C9#403C0000
(1648252457.218894) can1 77F#00000000000000
(1648252457.219139) can1 7E0#0201090000000000
(1648252457.222431) can1 0C7#03FE0000
(1648252457.222685) can1 0F9#00004000000000FF
(1648252457.222915) can1 0C9#8409CB0D00410800
(1648252457.223153) can1 199#4FFF0B82F47D00FF
(1648252457.223389) can1 191#06C206C206C20000
(1648252457.223620) can1 7E8#0341096FAAAAAAAA
(1648252457.223852) can1 1ED#4190018701B873F9
(1648252457.224039) can1 1EF#0000027B
(1648252457.234967) can1 0C7#03FE0000
(1648252457.235215) can1 0F9#00004000000000FF
(1648252457.235465) can1 199#8FFF0B82F47C00FF
(1648252457.236116) can1 0C9#8409AA0000410800
(1648252457.236369) can1 191#06C206C206C20000
(1648252457.236619) can1 1A1#00100140000000
(1648252457.236880) can1 1C3#06C206BE00000000
(1648252457.237137) can1 1ED#4190018201B873F9
(1648252457.237322) can1 1EF#00000276
(1648252457.237557) can1 2C3#096306A00783
(1648252457.237802) can1 2D1#000000000000
(1648252457.237962) can1 2D3#0303
(1648252457.238823) can1 1E1#00FF110020
(1648252457.238993) can1 0F1#16E500C0
(1648252457.239238) can1 1F1#AE0E000008000078
(1648252457.243029) can1 19D#40003FFF00092CFF
(1648252457.243190) can1 1AF#000000
(1648252457.243437) can1 1F5#0F0F000100000800
(1648252457.247369) can1 0C7#03FE0000
(1648252457.247671) can1 0F9#00004000000000FF
(1648252457.247852) can1 0C9#8409AA0700410800
(1648252457.248085) can1 199#CFFF0B82F47B00FF
(1648252457.248323) can1 191#06C106C106C20000
(1648252457.248652) can1 1ED#4190018201B073F9
(1648252457.248774) can1 1EF#00000276
(1648252457.259948) can1 0C7#03FE0000
(1648252457.260202) can1 0F9#00004000000000FF
(1648252457.260450) can1 199#0FFF0B82F47E00FF
(1648252457.261167) can1 0C9#8409830A00410800
(1648252457.261462) can1 191#06C106C106C10000
(1648252457.261711) can1 1A1#00100140000000
(1648252457.261973) can1 1C3#06C106BD00000000
(1648252457.262233) can1 1ED#4190017C01B073F9
(1648252457.262417) can1 1EF#0000026C
(1648252457.262985) can1 7E0#0201070000000000
(1648252457.266549) can1 7E8#0341076BAAAAAAAA
(1648252457.267961) can1 19D#80003FFE000921FF
(1648252457.268123) can1 1AF#000000
(1648252457.268369) can1 1F5#0F0F000100000800
(1648252457.271314) can1 1E1#00FE120040
(1648252457.271475) can1 0F1#22E500C0
(1648252457.271725) can1 1F1#AE0E000008000078
(1648252457.272369) can1 0C7#03FE0000
(1648252457.272621) can1 0F9#00004000000000FF
(1648252457.272859) can1 0C9#8409830D00410800
(1648252457.273098) can1 199#4FFF0B82F47D00FF
(1648252457.273334) can1 191#06C406C406C10000
(1648252457.273589) can1 1ED#4190017B01B073F9
(1648252457.273774) can1 1EF#0000026C
(1648252457.284909) can1 0C7#03FE0000
(1648252457.285163) can1 0F9#00004000000000FF
(1648252457.285418) can1 199#8FFF0B82F47C00FF
(1648252457.285730) can1 0C9#84098F0000410800
(1648252457.285986) can1 191#06C406C406C40000
(1648252457.286232) can1 1A1#00100140000000
(1648252457.286490) can1 1C3#06C406C300000000
(1648252457.286746) can1 1ED#4190017B01B073F9
(1648252457.286931) can1 1EF#00000272
(1648252457.287153) can1 2C3#096006A00783
(1648252457.287380) can1 2D1#000000000000
(1648252457.287547) can1 2D3#0303
(1648252457.287826) can1 3C1#0765480000000000
(1648252457.288089) can1 3D1#0117800000480000
(1648252457.291635) can1 3E9#0000000080004000
(1648252457.292952) can1 19D#C0003FFD00091BFF
(1648252457.293116) can1 1AF#000000
(1648252457.293359) can1 1F5#0F0F000100000800
(1648252457.297399) can1 0C7#03FE0000
(1648252457.297692) can1 0F9#00004000000000FF
(1648252457.297904) can1 0C9#84098F0700410800
(1648252457.298137) can1 199#CFFF0B82F47B00FF
(1648252457.298378) can1 191#06C806C806C40000
(1648252457.298632) can1 1ED#4190017C01B873F9
(1648252457.298815) can1 1EF#00000272
(1648252457.303567) can1 1F3#4060
(1648252457.304019) can1 1E1#00FD130060
(1648252457.304179) can1 0F1#3EE500C0
(1648252457.304435) can1 1F1#AE0E000008000078
(1648252457.305905) can1 7E0#0201090000000000
(1648252457.310030) can1 0C7#03FE0000
(1648252457.310284) can1 0F9#00004000000000FF
(1648252457.310516) can1 0C9#84098F0A00410800
(1648252457.310754) can1 199#0FFF0B82F47E00FF
(1648252457.310990) can1 191#06C806C806C80000
(1648252457.311221) can1 7E8#0341096FAAAAAAAA
(1648252457.311451) can1 1A1#00100140000000
(1648252457.311713) can1 1C3#06C806CB00000000
(1648252457.311967) can1 1ED#4190017C01B873F9
(1648252457.312151) can1 1EF#00000272
(1648252457.318043) can1 19D#00000000000910FF
(1648252457.318202) can1 1AF#000000
(1648252457.318444) can1 1F5#0F0F000100000800
(1648252457.322416) can1 0C7#03FE0000
(1648252457.322653) can1 0F9#00004000000000FF
(1648252457.322883) can1 0C9#84098F0D00410800
(1648252457.323125) can1 199#4FFF0B82F47D00FF
(1648252457.323354) can1 191#06C706C706C80000
(1648252457.323612) can1 1ED#4190017D01B873F9
(1648252457.323794) can1 1EF#00000272
(1648252457.334913) can1 0C7#03FE0000
(1648252457.335163) can1 0F9#00004000000000FF
(1648252457.335405) can1 0C9#84098B0000410800
(1648252457.335642) can1 199#8FFF0B82F47C00FF
(1648252457.335877) can1 191#06C706C706C70000
(1648252457.336126) can1 1A1#00100140000000
(1648252457.336382) can1 1C3#06C706CA00000000
(1648252457.336636) can1 1ED#4190017D01B873F9
(1648252457.336826) can1 1E1#0000100000
(1648252457.336995) can1 0F1#0AE5C000
(1648252457.337161) can1 1EF#0000027A
(1648252457.337406) can1 1F1#AE0E000008000078
(1648252457.337608) can1 2C3#095C06A00786
(1648252457.337834) can1 2D1#000000000000
(1648252457.337994) can1 2D3#0303
(1648252457.342162) can1 3F9#041EFE0055000018
(1648252457.342326) can1 3FB#0208
(1648252457.343111) can1 19D#40003FFF0008F3FF
(1648252457.343274) can1 1AF#000000
(1648252457.343516) can1 1F5#0F0F000100000800
(1648252457.347504) can1 0C7#03FE0000
(1648252457.347755) can1 0F9#00004000000000FF
(1648252457.347976) can1 0C9#84098B0700410800
(1648252457.348212) can1 199#CFFF0B82F47B00FF
(1648252457.348444) can1 191#06C806C806C70000
(1648252457.348708) can1 1ED#4190017E01B873F9
(1648252457.348884) can1 1EF#0000027A
(1648252457.350604) can1 7E0#0201070000000000
(1648252457.354098) can1 7E8#0341076BAAAAAAAA
(1648252457.359909) can1 0C7#03FE0000
(1648252457.360161) can1 0F9#00004000000000FF
(1648252457.360397) can1 0C9#8409910A00410800
(1648252457.360637) can1 199#0FFF0B82F47E00FF
(1648252457.360870) can1 191#06C806C806C80000
(1648252457.361120) can1 1A1#00100140000000
(1648252457.361382) can1 1C3#06C806CA00000000
(1648252457.361634) can1 1ED#4190017E01B873F9
(1648252457.361818) can1 1EF#00000285
(1648252457.367968) can1 19D#80003FFE0008FBFF
(1648252457.368134) can1 1AF#000000
(1648252457.368373) can1 1F5#0F0F000100000800
(1648252457.368993) can1 1E1#00FF110020
(1648252457.369155) can1 0F1#16E500C0
(1648252457.369404) can1 1F1#AE0E000008000078
(1648252457.372453) can1 0C7#03FE0000
(1648252457.372703) can1 0F9#00004000000000FF
(1648252457.372937) can1 0C9#8409910D00410800
(1648252457.373177) can1 199#4FFF0B82F47D00FF
(1648252457.373409) can1 191#06C806C806C80000
(1648252457.373663) can1 1ED#4190018101B873F9
(1648252457.373849) can1 1EF#00000285
(1648252457.384921) can1 0C7#03FE0000
