(1649441575.908407) can0 402#FE023FFFFFFFFFFF
(1649441575.940459) can0 2DF#0E9203E80FA00A7A
(1649441575.941318) can0 142#000000000000
(1649441575.942314) can0 1E1#0000FFFF00000000
(1649441575.943154) can0 249#000000C00D08
(1649441575.944161) can0 1E7#7000000000000000
(1649441575.945017) can0 221#010000000000
(1649441575.945865) can0 286#0338C0000000
(1649441575.946858) can0 2D3#010E180200000000
(1649441575.947858) can0 1A5#2000FFFFFF007800
(1649441575.948770) can0 208#0080651E1E002D
(1649441575.949630) can0 217#777D0F0020FD
(1649441575.950202) can0 20B#0000
(1649441575.951211) can0 2D6#0100000000000000
(1649441575.952244) can0 283#0000000000000000
(1649441575.953276) can0 211#FFFFFFFFFFFFFFFF
(1649441575.954244) can0 292#FFFFFF0000FFFF
(1649441575.955086) can0 2DA#61119BA0FFFF
(1649441575.955805) can0 2DD#05000000
(1649441575.956829) can0 2DE#019B000000000000
(1649441575.958174) can0 416#FE163FFFFFFFFFFF
(1649441575.959263) can0 402#FE023FFFFFFFFFFF
(1649441575.960232) can0 2DB#E507401C00000105
(1649441575.961070) can0 249#000000C00D08
(1649441575.970053) can0 348#0000000000000000
(1649441575.970866) can0 249#030100C033D6
(1649441575.971714) can0 286#0338C0000000
(1649441575.972610) can0 208#1380651E1E002D
(1649441575.973386) can0 244#000033D680
(1649441575.974034) can0 2D2#000300
(1649441575.980072) can0 2CE#FFFF000000000000
(1649441575.988111) can0 3D9#000A0A0A0A0AFF
(1649441575.990149) can0 211#FFFFFFFFFFFFFFFF
(1649441575.990984) can0 249#000000C00D08
(1649441575.991919) can0 20E#00050700FFFF0C
(1649441575.998210) can0 3B3#00FFFFFF00FFFFFF
(1649441576.000019) can0 244#000033D680
(1649441576.000963) can0 21D#4111297562E52E81
(1649441576.001859) can0 208#1380651E1E002D
(1649441576.008174) can0 3B0#1D3000001D300000
(1649441576.010111) can0 21E#390014116B9E809E
(1649441576.018272) can0 392#0C00000000000000
(1649441576.020233) can0 21F#0100500000000040
(1649441576.027370) can0 414#FE143FFFFFFFFFFF
(1649441576.028049) can0 2E9#00000000
(1649441576.030019) can0 25F#C17DA80E0000
(1649441576.037316) can0 214#FFFFFF00FFFF00
(1649441576.038318) can0 293#1000000000FFFFFF
(1649441576.038771) can0 2E5#0F
(1649441576.039772) can0 43E#FE3E3FFFFFFFFFFF
(1649441576.040564) can0 217#77790F0020FD
(1649441576.041026) can0 2E1#00
(1649441576.042011) can0 1E1#0000FFFF00000000
(1649441576.042547) can0 270#0000
(1649441576.043411) can0 208#1380651E1E002D
(1649441576.044099) can0 2B0#02000000
(1649441576.045091) can0 211#FFFFFFFFFFFFFFFF
(1649441576.045691) can0 308#110000
(1649441576.046226) can0 3E9#DF01
(1649441576.047066) can0 3A3#000000000000
(1649441576.048051) can0 402#FD143FFFFFFFFFFF
(1649441576.048938) can0 291#1D000530000007
(1649441576.049544) can0 2D2#003300
(1649441576.050210) can0 2EB#590000FF
(1649441576.050769) can0 20B#0000
(1649441576.051697) can0 20E#00054700FFFF0C
(1649441576.057274) can0 2A8#000000000000
(1649441576.058243) can0 290#011A010F07000000
(1649441576.058707) can0 2E5#00
(1649441576.059342) can0 308#110000
(1649441576.060203) can0 286#0338C0000000
(1649441576.064980) can0 2D2#000300
(1649441576.067124) can0 2B0#02000000
(1649441576.067604) can0 2E1#00
(1649441576.077081) can0 2E3#000000
(1649441576.080267) can0 2CE#FFFF000000000000
(1649441576.087408) can0 21B#03000000009E0003
(1649441576.090294) can0 211#FFFFFFFFFFFFFFFF
(1649441576.096978) can0 270#0000
(1649441576.097665) can0 2EB#590000FF
(1649441576.107158) can0 2B0#02000000
(1649441576.117484) can0 2E7#001C000000000000
(1649441576.137311) can0 214#2C1C3300143800
(1649441576.140270) can0 217#77770F0020FD
(1649441576.141267) can0 1E1#0000FFFF00000000
(1649441576.142163) can0 208#1380651E1E002D
(1649441576.143195) can0 211#FFFFFFFFFFFFFFFF
(1649441576.147411) can0 414#FD3E3FFFFFFFFFFF
(1649441576.148099) can0 2EB#590000FF
(1649441576.149904) can0 20B#0000
(1649441576.157294) can0 2A8#000000000000
(1649441576.158310) can0 416#FE3E3FFFFFFFFFFF
(1649441576.160323) can0 286#0338C0000000
(1649441576.165511) can0 208#1080651E1E002D
(1649441576.180328) can0 2CE#FFFF000000000000
(1649441576.190354) can0 211#FFFFFFFFFFFFFFFF
(1649441576.197200) can0 2EB#590000FF
(1649441576.205440) can0 3E9#DF01
(1649441576.237363) can0 214#2C1C3300143800
(1649441576.240076) can0 43E#FD023FFFFFFFFFFF
(1649441576.240889) can0 217#777A0F0020FD
(1649441576.241888) can0 1E1#0000FFFF00000000
(1649441576.242784) can0 208#1080651E1E002D
(1649441576.243816) can0 211#FFFFFFFFFFFFFFFF
(1649441576.247217) can0 2EB#590000FF
(1649441576.249982) can0 20B#0000
(1649441576.257314) can0 2A8#000000000000
(1649441576.260297) can0 286#0338C0000000
(1649441576.280349) can0 2CE#FFFF000000000000
(1649441576.290333) can0 211#FFFFFFFFFFFFFFFF
(1649441576.297222) can0 2EB#590000FF
(1649441576.337345) can0 214#2C1C3300143800
(1649441576.340427) can0 217#777A0F0020FD
(1649441576.341421) can0 1E1#0000FFFF00000000
(1649441576.342317) can0 208#1080651E1E002D
(1649441576.343245) can0 20E#13054700FFFF0C
(1649441576.344277) can0 211#FFFFFFFFFFFFFFFF
(1649441576.345309) can0 402#FD143FFFFFFFFFFF
(1649441576.347237) can0 2EB#590000FF
(1649441576.349921) can0 20B#0000
(1649441576.357335) can0 2A8#000000000000
(1649441576.360424) can0 286#0338C0000000
(1649441576.361426) can0 1A5#3F00FFFFFF007800
(1649441576.365728) can0 208#1380651E1E002D
(1649441576.370374) can0 20E#13054700FFFF0C
(1649441576.380448) can0 2CE#FFFF000000000000
(1649441576.390395) can0 211#FFFFFFFFFFFFFFFF
(1649441576.397241) can0 2EB#590000FF
(1649441576.435334) can0 3E9#9E01
(1649441576.437502) can0 414#FD163FFFFFFFFFFF
(1649441576.438388) can0 214#2C1C3300143800
(1649441576.440598) can0 292#FFFFFF0000FFFF
(1649441576.441594) can0 1E1#0000FFFF00000000
(1649441576.442489) can0 208#1380651E1E002D
(1649441576.443313) can0 217#77790F0020FD
(1649441576.444345) can0 211#FFFFFFFFFFFFFFFF
(1649441576.447258) can0 2EB#590000FF
(1649441576.449984) can0 20B#0000
(1649441576.457356) can0 2A8#000000000000
(1649441576.460415) can0 286#0338C0000000
(1649441576.470315) can0 348#0000000000000000
(1649441576.480501) can0 2CE#FFFF000000000000
(1649441576.490584) can0 211#FFFFFFFFFFFFFFFF
(1649441576.491508) can0 20E#13054700FFFF0C
(1649441576.497262) can0 2EB#590000FF
(1649441576.500298) can0 244#000033D680
(1649441576.537385) can0 214#2C1C3300143800
(1649441576.538014) can0 308#110000
(1649441576.538996) can0 416#FD3E3FFFFFFFFFFF
(1649441576.539837) can0 3A3#000000000000
(1649441576.540629) can0 217#77790F0020FD
(1649441576.541669) can0 1E1#0000FFFF00000000
(1649441576.542567) can0 208#1380651E1E002D
(1649441576.543596) can0 211#FFFFFFFFFFFFFFFF
(1649441576.547277) can0 2EB#590000FF
(1649441576.550090) can0 20B#0000
(1649441576.557375) can0 2A8#000000000000
(1649441576.560371) can0 286#0338C0000000
(1649441576.565969) can0 208#1080651E1E002D
(1649441576.567026) can0 2E1#00
(1649441576.577215) can0 2E3#000000
(1649441576.580520) can0 2CE#FFFF000000000000
(1649441576.590515) can0 211#FFFFFFFFFFFFFFFF
(1649441576.597280) can0 2EB#590000FF
(1649441576.620818) can0 43E#FD023FFFFFFFFFFF
(1649441576.623711) can0 291#1D0D0530000007
(1649441576.637437) can0 214#2C1C3300143800
(1649441576.640476) can0 217#777B0F0021FD
(1649441576.641474) can0 1E1#0000FFFF00000000
(1649441576.642370) can0 208#1080651E1E002D
(1649441576.643401) can0 211#FFFFFFFFFFFFFFFF
(1649441576.647298) can0 2EB#590000FF
(1649441576.650094) can0 20B#0000
(1649441576.657404) can0 2A8#000000000000
(1649441576.660481) can0 286#0338C0000000
(1649441576.680575) can0 2CE#FFFF000000000000
(1649441576.690570) can0 211#FFFFFFFFFFFFFFFF
(1649441576.697303) can0 2EB#590000FF
(1649441576.720924) can0 402#FD143FFFFFFFFFFF
(1649441576.737431) can0 214#2C1C3300143800
(1649441576.740572) can0 217#777B0F0021FD
(1649441576.741557) can0 1E1#0000FFFF00000000
(1649441576.742453) can0 208#1080651E1E002D
(1649441576.743483) can0 211#FFFFFFFFFFFFFFFF
(1649441576.747324) can0 2EB#590000FF
(1649441576.750152) can0 20B#0000
(1649441576.756814) can0 2D9#80C226C426C0FF
(1649441576.757653) can0 2A8#000000000000
(1649441576.758261) can0 3E6#0B0D02
(1649441576.760618) can0 286#0338C0000000
(1649441576.780648) can0 2CE#FFFF000000000000
(1649441576.790672) can0 211#FFFFFFFFFFFFFFFF
(1649441576.797321) can0 2EB#590000FF
(1649441576.817561) can0 414#FD163FFFFFFFFFFF
(1649441576.837475) can0 214#2C1C3300143800
(1649441576.840617) can0 217#777B0F0021FD
(1649441576.841602) can0 1E1#0000FFFF00000000
(1649441576.842498) can0 208#1080651E1E002D
(1649441576.843528) can0 211#FFFFFFFFFFFFFFFF
(1649441576.847337) can0 2EB#590000FF
(1649441576.850278) can0 20B#0000
(1649441576.857443) can0 2A8#000000000000
(1649441576.860527) can0 286#0338C0000000
(1649441576.880837) can0 2CE#FFFF000000000000
(1649441576.881770) can0 20E#930547C0FFFF0C
(1649441576.890696) can0 211#FFFFFFFFFFFFFFFF
(1649441576.897341) can0 2EB#590000FF
(1649441576.898589) can0 416#FD3E3FFFFFFFFFFF
(1649441576.910677) can0 20E#930547C0FFFF0C
(1649441576.937467) can0 214#2C1C3300143800
(1649441576.940839) can0 292#FFFFFF0000FFFF
(1649441576.941688) can0 142#000000000000
(1649441576.942689) can0 1E1#0000FFFF00000000
(1649441576.943526) can0 249#000000C00D08
(1649441576.944534) can0 1E7#7000000000000000
(1649441576.945534) can0 1A5#3F00FFFFFF007800
(1649441576.946429) can0 208#1080651E1E002D
(1649441576.947253) can0 217#777B0FC020FD
(1649441576.947926) can0 2EB#590000FF
(1649441576.948918) can0 211#FFFFFFFFFFFFFFFF
(1649441576.950722) can0 283#0000000000000000
(1649441576.951293) can0 20B#0000
(1649441576.957463) can0 2A8#000000000000
(1649441576.960691) can0 286#0338C0000000
(1649441576.970646) can0 348#0000000000000000
(1649441576.971290) can0 2D2#000300
(1649441576.980777) can0 2CE#FFFF000000000000
(1649441576.981774) can0 43E#FD023FFFFFFFFFFF
(1649441576.988558) can0 3D9#000A0A0A0A0AFF
(1649441576.990762) can0 211#FFFFFFFFFFFFFFFF
(1649441576.991695) can0 20E#930547C0FFFF0C
(1649441576.997359) can0 2EB#590000FF
(1649441576.998655) can0 3B3#00FFFFFF00FFFFFF
(1649441577.000588) can0 244#000033D680
(1649441577.008626) can0 3B0#1D3000001D300000
(1649441577.018666) can0 392#0C00000000000000
(1649441577.028363) can0 2E9#00000000
(1649441577.037515) can0 214#2C1C3300143800
(1649441577.038145) can0 308#110000
(1649441577.039176) can0 293#1000000000FFFFFF
(1649441577.039986) can0 3A3#000000000000
(1649441577.040878) can0 217#777B0FC021FD
(1649441577.041868) can0 1E1#0000FFFF00000000
(1649441577.042760) can0 208#1080651E1E002D
(1649441577.043792) can0 211#FFFFFFFFFFFFFFFF
(1649441577.047376) can0 2EB#590000FF
(1649441577.048537) can0 291#1D0D0530000007
(1649441577.050334) can0 20B#0000
(1649441577.057483) can0 2A8#000000000000
(1649441577.058650) can0 290#011A010F07000000
(1649441577.060702) can0 286#0338C0000000
(1649441577.067133) can0 2E1#00
(1649441577.077314) can0 2E3#000000
(1649441577.080819) can0 2CE#FFFF000000000000
(1649441577.081847) can0 402#FD143FFFFFFFFFFF
(1649441577.086439) can0 244#00000D0880
(1649441577.087736) can0 21B#03000000009E0003
(1649441577.091015) can0 211#FFFFFFFFFFFFFFFF
(1649441577.097202) can0 270#0000
(1649441577.097898) can0 2EB#590000FF
(1649441577.107384) can0 2B0#02000000
(1649441577.117689) can0 2E7#001C000000000000
(1649441577.137510) can0 214#2C1C3300143800
(1649441577.140978) can0 217#787B0FC021FD
(1649441577.141963) can0 1E1#0000FFFF00000000
(1649441577.142858) can0 208#1080651E1E002D
(1649441577.143890) can0 211#FFFFFFFFFFFFFFFF
(1649441577.147402) can0 2EB#590000FF
(1649441577.150663) can0 20B#0000
(1649441577.157501) can0 2A8#000000000000
(1649441577.160848) can0 286#0338C0000000
(1649441577.177644) can0 414#FD163FFFFFFFFFFF
(1649441577.181015) can0 2CE#FFFF000000000000
(1649441577.190992) can0 211#FFFFFFFFFFFFFFFF
(1649441577.197397) can0 2EB#590000FF
(1649441577.237553) can0 214#2C1C3300143800
(1649441577.240975) can0 217#787B0FC021FD
(1649441577.241974) can0 1E1#0000FFFF00000000
(1649441577.242869) can0 208#1080651E1E002D
(1649441577.243901) can0 211#FFFFFFFFFFFFFFFF
(1649441577.247414) can0 2EB#590000FF
(1649441577.250563) can0 20B#0000
(1649441577.257520) can0 2A8#000000000000
(1649441577.258752) can0 416#FD3E3FFFFFFFFFFF
(1649441577.261060) can0 286#0338C0000000
(1649441577.281080) can0 2CE#FFFF000000000000
(1649441577.291034) can0 211#FFFFFFFFFFFFFFFF
(1649441577.297422) can0 2EB#590000FF
(1649441577.337551) can0 214#2C1C3300143800
(1649441577.341076) can0 217#787B0FC020FD
(1649441577.342061) can0 1E1#0000FFFF00000000
(1649441577.343060) can0 43E#FD023FFFFFFFFFFF
(1649441577.343922) can0 208#1080651E1E002D
(1649441577.344954) can0 211#FFFFFFFFFFFFFFFF
(1649441577.347443) can0 2EB#590000FF
(1649441577.350623) can0 20B#0000
(1649441577.357541) can0 2A8#000000000000
(1649441577.361023) can0 286#0338C0000000
(1649441577.381213) can0 2CE#FFFF000000000000
(1649441577.391179) can0 211#FFFFFFFFFFFFFFFF
(1649441577.397440) can0 2EB#590000FF
(1649441577.437593) can0 214#2C1C3300143800
(1649441577.441250) can0 292#FFFFFF0000FFFF
(1649441577.442234) can0 1E1#0000FFFF00000000
(1649441577.443129) can0 208#1080651E1E002D
(1649441577.443952) can0 217#787B0FC021FD
(1649441577.444984) can0 211#FFFFFFFFFFFFFFFF
(1649441577.446015) can0 402#FD143FFFFFFFFFFF
(1649441577.447456) can0 2EB#590000FF
(1649441577.450757) can0 20B#0000
(1649441577.457562) can0 2A8#000000000000
(1649441577.461055) can0 286#0338C0000000
(1649441577.471011) can0 348#0000000000000000
(1649441577.481213) can0 2CE#FFFF000000000000
(1649441577.491160) can0 211#FFFFFFFFFFFFFFFF
(1649441577.492093) can0 20E#930547C0FFFF0C
(1649441577.497461) can0 2EB#590000FF
(1649441577.501052) can0 244#00000D0880
(1649441577.537690) can0 414#FD163FFFFFFFFFFF
(1649441577.538565) can0 214#2C1C3300143800
(1649441577.539249) can0 308#110000
(1649441577.540071) can0 3A3#000000000000
(1649441577.541284) can0 217#787B0FC021FD
(1649441577.542271) can0 1E1#0000FFFF00000000
(1649441577.543165) can0 208#1080651E1E002D
(1649441577.544197) can0 211#FFFFFFFFFFFFFFFF
(1649441577.547486) can0 2EB#590000FF
(1649441577.550739) can0 20B#0000
(1649441577.557584) can0 2A8#000000000000
(1649441577.561164) can0 286#0338C0000000
(1649441577.567218) can0 2E1#00
(1649441577.577408) can0 2E3#000000
(1649441577.581259) can0 2CE#FFFF000000000000
(1649441577.591276) can0 211#FFFFFFFFFFFFFFFF
(1649441577.597481) can0 2EB#590000FF
(1649441577.618916) can0 416#FD3E3FFFFFFFFFFF
(1649441577.637631) can0 214#2C1C3300143800
(1649441577.641232) can0 217#787B0FC021FD
(1649441577.642229) can0 1E1#0000FFFF00000000
(1649441577.643124) can0 208#1080651E1E002D
(1649441577.644155) can0 211#FFFFFFFFFFFFFFFF
(1649441577.647500) can0 2EB#590000FF
(1649441577.650809) can0 20B#0000
(1649441577.657598) can0 2A8#000000000000
(1649441577.661171) can0 286#0338C0000000
(1649441577.681393) can0 2CE#FFFF000000000000
(1649441577.691356) can0 211#FFFFFFFFFFFFFFFF
(1649441577.697507) can0 2EB#590000FF
(1649441577.702938) can0 43E#FD023FFFFFFFFFFF
(1649441577.737626) can0 214#2C1C3300143800
(1649441577.741315) can0 217#787B0FC021FD
(1649441577.742312) can0 1E1#0000FFFF00000000
(1649441577.743207) can0 208#1080651E1E002D
(1649441577.744238) can0 211#FFFFFFFFFFFFFFFF
(1649441577.747526) can0 2EB#590000FF
(1649441577.750923) can0 20B#0000
(1649441577.757201) can0 2D9#80C226C426C0FF
(1649441577.758042) can0 2A8#000000000000
(1649441577.758633) can0 3E6#0B0D03
(1649441577.761254) can0 286#0338C0000000
(1649441577.781412) can0 2CE#FFFF000000000000
(1649441577.791340) can0 211#FFFFFFFFFFFFFFFF
(1649441577.797527) can0 2EB#590000FF
(1649441577.801762) can0 402#FD143FFFFFFFFFFF
(1649441577.837674) can0 214#2C1C3300143800
(1649441577.841345) can0 217#787B0FC021FD
(1649441577.842343) can0 1E1#0000FFFF00000000
(1649441577.843238) can0 208#1080651E1E002D
(1649441577.844269) can0 211#FFFFFFFFFFFFFFFF
(1649441577.847535) can0 2EB#590000FF
(1649441577.850920) can0 20B#0000
(1649441577.857640) can0 2A8#000000000000
(1649441577.861337) can0 286#0338C0000000
(1649441577.881408) can0 2CE#FFFF000000000000
(1649441577.891395) can0 211#FFFFFFFFFFFFFFFF
(1649441577.897787) can0 414#FD163FFFFFFFFFFF
(1649441577.898498) can0 2EB#590000FF
(1649441577.932256) can0 142#FF0000000000
(1649441577.937663) can0 214#2C1C3300143800
(1649441577.941621) can0 2DE#019B000000000000
(1649441577.942609) can0 1E1#0000FFFF00000000
(1649441577.943448) can0 249#000000C00D08
(1649441577.943975) can0 3E9#9E01
(1649441577.944958) can0 1E7#7000000000000000
(1649441577.945814) can0 221#010000000000
(1649441577.946806) can0 2D3#010E180200000000
(1649441577.947806) can0 1A5#3F00FFFFFF007800
(1649441577.948478) can0 2EB#590000FF
(1649441577.949346) can0 208#1080651E1E002D
(1649441577.950174) can0 217#787B0FC020FD
(1649441577.951206) can0 211#FFFFFFFFFFFFFFFF
(1649441577.951781) can0 20B#0000
(1649441577.952791) can0 2D6#0100000000000000
(1649441577.953821) can0 283#0000000000000000
(1649441577.954788) can0 292#FFFFFF0000FFFF
(1649441577.955508) can0 2DD#05000000
(1649441577.957661) can0 2A8#000000000000
(1649441577.961393) can0 2DB#E507401C00000105
(1649441577.962245) can0 142#FF0000000000
(1649441577.963093) can0 286#0338C0000000
(1649441577.971308) can0 348#0000000000000000
(1649441577.971951) can0 2D2#000300
(1649441577.979073) can0 416#FD3E3FFFFFFFFFFF
(1649441577.981572) can0 2CE#FFFF00000000C03F
(1649441577.989004) can0 3D9#000A0A0A0A0AFF
(1649441577.991568) can0 211#FFFFFFFFFFFFFFFF
(1649441577.992501) can0 20E#930547C0FFFF0C
(1649441577.997560) can0 2EB#590000FF
(1649441577.999101) can0 3B3#00FFFFFF00FFFFFF
(1649441578.001375) can0 244#00000D0880
(1649441578.002310) can0 21D#4111297562E52E81
(1649441578.009072) can0 3B0#1D3000001D300000
(1649441578.011378) can0 21E#390014116B9E809E
(1649441578.019107) can0 392#0C00000000000000
(1649441578.021643) can0 21F#0100500000000040
(1649441578.028797) can0 2E9#00000000
(1649441578.031330) can0 25F#C17DA80E0000
(1649441578.037710) can0 214#2C1C3300143800
(1649441578.038190) can0 2E5#00
(1649441578.039215) can0 293#1000000000FFFFFF
(1649441578.039791) can0 308#110000
(1649441578.040663) can0 3A3#000000000000
(1649441578.041521) can0 217#787B0FC020FD
(1649441578.042520) can0 1E1#0000FFFF00000000
(1649441578.043414) can0 208#1080651E1E002D
(1649441578.044446) can0 211#FFFFFFFFFFFFFFFF
(1649441578.047575) can0 2EB#590000FF
(1649441578.048975) can0 291#1D0D0530000007
(1649441578.051107) can0 20B#0000
(1649441578.057680) can0 2A8#000000000000
(1649441578.059097) can0 290#011A010F07000000
(1649441578.061410) can0 286#0338C0000000
(1649441578.063640) can0 43E#FD023FFFFFFFFFFF
(1649441578.067328) can0 2E1#00
(1649441578.077510) can0 2E3#000000
(1649441578.081543) can0 2CE#FFFF00000000C03F
(1649441578.087804) can0 21B#03000000009E0003
(1649441578.091515) can0 211#FFFFFFFFFFFFFFFF
(1649441578.097398) can0 270#0000
(1649441578.098094) can0 2EB#590000FF
(1649441578.107580) can0 2B0#02000000
(1649441578.117886) can0 2E7#001C000000000000
(1649441578.137706) can0 214#2C1C3300143800
(1649441578.141595) can0 217#787B0FC020FD
(1649441578.142591) can0 1E1#0000FFFF00000000
(1649441578.143486) can0 208#1080651E1E002D
(1649441578.144518) can0 211#FFFFFFFFFFFFFFFF
(1649441578.147607) can0 2EB#590000FF
(1649441578.151100) can0 20B#0000
(1649441578.157705) can0 2A8#000000000000
(1649441578.161517) can0 286#0338C0000000
(1649441578.162546) can0 402#FD143FFFFFFFFFFF
(1649441578.181605) can0 2CE#FFFF00000000C03F
(1649441578.191574) can0 211#FFFFFFFFFFFFFFFF
(1649441578.197604) can0 2EB#590000FF
(1649441578.237751) can0 214#2C1C3300143800
(1649441578.241584) can0 217#787B0FC020FD
(1649441578.242593) can0 1E1#0000FFFF00000000
(1649441578.243478) can0 208#1080651E1E002D
(1649441578.244508) can0 211#FFFFFFFFFFFFFFFF
(1649441578.247613) can0 2EB#590000FF
(1649441578.251209) can0 20B#0000
(1649441578.257839) can0 414#FD163FFFFFFFFFFF
(1649441578.258694) can0 2A8#000000000000
(1649441578.261603) can0 286#0338C0000000
(1649441578.281649) can0 2CE#FFFF00000000C03F
(1649441578.291705) can0 211#FFFFFFFFFFFFFFFF
(1649441578.297628) can0 2EB#590000FF
(1649441578.337750) can0 214#2C1C3300143800
(1649441578.339238) can0 416#FD3E3FFFFFFFFFFF
(1649441578.341690) can0 217#787B0FC020FD
(1649441578.342702) can0 1E1#0000FFFF00000000
(1649441578.343586) can0 208#1080651E1E002D
(1649441578.344617) can0 211#FFFFFFFFFFFFFFFF
(1649441578.347642) can0 2EB#590000FF
(1649441578.351335) can0 20B#0000
(1649441578.357740) can0 2A8#000000000000
(1649441578.361592) can0 286#0338C0000000
(1649441578.381718) can0 2CE#FFFF00000000C03F
(1649441578.391706) can0 211#FFFFFFFFFFFFFFFF
(1649441578.397638) can0 2EB#590000FF
(1649441578.424344) can0 43E#FD023FFFFFFFFFFF
(1649441578.437796) can0 214#2C1C3300143800
(1649441578.441787) can0 292#FFFFFF0000FFFF
(1649441578.442795) can0 1E1#0000FFFF00000000
(1649441578.443681) can0 208#1080651E1E002D
(1649441578.444512) can0 217#787B0FC020FD
(1649441578.445543) can0 211#FFFFFFFFFFFFFFFF
(1649441578.447655) can0 2EB#590000FF
(1649441578.451273) can0 20B#0000
(1649441578.457762) can0 2A8#000000000000
(1649441578.461670) can0 286#0338C0000000
(1649441578.471729) can0 348#0000000000000000
(1649441578.481788) can0 2CE#FFFF00000000C03F
(1649441578.491750) can0 211#FFFFFFFFFFFFFFFF
(1649441578.492683) can0 20E#930547C0FFFF0C
(1649441578.497659) can0 2EB#590000FF
(1649441578.501603) can0 244#00000D0880
(1649441578.522063) can0 402#FD143FFFFFFFFFFF
(1649441578.537786) can0 214#2C1C3300143800
(1649441578.538413) can0 308#110000
(1649441578.539286) can0 3A3#000000000000
(1649441578.541782) can0 217#787B0FC020FD
(1649441578.542780) can0 1E1#0000FFFF00000000
(1649441578.543694) can0 208#1080651E1E002D
(1649441578.544725) can0 211#FFFFFFFFFFFFFFFF
(1649441578.547687) can0 2EB#590000FF
(1649441578.551330) can0 20B#0000
(1649441578.557785) can0 2A8#000000000000
(1649441578.561738) can0 286#0338C0000000
(1649441578.567418) can0 2E1#00
(1649441578.577608) can0 2E3#000000
(1649441578.581955) can0 2CE#FFFF00000000C03F
(1649441578.591884) can0 211#FFFFFFFFFFFFFFFF
(1649441578.597682) can0 2EB#590000FF
(1649441578.617914) can0 414#FD163FFFFFFFFFFF
(1649441578.637830) can0 214#2C1C3300143800
(1649441578.641846) can0 217#787B0FC020FD
(1649441578.642840) can0 1E1#0000FFFF00000000
(1649441578.643739) can0 208#1080651E1E002D
(1649441578.644770) can0 211#FFFFFFFFFFFFFFFF
(1649441578.647691) can0 2EB#590000FF
(1649441578.651448) can0 20B#0000
(1649441578.657804) can0 2A8#000000000000
(1649441578.661753) can0 286#0338C0000000
(1649441578.681872) can0 2CE#FFFF00000000C03F
(1649441578.691914) can0 211#FFFFFFFFFFFFFFFF
(1649441578.697706) can0 2EB#590000FF
(1649441578.699395) can0 416#FD3E3FFFFFFFFFFF
(1649441578.737827) can0 214#2C1C3300143800
(1649441578.741876) can0 217#787B0FC020FD
(1649441578.742871) can0 1E1#0000FFFF00000000
(1649441578.743769) can0 208#1080651E1E002D
(1649441578.744799) can0 211#FFFFFFFFFFFFFFFF
(1649441578.747720) can0 2EB#590000FF
(1649441578.751445) can0 20B#0000
(1649441578.757523) can0 2D9#80C226C426C0FF
(1649441578.758362) can0 2A8#000000000000
(1649441578.758954) can0 3E6#0B0D04
(1649441578.761879) can0 286#0338C0000000
(1649441578.781925) can0 2CE#FFFF00000000C03F
(1649441578.785048) can0 43E#FD023FFFFFFFFFFF
(1649441578.791924) can0 211#FFFFFFFFFFFFFFFF
(1649441578.797722) can0 2EB#590000FF
(1649441578.837871) can0 214#2C1C3300143800
(1649441578.841912) can0 217#787B0FC020FD
(1649441578.842908) can0 1E1#0000FFFF00000000
(1649441578.843805) can0 208#1080651E1E002D
(1649441578.844836) can0 211#FFFFFFFFFFFFFFFF
(1649441578.847733) can0 2EB#590000FF
(1649441578.851505) can0 20B#0000
(1649441578.857839) can0 2A8#000000000000
(1649441578.861828) can0 286#0338C0000000
(1649441578.882018) can0 2CE#FFFF00000000C03F
(1649441578.883046) can0 402#FD143FFFFFFFFFFF
(1649441578.892084) can0 211#FFFFFFFFFFFFFFFF
(1649441578.897738) can0 2EB#590000FF
(1649441578.937874) can0 214#2C1C3300143800
(1649441578.942119) can0 292#FFFFFF0000FFFF
(1649441578.942971) can0 142#FF0000000000
(1649441578.943971) can0 1E1#0000FFFF00000000
(1649441578.944810) can0 249#000000C00D08
(1649441578.945817) can0 1E7#7000000000000000
(1649441578.946817) can0 1A5#3F00FFFFFF007800
(1649441578.947713) can0 208#1080651E1E002D
(1649441578.948386) can0 2EB#590000FF
(1649441578.949217) can0 217#787B0FC020FD
(1649441578.950218) can0 211#FFFFFFFFFFFFFFFF
(1649441578.952114) can0 283#0000000000000000
(1649441578.952689) can0 20B#0000
(1649441578.957859) can0 2A8#000000000000
(1649441578.961924) can0 286#0338C0000000
(1649441578.971900) can0 348#0000000000000000
(1649441578.972541) can0 2D2#000300
(1649441578.978007) can0 414#FD163FFFFFFFFFFF
(1649441578.982212) can0 2CE#FFFF00000000C03F
(1649441578.989454) can0 3D9#000A0A0A0A0AFF
(1649441578.992058) can0 211#FFFFFFFFFFFFFFFF
(1649441578.992994) can0 20E#930547C0FFFF0C
(1649441578.997763) can0 2EB#590000FF
(1649441578.999552) can0 3B3#00FFFFFF00FFFFFF
(1649441579.001956) can0 244#00000D0880
(1649441579.009523) can0 3B0#1D3000001D300000
(1649441579.019557) can0 392#0C00000000000000
(1649441579.029249) can0 2E9#00000000
(1649441579.037909) can0 214#2C1C3300143800
(1649441579.038541) can0 308#110000
(1649441579.039416) can0 3A3#000000000000
(1649441579.040414) can0 293#1000000000FFFFFF
(1649441579.042094) can0 217#787B0FC020FD
(1649441579.043093) can0 1E1#0000FFFF00000000
(1649441579.043991) can0 208#1080651E1E002D
(1649441579.045021) can0 211#FFFFFFFFFFFFFFFF
(1649441579.047774) can0 2EB#590000FF
(1649441579.049426) can0 291#1D0D0530000007
(1649441579.051639) can0 20B#0000
(1649441579.057880) can0 2A8#000000000000
(1649441579.059555) can0 416#FD3E3FFFFFFFFFFF
(1649441579.062065) can0 286#0338C0000000
(1649441579.067530) can0 2E1#00
(1649441579.069549) can0 290#011A010F07000000
(1649441579.077707) can0 2E3#000000
(1649441579.082106) can0 2CE#FFFF00000000C03F
(1649441579.087998) can0 21B#04000000009E0004
(1649441579.092098) can0 211#FFFFFFFFFFFFFFFF
(1649441579.097600) can0 270#0000
(1649441579.098296) can0 2EB#590000FF
(1649441579.107781) can0 2B0#02000000
(1649441579.118087) can0 2E7#001C000000000000
(1649441579.137908) can0 214#2C1C3300143800
(1649441579.142109) can0 217#787B0FC020FD
(1649441579.143104) can0 1E1#0000FFFF00000000
(1649441579.144002) can0 208#1080651E1E002D
(1649441579.145032) can0 211#FFFFFFFFFFFFFFFF
(1649441579.146032) can0 43E#FD023FFFFFFFFFFF
(1649441579.147800) can0 2EB#590000FF
(1649441579.151684) can0 20B#0000
(1649441579.157901) can0 2A8#000000000000
(1649441579.162007) can0 286#0338C0000000
(1649441579.182173) can0 2CE#FFFF00000000C03F
(1649441579.192280) can0 211#FFFFFFFFFFFFFFFF
(1649441579.197797) can0 2EB#590000FF
(1649441579.237954) can0 214#2C1C3300143800
(1649441579.242211) can0 217#787B0FC020FD
(1649441579.243207) can0 1E1#0000FFFF00000000
(1649441579.244104) can0 208#1080651E1E002D
(1649441579.245134) can0 211#FFFFFFFFFFFFFFFF
(1649441579.246166) can0 402#FD143FFFFFFFFFFF
(1649441579.247815) can0 2EB#590000FF
(1649441579.251803) can0 20B#0000
(1649441579.257921) can0 2A8#000000000000
(1649441579.262061) can0 286#0338C0000000
(1649441579.282246) can0 2CE#FFFF00000000C03F
(1649441579.292211) can0 211#FFFFFFFFFFFFFFFF
(1649441579.297820) can0 2EB#590000FF
(1649441579.338048) can0 414#FD163FFFFFFFFFFF
(1649441579.338924) can0 214#2C1C3300143800
(1649441579.342209) can0 217#787B0FC020FD
(1649441579.343204) can0 1E1#0000FFFF00000000
(1649441579.344101) can0 208#1080651E1E002D
(1649441579.345132) can0 211#FFFFFFFFFFFFFFFF
(1649441579.347845) can0 2EB#590000FF
(1649441579.351850) can0 20B#0000
(1649441579.357943) can0 2A8#000000000000
(1649441579.362217) can0 286#0338C0000000
(1649441579.382307) can0 2CE#FFFF00000000C03F
(1649441579.392276) can0 211#FFFFFFFFFFFFFFFF
(1649441579.397844) can0 2EB#590000FF
(1649441579.419714) can0 416#FD3E3FFFFFFFFFFF
(1649441579.437993) can0 214#2C1C3300143800
(1649441579.442393) can0 292#FFFFFF0000FFFF
(1649441579.443388) can0 1E1#0000FFFF00000000
(1649441579.444286) can0 208#1080651E1E002D
(1649441579.445118) can0 217#787B0FC020FD
(1649441579.446149) can0 211#FFFFFFFFFFFFFFFF
(1649441579.446676) can0 3E9#9E01
(1649441579.447972) can0 2EB#590000FF
(1649441579.451857) can0 20B#0000
(1649441579.457958) can0 2A8#000000000000
(1649441579.462251) can0 286#0338C0000000
(1649441579.472187) can0 348#0000000000000000
(1649441579.482353) can0 2CE#FFFF00000000C03F
(1649441579.492414) can0 211#FFFFFFFFFFFFFFFF
(1649441579.493344) can0 20E#930547C0FFFF0C
(1649441579.497857) can0 2EB#590000FF
(1649441579.502149) can0 244#00000D0880
(1649441579.506464) can0 43E#FD023FFFFFFFFFFF
(1649441579.537986) can0 214#2C1C3300143800
(1649441579.538614) can0 308#110000
(1649441579.539487) can0 3A3#000000000000
(1649441579.542407) can0 217#787B0FC020FD
(1649441579.543407) can0 1E1#0000FFFF00000000
(1649441579.544303) can0 208#1080651E1E002D
(1649441579.545334) can0 211#FFFFFFFFFFFFFFFF
(1649441579.547879) can0 2EB#590000FF
(1649441579.551972) can0 20B#0000
(1649441579.557977) can0 2A8#000000000000
(1649441579.562240) can0 286#0338C0000000
(1649441579.567628) can0 2E1#00
(1649441579.577808) can0 2E3#000000
(1649441579.582394) can0 2CE#FFFF00000000C03F
(1649441579.592389) can0 211#FFFFFFFFFFFFFFFF
(1649441579.597882) can0 2EB#590000FF
(1649441579.602815) can0 402#FD143FFFFFFFFFFF
(1649441579.638031) can0 214#2C1C3300143800
(1649441579.642383) can0 217#787B0FC020FD
(1649441579.643379) can0 1E1#0000FFFF00000000
(1649441579.644288) can0 208#1080651E1E002D
(1649441579.645309) can0 211#FFFFFFFFFFFFFFFF
(1649441579.647891) can0 2EB#590000FF
(1649441579.651976) can0 20B#0000
(1649441579.657998) can0 2A8#000000000000
(1649441579.662373) can0 286#0338C0000000
(1649441579.682529) can0 2CE#FFFF00000000C03F
(1649441579.692451) can0 211#FFFFFFFFFFFFFFFF
(1649441579.698145) can0 414#FD163FFFFFFFFFFF
(1649441579.698857) can0 2EB#590000FF
(1649441579.738029) can0 214#2C1C3300143800
(1649441579.742438) can0 217#787B0FC020FD
(1649441579.743434) can0 1E1#0000FFFF00000000
(1649441579.744342) can0 208#1080651E1E002D
(1649441579.745363) can0 211#FFFFFFFFFFFFFFFF
(1649441579.747923) can0 2EB#590000FF
(1649441579.752030) can0 20B#0000
(1649441579.757884) can0 2D9#80C226C426C0FF
(1649441579.758724) can0 2A8#000000000000
(1649441579.759320) can0 3E6#0B0D05
(1649441579.762391) can0 286#0338C0000000
(1649441579.779878) can0 416#FD3E3FFFFFFFFFFF
(1649441579.782627) can0 2CE#FFFF00000000C03F
(1649441579.792631) can0 211#FFFFFFFFFFFFFFFF
(1649441579.797919) can0 2EB#590000FF
(1649441579.838075) can0 214#2C1C3300143800
(1649441579.842548) can0 217#787B0FC020FD
(1649441579.843543) can0 1E1#0000FFFF00000000
(1649441579.844452) can0 208#1080651E1E002D
(1649441579.845473) can0 211#FFFFFFFFFFFFFFFF
(1649441579.847936) can0 2EB#590000FF
(1649441579.852149) can0 20B#0000
(1649441579.858042) can0 2A8#000000000000
(1649441579.862455) can0 286#0338C0000000
(1649441579.867169) can0 43E#FD023FFFFFFFFFFF
(1649441579.882572) can0 2CE#FFFF00000000C03F
(1649441579.892565) can0 211#FFFFFFFFFFFFFFFF
(1649441579.897937) can0 2EB#590000FF
(1649441579.938069) can0 214#2C1C3300143800
(1649441579.942742) can0 2DF#0E9203E80FA00A7A
(1649441579.943593) can0 142#FF0000000000
(1649441579.944607) can0 1E1#0000FFFF00000000
(1649441579.945435) can0 249#000000C00D08
(1649441579.946441) can0 1E7#7000000000000000
(1649441579.947297) can0 221#010000000000
(1649441579.948289) can0 2D3#010E180200000000
(1649441579.948961) can0 2EB#590000FF
(1649441579.949941) can0 1A5#3F00FFFFFF007800
(1649441579.950833) can0 208#1080651E1E002D
(1649441579.951665) can0 217#787B0FC020FD
(1649441579.952674) can0 2D6#0100000000000000
(1649441579.953248) can0 20B#0000
(1649441579.954281) can0 283#0000000000000000
(1649441579.955312) can0 211#FFFFFFFFFFFFFFFF
(1649441579.956280) can0 292#FFFFFF0000FFFF
(1649441579.957120) can0 2DA#61119BA0FFFF
(1649441579.957839) can0 2DD#05000000
(1649441579.958680) can0 2A8#000000000000
(1649441579.959659) can0 2DE#019B000000000000
(1649441579.962600) can0 2DB#E507401C00000105
(1649441579.963448) can0 286#0338C0000000
(1649441579.964480) can0 402#FD143FFFFFFFFFFF
(1649441579.972543) can0 348#0000000000000000
(1649441579.973186) can0 2D2#000300
(1649441579.982630) can0 2CE#FFFF00000000C03F
(1649441579.989901) can0 3D9#000A0A0A0A0AFF
(1649441579.992640) can0 211#FFFFFFFFFFFFFFFF
(1649441579.993575) can0 20E#930547C0FFFF0C
(1649441579.997961) can0 2EB#590000FF
(1649441579.999994) can0 3B3#00FFFFFF00FFFFFF
(1649441580.002497) can0 244#00000D0880
(1649441580.003432) can0 21D#4111297562E52E81
(1649441580.009964) can0 3B0#1D3000001D300000
(1649441580.012595) can0 21E#390014116B9E809E
(1649441580.019999) can0 392#0C00000000000000
(1649441580.022814) can0 21F#0100500000000040
(1649441580.029697) can0 2E9#00000000
(1649441580.032704) can0 25F#C17DA80E0000
(1649441580.038105) can0 214#2C1C3300143800
(1649441580.038584) can0 2E5#00
(1649441580.039248) can0 308#110000
(1649441580.040219) can0 293#1000000000FFFFFF
(1649441580.041058) can0 3A3#000000000000
(1649441580.042681) can0 217#787B0FC020FD
(1649441580.043681) can0 1E1#0000FFFF00000000
(1649441580.044575) can0 208#1080651E1E002D
(1649441580.045609) can0 211#FFFFFFFFFFFFFFFF
(1649441580.047976) can0 2EB#590000FF
(1649441580.049877) can0 291#1D0D0530000007
(1649441580.052218) can0 20B#0000
(1649441580.058195) can0 414#FD163FFFFFFFFFFF
(1649441580.059052) can0 2A8#000000000000
(1649441580.060020) can0 290#011A010F07000000
(1649441580.062572) can0 286#0338C0000000
(1649441580.067725) can0 2E1#00
(1649441580.077909) can0 2E3#000000
(1649441580.082724) can0 2CE#FFFF00000000C03F
(1649441580.088193) can0 21B#04000000009E0004
(1649441580.092758) can0 211#FFFFFFFFFFFFFFFF
(1649441580.097795) can0 270#0000
(1649441580.098491) can0 2EB#590000FF
(1649441580.107977) can0 2B0#02000000
(1649441580.118283) can0 2E7#001C000000000000
(1649441580.138111) can0 214#2C1C3300143800
(1649441580.140039) can0 416#FD3E3FFFFFFFFFFF
(1649441580.142716) can0 217#787B0FC020FD
(1649441580.143716) can0 1E1#0000FFFF00000000
(1649441580.144609) can0 208#1080651E1E002D
(1649441580.145643) can0 211#FFFFFFFFFFFFFFFF
(1649441580.148004) can0 2EB#590000FF
(1649441580.152339) can0 20B#0000
(1649441580.158102) can0 2A8#000000000000
(1649441580.162624) can0 286#0338C0000000
(1649441580.182770) can0 2CE#FFFF00000000C03F
(1649441580.192740) can0 211#FFFFFFFFFFFFFFFF
(1649441580.198002) can0 2EB#590000FF
(1649441580.227874) can0 43E#FD023FFFFFFFFFFF
(1649441580.238155) can0 214#2C1C3300143800
(1649441580.242813) can0 217#787B0FC020FD
(1649441580.243808) can0 1E1#0000FFFF00000000
(1649441580.244717) can0 208#1080651E1E002D
(1649441580.245737) can0 211#FFFFFFFFFFFFFFFF
(1649441580.248017) can0 2EB#590000FF
(1649441580.252326) can0 20B#0000
(1649441580.258123) can0 2A8#000000000000
(1649441580.262745) can0 286#0338C0000000
(1649441580.282806) can0 2CE#FFFF00000000C03F
(1649441580.292798) can0 211#FFFFFFFFFFFFFFFF
(1649441580.298021) can0 2EB#590000FF
(1649441580.323151) can0 402#FD143FFFFFFFFFFF
(1649441580.338149) can0 214#2C1C3300143800
(1649441580.342862) can0 217#787B0FC020FD
(1649441580.343858) can0 1E1#0000FFFF00000000
(1649441580.344782) can0 208#1080651E1E002D
(1649441580.345803) can0 211#FFFFFFFFFFFFFFFF
(1649441580.348042) can0 2EB#590000FF
(1649441580.352383) can0 20B#0000
(1649441580.358139) can0 2A8#000000000000
(1649441580.362705) can0 286#0338C0000000
(1649441580.382879) can0 2CE#FFFF00000000C03F
(1649441580.392940) can0 211#FFFFFFFFFFFFFFFF
(1649441580.398039) can0 2EB#590000FF
(1649441580.418271) can0 414#FD163FFFFFFFFFFF
(1649441580.438187) can0 214#2C1C3300143800
(1649441580.442961) can0 292#FFFFFF0000FFFF
(1649441580.443960) can0 1E1#0000FFFF00000000
(1649441580.444868) can0 208#1080651E1E002D
(1649441580.445689) can0 217#787B0FC020FD
(1649441580.446720) can0 211#FFFFFFFFFFFFFFFF
(1649441580.448056) can0 2EB#590000FF
(1649441580.452614) can0 20B#0000
(1649441580.458163) can0 2A8#000000000000
(1649441580.462768) can0 286#0338C0000000
(1649441580.472770) can0 348#0000000000000000
(1649441580.482940) can0 2CE#FFFF00000000C03F
(1649441580.492919) can0 211#FFFFFFFFFFFFFFFF
(1649441580.493852) can0 20E#930547C0FFFF0C
(1649441580.498061) can0 2EB#590000FF
(1649441580.500201) can0 416#FD3E3FFFFFFFFFFF
(1649441580.502854) can0 244#00000D0880
(1649441580.538185) can0 214#2C1C3300143800
(1649441580.538813) can0 308#110000
(1649441580.539685) can0 3A3#000000000000
(1649441580.542902) can0 217#787B0FC020FD
(1649441580.543902) can0 1E1#0000FFFF00000000
(1649441580.544797) can0 208#1080651E1E002D
(1649441580.545830) can0 211#FFFFFFFFFFFFFFFF
(1649441580.548077) can0 2EB#590000FF
(1649441580.552498) can0 20B#0000
(1649441580.558176) can0 2A8#000000000000
(1649441580.562927) can0 286#0338C0000000
(1649441580.567826) can0 2E1#00
(1649441580.578008) can0 2E3#000000
(1649441580.582977) can0 2CE#FFFF00000000C03F
(1649441580.588579) can0 43E#FD023FFFFFFFFFFF
(1649441580.592975) can0 211#FFFFFFFFFFFFFFFF
(1649441580.598077) can0 2EB#590000FF
(1649441580.638233) can0 214#2C1C3300143800
(1649441580.642962) can0 217#787B0FC020FD
(1649441580.643958) can0 1E1#0000FFFF00000000
(1649441580.644853) can0 208#1080651E1E002D
(1649441580.645886) can0 211#FFFFFFFFFFFFFFFF
(1649441580.648094) can0 2EB#590000FF
(1649441580.652563) can0 20B#0000
(1649441580.658200) can0 2A8#000000000000
(1649441580.662935) can0 286#0338C0000000
(1649441580.683043) can0 2CE#FFFF00000000C03F
(1649441580.684071) can0 402#FD143FFFFFFFFFFF
(1649441580.693142) can0 211#FFFFFFFFFFFFFFFF
(1649441580.698098) can0 2EB#590000FF
(1649441580.738230) can0 214#2C1C3300143800
(1649441580.743055) can0 217#787B0FC020FD
(1649441580.744051) can0 1E1#0000FFFF00000000
(1649441580.744947) can0 208#1080651E1E002D
(1649441580.745980) can0 211#FFFFFFFFFFFFFFFF
(1649441580.748123) can0 2EB#590000FF
(1649441580.752656) can0 20B#0000
(1649441580.758222) can0 2A8#000000000000
(1649441580.759077) can0 2D9#80C226C426C0FF
(1649441580.759703) can0 3E6#0B0D06
(1649441580.762936) can0 286#0338C0000000
(1649441580.778364) can0 414#FD163FFFFFFFFFFF
(1649441580.783126) can0 2CE#FFFF00000000C03F
(1649441580.793085) can0 211#FFFFFFFFFFFFFFFF
(1649441580.798118) can0 2EB#590000FF
(1649441580.838274) can0 214#2C1C3300143800
(1649441580.843074) can0 217#787B0FC020FD
(1649441580.844070) can0 1E1#0000FFFF00000000
(1649441580.844966) can0 208#1080651E1E002D
(1649441580.846000) can0 211#FFFFFFFFFFFFFFFF
(1649441580.848135) can0 2EB#590000FF
(1649441580.852668) can0 20B#0000
(1649441580.858241) can0 2A8#000000000000
(1649441580.860357) can0 416#FD3E3FFFFFFFFFFF
(1649441580.863057) can0 286#0338C0000000
(1649441580.883157) can0 2CE#FFFF00000000C03F
(1649441580.893198) can0 211#FFFFFFFFFFFFFFFF
(1649441580.898139) can0 2EB#590000FF
(1649441580.938275) can0 214#2C1C3300143800
(1649441580.943296) can0 292#FFFFFF0000FFFF
(1649441580.944148) can0 142#FF0000000000
(1649441580.945146) can0 1E1#0000FFFF00000000
(1649441580.945988) can0 249#000000C00D08
(1649441580.946995) can0 1E7#7000000000000000
(1649441580.947995) can0 1A5#3F00FFFFFF007800
(1649441580.948667) can0 2EB#590000FF
(1649441580.949532) can0 208#1080651E1E002D
(1649441580.950531) can0 43E#FD023FFFFFFFFFFF
(1649441580.951330) can0 217#787B0FC020FD
(1649441580.951857) can0 3E9#9E01
(1649441580.952852) can0 211#FFFFFFFFFFFFFFFF
(1649441580.953426) can0 20B#0000
(1649441580.954457) can0 283#0000000000000000
(1649441580.958258) can0 2A8#000000000000
(1649441580.963079) can0 286#0338C0000000
(1649441580.973066) can0 348#0000000000000000
(1649441580.973709) can0 2D2#000300
(1649441580.983243) can0 2CE#FFFF00000000C03F
(1649441580.990342) can0 3D9#000A0A0A0A0AFF
(1649441580.993299) can0 211#FFFFFFFFFFFFFFFF
(1649441580.994234) can0 20E#930547C0FFFF0C
(1649441580.998156) can0 2EB#590000FF
(1649441581.000437) can0 3B3#00FFFFFF00FFFFFF
(1649441581.003069) can0 244#00000D0880
(1649441581.010413) can0 3B0#1D3000001D300000
(1649441581.020447) can0 392#0C00000000000000
(1649441581.030144) can0 2E9#00000000
(1649441581.038309) can0 214#2C1C3300143800
(1649441581.038941) can0 308#110000
(1649441581.039814) can0 3A3#000000000000
(1649441581.040814) can0 293#1000000000FFFFFF
(1649441581.043254) can0 217#787B0FC020FD
(1649441581.044254) can0 1E1#0000FFFF00000000
(1649441581.045150) can0 208#1080651E1E002D
(1649441581.046183) can0 211#FFFFFFFFFFFFFFFF
(1649441581.047214) can0 402#FD143FFFFFFFFFFF
(1649441581.048229) can0 2EB#590000FF
(1649441581.050322) can0 291#1D0D0530000007
(1649441581.052839) can0 20B#0000
(1649441581.058280) can0 2A8#000000000000
(1649441581.060438) can0 290#011A010F07000000
(1649441581.063177) can0 286#0338C0000000
(1649441581.067929) can0 2E1#00
(1649441581.078111) can0 2E3#000000
(1649441581.083425) can0 2CE#FFFF00000000C03F
(1649441581.088398) can0 21B#04000000009E0004
(1649441581.093259) can0 211#FFFFFFFFFFFFFFFF
(1649441581.098000) can0 270#0000
(1649441581.098697) can0 2EB#590000FF
(1649441581.108174) can0 2B0#02000000
(1649441581.118480) can0 2E7#001C000000000000
(1649441581.138404) can0 414#FD16BFFFFFFFFFFF
(1649441581.139282) can0 214#2C1C3300143800
(1649441581.143249) can0 217#787B0FC020FD
(1649441581.144248) can0 1E1#0000FFFF00000000
(1649441581.145146) can0 208#1080651E1E002D
(1649441581.146178) can0 211#FFFFFFFFFFFFFFFF
(1649441581.148201) can0 2EB#590000FF
(1649441581.152853) can0 20B#0000
(1649441581.158299) can0 2A8#000000000000
(1649441581.163264) can0 286#0338C0000000
(1649441581.183350) can0 2CE#FFFF00000000C03F
(1649441581.193329) can0 211#FFFFFFFFFFFFFFFF
(1649441581.198198) can0 2EB#590000FF
(1649441581.220521) can0 416#FD3EBFFFFFFFFFFF
(1649441581.238348) can0 214#2C1C3300143800
(1649441581.243333) can0 217#787B0FC020FD
(1649441581.244330) can0 1E1#0000FFFF00000000
(1649441581.245225) can0 208#1080651E1E002D
(1649441581.246258) can0 211#FFFFFFFFFFFFFFFF
(1649441581.248220) can0 2EB#590000FF
(1649441581.252911) can0 20B#0000
(1649441581.258323) can0 2A8#000000000000
(1649441581.263248) can0 286#0338C0000000
(1649441581.283423) can0 2CE#FFFF00000000C03F
(1649441581.293494) can0 211#FFFFFFFFFFFFFFFF
(1649441581.298215) can0 2EB#590000FF
(1649441581.309982) can0 43E#FD02BFFFFFFFFFFF
(1649441581.338347) can0 214#2C1C3300143800
(1649441581.343420) can0 217#787B0FC020FD
(1649441581.344417) can0 1E1#0000FFFF00000000
(1649441581.345312) can0 208#1080651E1E002D
(1649441581.346345) can0 211#FFFFFFFFFFFFFFFF
(1649441581.348241) can0 2EB#590000FF
(1649441581.353045) can0 20B#0000
(1649441581.358340) can0 2A8#000000000000
(1649441581.363325) can0 286#0338C0000000
(1649441581.383471) can0 2CE#FFFF00000000C03F
(1649441581.393441) can0 211#FFFFFFFFFFFFFFFF
(1649441581.398239) can0 2EB#590000FF
(1649441581.403868) can0 402#FD143FFFFFFFFFFF
(1649441581.438387) can0 214#2C1C3300143800
(1649441581.443641) can0 292#FFFFFF0000FFFF
(1649441581.444639) can0 1E1#0000FFFF00000000
(1649441581.445549) can0 208#1080651E1E002D
(1649441581.446369) can0 217#787B0FC020FD
(1649441581.447400) can0 211#FFFFFFFFFFFFFFFF
(1649441581.448351) can0 2EB#590000FF
(1649441581.453021) can0 20B#0000
(1649441581.458362) can0 2A8#000000000000
(1649441581.463446) can0 286#0338C0000000
(1649441581.473410) can0 348#0FFF0FFF00000000
(1649441581.483525) can0 2CE#FFFF00000000C03F
(1649441581.493503) can0 211#FFFFFFFFFFFFFFFF
(1649441581.494435) can0 20E#930547C0FFFF0C
(1649441581.498493) can0 414#FD16BFFFFFFFFFFF
(1649441581.499233) can0 2EB#590000FF
(1649441581.503446) can0 244#00000D0880
(1649441581.538386) can0 214#2C1C3300143800
(1649441581.539012) can0 308#110000
(1649441581.539885) can0 3A3#000000000000
(1649441581.543509) can0 217#787B0FC020FD
(1649441581.544509) can0 1E1#0000FFFF00000000
(1649441581.545404) can0 208#1080651E1E002D
(1649441581.546438) can0 211#FFFFFFFFFFFFFFFF
(1649441581.548279) can0 2EB#590000FF
(1649441581.553139) can0 20B#0000
(1649441581.558376) can0 2A8#000000000000
(1649441581.563405) can0 286#0338C0000000
(1649441581.568018) can0 2E1#00
(1649441581.578204) can0 2E3#000000
(1649441581.580681) can0 416#FD3EBFFFFFFFFFFF
(1649441581.583685) can0 2CE#FFFF00000000C03F
(1649441581.593611) can0 211#FFFFFFFFFFFFFFFF
(1649441581.598281) can0 2EB#590000FF
(1649441581.638429) can0 214#2C1C3300143800
(1649441581.643566) can0 217#787B0FC020FD
(1649441581.644561) can0 1E1#0000FFFF00000000
(1649441581.645458) can0 208#1080651E1E002D
(1649441581.646490) can0 211#FFFFFFFFFFFFFFFF
(1649441581.648300) can0 2EB#590000FF
(1649441581.653183) can0 20B#0000
(1649441581.658397) can0 2A8#000000000000
(1649441581.663553) can0 286#0338C0000000
(1649441581.670694) can0 43E#FD02BFFFFFFFFFFF
(1649441581.683659) can0 2CE#FFFF00000000C03F
(1649441581.693621) can0 211#FFFFFFFFFFFFFFFF
(1649441581.698299) can0 2EB#590000FF
(1649441581.738430) can0 214#2C1C3300143800
(1649441581.743631) can0 217#787B0FC020FD
(1649441581.744627) can0 1E1#0000FFFF00000000
(1649441581.745523) can0 208#1080651E1E002D
(1649441581.746556) can0 211#FFFFFFFFFFFFFFFF
(1649441581.748323) can0 2EB#590000FF
(1649441581.753200) can0 20B#0000
(1649441581.758425) can0 2A8#000000000000
(1649441581.759279) can0 2D9#80C226C426C0FF
(1649441581.759905) can0 3E6#0B0D07
(1649441581.763617) can0 286#0338C0000000
(1649441581.764649) can0 402#FD143FFFFFFFFFFF
(1649441581.783701) can0 2CE#FFFF00000000C03F
(1649441581.793682) can0 211#FFFFFFFFFFFFFFFF
(1649441581.798323) can0 2EB#590000FF
(1649441581.838472) can0 214#2C1C3300143800
(1649441581.843696) can0 217#787B0FC020FD
(1649441581.844693) can0 1E1#0000FFFF00000000
(1649441581.845591) can0 208#1080651E1E002D
(1649441581.846621) can0 211#FFFFFFFFFFFFFFFF
(1649441581.848341) can0 2EB#590000FF
(1649441581.853255) can0 20B#0000
(1649441581.858551) can0 414#FD16BFFFFFFFFFFF
(1649441581.859407) can0 2A8#000000000000
(1649441581.863631) can0 286#0338C0000000
(1649441581.883871) can0 2CE#FFFF00000000C03F
(1649441581.893789) can0 211#FFFFFFFFFFFFFFFF
(1649441581.898346) can0 2EB#590000FF
(1649441581.938473) can0 214#2C1C3300143800
(1649441581.940846) can0 416#FD3EBFFFFFFFFFFF
(1649441581.943995) can0 2DE#019B000000000000
(1649441581.944851) can0 142#FF0000000000
(1649441581.945862) can0 1E1#0000FFFF00000000
(1649441581.946690) can0 249#000000C00D08
(1649441581.947697) can0 1E7#7000000000000000
(1649441581.948552) can0 221#010000000000
(1649441581.949258) can0 2EB#590000FF
(1649441581.950193) can0 2D3#010E180200000000
(1649441581.951192) can0 1A5#3F00FFFFFF007800
(1649441581.952090) can0 208#1080651E1E002D
(1649441581.952920) can0 217#787B0FC020FD
(1649441581.953928) can0 2D6#0100000000000000
(1649441581.954504) can0 20B#0000
(1649441581.955535) can0 283#0000000000000000
(1649441581.956567) can0 211#FFFFFFFFFFFFFFFF
(1649441581.957535) can0 292#FFFFFF0000FFFF
(1649441581.958254) can0 2DD#05000000
(1649441581.959094) can0 2A8#000000000000
(1649441581.963753) can0 2DB#E507401C00000105
(1649441581.964600) can0 286#0338C0000000
(1649441581.973619) can0 348#0FFF0FFF00000000
(1649441581.974266) can0 2D2#000300
(1649441581.983809) can0 2CE#FFFF00000000C03F
(1649441581.990795) can0 3D9#000A0A0A0A0AFF
(1649441581.993914) can0 211#FFFFFFFFFFFFFFFF
(1649441581.994847) can0 20E#930547C0FFFF0C
(1649441581.998359) can0 2EB#590000FF
(1649441582.000893) can0 3B3#00FFFFFF00FFFFFF
(1649441582.003737) can0 244#00000D0880
(1649441582.004673) can0 21D#4111297562E52E81
(1649441582.010865) can0 3B0#1D3000001D300000
(1649441582.013748) can0 21E#390014116B9E809E
(1649441582.020894) can0 392#0C00000000000000
(1649441582.023990) can0 21F#0100500000000040
(1649441582.030588) can0 2E9#00000000
(1649441582.031575) can0 43E#FD02BFFFFFFFFFFF
(1649441582.033608) can0 25F#C17DA80E0000
(1649441582.038512) can0 214#2C1C3300143800
(1649441582.038992) can0 2E5#00
(1649441582.039626) can0 308#110000
(1649441582.040496) can0 3A3#000000000000
(1649441582.041497) can0 293#1000000000FFFFFF
(1649441582.043840) can0 217#787B0FC020FD
(1649441582.044841) can0 1E1#0000FFFF00000000
(1649441582.045737) can0 208#1080651E1E002D
(1649441582.046770) can0 211#FFFFFFFFFFFFFFFF
(1649441582.048377) can0 2EB#590000FF
(1649441582.050766) can0 291#1D0D0530000007
(1649441582.053370) can0 20B#0000
(1649441582.058483) can0 2A8#000000000000
(1649441582.060888) can0 290#011A010F07000000
(1649441582.063820) can0 286#0338C0000000
(1649441582.068133) can0 2E1#00
(1649441582.078306) can0 2E3#000000
(1649441582.083885) can0 2CE#FFFF00000000C03F
(1649441582.088601) can0 21B#04000000009E0004
(1649441582.093846) can0 211#FFFFFFFFFFFFFFFF
(1649441582.098203) can0 270#0000
(1649441582.098898) can0 2EB#590000FF
(1649441582.108376) can0 2B0#02000000
(1649441582.118690) can0 2E7#001C000000000000
(1649441582.124356) can0 402#FD143FFFFFFFFFFF
(1649441582.138510) can0 214#2C1C3300143800
(1649441582.143872) can0 217#787B0FC020FD
(1649441582.144867) can0 1E1#0000FFFF00000000
(1649441582.145762) can0 208#1080651E1E002D
(1649441582.146809) can0 211#FFFFFFFFFFFFFFFF
(1649441582.148404) can0 2EB#590000FF
(1649441582.153433) can0 20B#0000
(1649441582.158505) can0 2A8#000000000000
(1649441582.163812) can0 286#0338C0000000
(1649441582.184043) can0 2CE#FFFF00000000C03F
(1649441582.194021) can0 211#FFFFFFFFFFFFFFFF
(1649441582.198402) can0 2EB#590000FF
(1649441582.218627) can0 414#FD16BFFFFFFFFFFF
(1649441582.238550) can0 214#2C1C3300143800
(1649441582.243959) can0 217#787B0FC020FD
(1649441582.244954) can0 1E1#0000FFFF00000000
(1649441582.245851) can0 208#1080651E1E002D
(1649441582.246895) can0 211#FFFFFFFFFFFFFFFF
(1649441582.248420) can0 2EB#590000FF
(1649441582.253561) can0 20B#0000
(1649441582.258525) can0 2A8#000000000000
(1649441582.263867) can0 286#0338C0000000
(1649441582.284003) can0 2CE#FFFF00000000C03F
(1649441582.293969) can0 211#FFFFFFFFFFFFFFFF
(1649441582.298417) can0 2EB#590000FF
(1649441582.301006) can0 416#FD3EBFFFFFFFFFFF
(1649441582.338549) can0 214#2C1C3300143800
(1649441582.344054) can0 217#787B0FC020FD
(1649441582.345050) can0 1E1#0000FFFF00000000
(1649441582.345945) can0 208#1080651E1E002D
(1649441582.346989) can0 211#FFFFFFFFFFFFFFFF
(1649441582.348443) can0 2EB#590000FF
(1649441582.353560) can0 20B#0000
(1649441582.358539) can0 2A8#000000000000
(1649441582.363977) can0 286#0338C0000000
(1649441582.384055) can0 2CE#FFFF00000000C03F
(1649441582.392108) can0 43E#FD02BFFFFFFFFFFF
(1649441582.394042) can0 211#FFFFFFFFFFFFFFFF
(1649441582.398441) can0 2EB#590000FF
(1649441582.438590) can0 214#2C1C3300143800
(1649441582.444127) can0 292#FFFFFF0000FFFF
(1649441582.445122) can0 1E1#0000FFFF00000000
(1649441582.446018) can0 208#1080651E1E002D
(1649441582.446850) can0 217#787B0FC020FD
(1649441582.447882) can0 211#FFFFFFFFFFFFFFFF
(1649441582.448554) can0 2EB#590000FF
(1649441582.452404) can0 3E9#9E01
(1649441582.453679) can0 20B#0000
(1649441582.458566) can0 2A8#000000000000
(1649441582.463958) can0 286#0338C0000000
(1649441582.473919) can0 348#0FFF0FFF00000000
(1649441582.484129) can0 2CE#FFFF00000000C03F
(1649441582.485163) can0 402#FD143FFFFFFFFFFF
(1649441582.494167) can0 211#FFFFFFFFFFFFFFFF
(1649441582.495098) can0 20E#930547C0FFFF0C
(1649441582.498459) can0 2EB#590000FF
(1649441582.503989) can0 244#00000D0880
(1649441582.538589) can0 214#2C1C3300143800
(1649441582.539250) can0 308#110000
(1649441582.540092) can0 3A3#000000000000
(1649441582.544133) can0 217#787B0FC020FD
(1649441582.545133) can0 1E1#0000FFFF00000000
(1649441582.546029) can0 208#1080651E1E002D
(1649441582.547075) can0 211#FFFFFFFFFFFFFFFF
(1649441582.548486) can0 2EB#590000FF
(1649441582.553795) can0 20B#0000
(1649441582.558585) can0 2A8#000000000000
(1649441582.564039) can0 286#0338C0000000
(1649441582.568217) can0 2E1#00
(1649441582.578720) can0 414#FD16BFFFFFFFFFFF
(1649441582.579349) can0 2E3#000000
(1649441582.584173) can0 2CE#FFFF00000000C03F
(1649441582.594148) can0 211#FFFFFFFFFFFFFFFF
(1649441582.598480) can0 2EB#590000FF
(1649441582.638629) can0 214#2C1C3300143800
(1649441582.644158) can0 217#787B0FC020FD
(1649441582.645153) can0 1E1#0000FFFF00000000
(1649441582.646050) can0 208#1080651E1E002D
(1649441582.647079) can0 211#FFFFFFFFFFFFFFFF
(1649441582.648498) can0 2EB#590000FF
(1649441582.653784) can0 20B#0000
(1649441582.658604) can0 2A8#000000000000
(1649441582.661169) can0 416#FD3EBFFFFFFFFFFF
(1649441582.664173) can0 286#0338C0000000
(1649441582.684215) can0 2CE#FFFF00000000C03F
(1649441582.694226) can0 211#FFFFFFFFFFFFFFFF
(1649441582.698503) can0 2EB#590000FF
(1649441582.738627) can0 214#2C1C3300143800
(1649441582.744220) can0 217#787B0FC020FD
(1649441582.745215) can0 1E1#0000FFFF00000000
(1649441582.746112) can0 208#1080651E1E002D
(1649441582.747140) can0 211#FFFFFFFFFFFFFFFF
(1649441582.748520) can0 2EB#590000FF
(1649441582.752810) can0 43E#FD02BFFFFFFFFFFF
(1649441582.753813) can0 20B#0000
(1649441582.758622) can0 2A8#000000000000
(1649441582.759480) can0 2D9#80C226C426C0FF
(1649441582.760087) can0 3E6#0B0D08
(1649441582.764207) can0 286#0338C0000000
(1649441582.784282) can0 2CE#FFFF00000000C03F
(1649441582.794336) can0 211#FFFFFFFFFFFFFFFF
(1649441582.798521) can0 2EB#590000FF
(1649441582.838670) can0 214#2C1C3300143800
(1649441582.844262) can0 217#787B0FC020FD
(1649441582.845258) can0 1E1#0000FFFF00000000
(1649441582.846154) can0 208#1080651E1E002D
(1649441582.847183) can0 211#FFFFFFFFFFFFFFFF
(1649441582.848217) can0 402#FD143FFFFFFFFFFF
(1649441582.848889) can0 2EB#590000FF
(1649441582.853920) can0 20B#0000
(1649441582.858644) can0 2A8#000000000000
(1649441582.864170) can0 286#0338C0000000
(1649441582.884350) can0 2CE#FFFF00000000C03F
(1649441582.894339) can0 211#FFFFFFFFFFFFFFFF
(1649441582.898543) can0 2EB#590000FF
(1649441582.938671) can0 214#2C1C3300143800
(1649441582.944453) can0 292#FFFFFF0000FFFF
(1649441582.945305) can0 142#FF0000000000
(1649441582.946304) can0 1E1#0000FFFF00000000
(1649441582.947145) can0 249#000000C00D08
(1649441582.948153) can0 1E7#7000000000000000
(1649441582.949137) can0 414#FD16BFFFFFFFFFFF
(1649441582.950112) can0 1A5#3F00FFFFFF007800
(1649441582.950784) can0 2EB#590000FF
(1649441582.951648) can0 208#1080651E1E002D
(1649441582.952480) can0 217#787B0FC020FD
(1649441582.953511) can0 211#FFFFFFFFFFFFFFFF
(1649441582.954089) can0 20B#0000
(1649441582.955120) can0 283#0000000000000000
(1649441582.958661) can0 2A8#000000000000
(1649441582.964328) can0 286#0338C0000000
(1649441582.974355) can0 348#0FFF0FFF00000000
(1649441582.974999) can0 2D2#000300
(1649441582.984470) can0 2CE#FFFF00000000C03F
(1649441582.991236) can0 3D9#000A0A0A0A0AFF
(1649441582.994380) can0 211#FFFFFFFFFFFFFFFF
(1649441582.995315) can0 20E#930547C0FFFF0C
(1649441582.998564) can0 2EB#590000FF
(1649441583.001337) can0 3B3#00FFFFFF00FFFFFF
(1649441583.004198) can0 244#00000D0880
(1649441583.011309) can0 3B0#1D3000001D300000
(1649441583.021342) can0 392#0C00000000000000
(1649441583.031040) can0 2E9#00000000
(1649441583.038710) can0 214#2C1C3300143800
(1649441583.039341) can0 308#110000
(1649441583.040215) can0 3A3#000000000000
(1649441583.041343) can0 416#FD3EBFFFFFFFFFFF
(1649441583.044392) can0 217#787B0FC020FD
(1649441583.045391) can0 1E1#0000FFFF00000000
(1649441583.046287) can0 208#1080651E1E002D
(1649441583.047330) can0 211#FFFFFFFFFFFFFFFF
(1649441583.048600) can0 2EB#590000FF
(1649441583.051221) can0 291#1D0D0530000007
(1649441583.053960) can0 20B#0000
(1649441583.058681) can0 2A8#000000000000
(1649441583.061333) can0 290#011A010F07000000
(1649441583.064323) can0 286#0338C0000000
(1649441583.068331) can0 2E1#00
(1649441583.071375) can0 293#1000000000FFFFFF
(1649441583.078509) can0 2E3#000000
(1649441583.084458) can0 2CE#FFFF00000000C03F
(1649441583.088799) can0 21B#04000000009E0004
(1649441583.094573) can0 211#FFFFFFFFFFFFFFFF
(1649441583.098402) can0 270#0000
(1649441583.099096) can0 2EB#590000FF
(1649441583.108580) can0 2B0#02000000
(1649441583.118890) can0 2E7#001C000000000000
(1649441583.133555) can0 43E#FD02BFFFFFFFFFFF
(1649441583.138704) can0 214#2C1C3300143800
(1649441583.144476) can0 217#787B0FC020FD
(1649441583.145472) can0 1E1#0000FFFF00000000
(1649441583.146369) can0 208#1080651E1E002D
(1649441583.147413) can0 211#FFFFFFFFFFFFFFFF
(1649441583.148689) can0 2EB#590000FF
(1649441583.154086) can0 20B#0000
(1649441583.158699) can0 2A8#000000000000
(1649441583.164344) can0 286#0338C0000000
(1649441583.184646) can0 2CE#FFFF00000000C03F
(1649441583.194497) can0 211#FFFFFFFFFFFFFFFF
(1649441583.198599) can0 2EB#590000FF
(1649441583.224850) can0 402#FD143FFFFFFFFFFF
(1649441583.238748) can0 214#2C1C3300143800
(1649441583.244486) can0 217#787B0FC020FD
(1649441583.245483) can0 1E1#0000FFFF00000000
(1649441583.246378) can0 208#1080651E1E002D
(1649441583.247410) can0 211#FFFFFFFFFFFFFFFF
(1649441583.248691) can0 2EB#590000FF
(1649441583.254096) can0 20B#0000
(1649441583.258717) can0 2A8#000000000000
(1649441583.264474) can0 286#0338C0000000
(1649441583.284585) can0 2CE#FFFF00000000C03F
(1649441583.294561) can0 211#FFFFFFFFFFFFFFFF
(1649441583.298624) can0 2EB#590000FF
(1649441583.318849) can0 414#FD16BFFFFFFFFFFF
(1649441583.338749) can0 214#2C1C3300143800
(1649441583.344550) can0 217#787B0FC020FD
(1649441583.345546) can0 1E1#0000FFFF00000000
(1649441583.346441) can0 208#1080651E1E002D
(1649441583.347474) can0 211#FFFFFFFFFFFFFFFF
(1649441583.348762) can0 2EB#590000FF
(1649441583.354143) can0 20B#0000
(1649441583.358740) can0 2A8#000000000000
(1649441583.364488) can0 286#0338C0000000
(1649441583.384657) can0 2CE#FFFF00000000C03F
(1649441583.394747) can0 211#FFFFFFFFFFFFFFFF
(1649441583.398639) can0 2EB#590000FF
(1649441583.401492) can0 416#FD3EBFFFFFFFFFFF
(1649441583.438795) can0 214#2C1C3300143800
(1649441583.444789) can0 292#FFFFFF0000FFFF
(1649441583.445785) can0 1E1#0000FFFF00000000
(1649441583.446681) can0 208#1080651E1E002D
(1649441583.447513) can0 217#787B0FC020FD
(1649441583.448545) can0 211#FFFFFFFFFFFFFFFF
(1649441583.449256) can0 2EB#590000FF
(1649441583.454259) can0 20B#0000
(1649441583.458763) can0 2A8#000000000000
(1649441583.464585) can0 286#0338C0000000
(1649441583.474523) can0 348#0FFF0FFF00000000
(1649441583.484750) can0 2CE#FFFF00000000C03F
(1649441583.494266) can0 43E#FD02BFFFFFFFFFFF
(1649441583.495254) can0 211#FFFFFFFFFFFFFFFF
(1649441583.496190) can0 20E#930547C0FFFF0C
(1649441583.498662) can0 2EB#590000FF
(1649441583.504585) can0 244#00000D0880
(1649441583.538787) can0 214#2C1C3300143800
(1649441583.539416) can0 308#110000
(1649441583.540286) can0 3A3#000000000000
(1649441583.544728) can0 217#787B0FC020FD
(1649441583.545727) can0 1E1#0000FFFF00000000
(1649441583.546623) can0 208#1080651E1E002D
(1649441583.547655) can0 211#FFFFFFFFFFFFFFFF
(1649441583.548800) can0 2EB#590000FF
(1649441583.554265) can0 20B#0000
(1649441583.558785) can0 2A8#000000000000
(1649441583.564678) can0 286#0338C0000000
(1649441583.568428) can0 2E1#00
(1649441583.578608) can0 2E3#000000
(1649441583.584771) can0 2CE#FFFF00000000C03F
(1649441583.585798) can0 402#FD143FFFFFFFFFFF
(1649441583.594748) can0 211#FFFFFFFFFFFFFFFF
(1649441583.598681) can0 2EB#590000FF
(1649441583.638830) can0 214#2C1C3300143800
(1649441583.644799) can0 217#787B0FC020FD
(1649441583.645795) can0 1E1#0000FFFF00000000
(1649441583.646691) can0 208#1080651E1E002D
(1649441583.647723) can0 211#FFFFFFFFFFFFFFFF
(1649441583.648811) can0 2EB#590000FF
(1649441583.654321) can0 20B#0000
(1649441583.658805) can0 2A8#000000000000
(1649441583.664683) can0 286#0338C0000000
(1649441583.678941) can0 414#FD16BFFFFFFFFFFF
(1649441583.684919) can0 2CE#FFFF00000000C03F
(1649441583.694865) can0 211#FFFFFFFFFFFFFFFF
(1649441583.698703) can0 2EB#590000FF
(1649441583.738826) can0 214#2C1C3300143800
(1649441583.744835) can0 217#787B0FC020FD
(1649441583.745832) can0 1E1#0000FFFF00000000
(1649441583.746727) can0 208#1080651E1E002D
(1649441583.747759) can0 211#FFFFFFFFFFFFFFFF
(1649441583.748840) can0 2EB#590000FF
(1649441583.754501) can0 20B#0000
(1649441583.758818) can0 2A8#000000000000
(1649441583.759675) can0 2D9#80C226C426C0FF
(1649441583.760289) can0 3E6#0B0D09
(1649441583.761650) can0 416#FD3EBFFFFFFFFFFF
(1649441583.764763) can0 286#0338C0000000
(1649441583.784932) can0 2CE#FFFF00000000C03F
(1649441583.794861) can0 211#FFFFFFFFFFFFFFFF
(1649441583.798724) can0 2EB#590000FF
(1649441583.838871) can0 214#2C1C3300143800
(1649441583.844904) can0 217#787B0FC020FD
(1649441583.845902) can0 1E1#0000FFFF00000000
(1649441583.846797) can0 208#1080651E1E002D
(1649441583.847829) can0 211#FFFFFFFFFFFFFFFF
(1649441583.848853) can0 2EB#590000FF
(1649441583.854433) can0 20B#0000
(1649441583.855423) can0 43E#FD02BFFFFFFFFFFF
(1649441583.858839) can0 2A8#000000000000
(1649441583.864922) can0 286#0338C0000000
(1649441583.884948) can0 2CE#FFFF00000000C03F
(1649441583.894909) can0 211#FFFFFFFFFFFFFFFF
(1649441583.898738) can0 2EB#590000FF
(1649441583.938872) can0 214#2C1C3300143800
(1649441583.945119) can0 2DF#0E9203E80FA00A7A
(1649441583.945971) can0 142#FF0000000000
(1649441583.946971) can0 1E1#0000FFFF00000000
(1649441583.947811) can0 249#000000C00D08
(1649441583.948820) can0 1E7#7000000000000000
(1649441583.949492) can0 2EB#590000FF
(1649441583.950324) can0 221#010000000000
(1649441583.951315) can0 2D3#010E180200000000
(1649441583.952315) can0 1A5#3F00FFFFFF007800
(1649441583.953211) can0 208#1080651E1E002D
(1649441583.954042) can0 217#787B0FC020FD
(1649441583.955051) can0 2D6#0100000000000000
(1649441583.955626) can0 20B#0000
(1649441583.956658) can0 283#0000000000000000
(1649441583.957690) can0 211#FFFFFFFFFFFFFFFF
(1649441583.958658) can0 292#FFFFFF0000FFFF
(1649441583.959502) can0 2A8#000000000000
(1649441583.960298) can0 2DA#61119BA0FFFF
(1649441583.960826) can0 3E9#9E01
(1649441583.961497) can0 2DD#05000000
(1649441583.962521) can0 2DE#019B000000000000
(1649441583.963554) can0 402#FD143FFFFFFFFFFF
(1649441583.965033) can0 2DB#E507401C00000105
(1649441583.965881) can0 286#0338C0000000
(1649441583.974847) can0 348#0FFF0FFF00000000
(1649441583.975492) can0 2D2#000300
(1649441583.985074) can0 2CE#FFFF00000000C03F
(1649441583.991683) can0 3D9#000A0A0A0A0AFF
(1649441583.995065) can0 211#FFFFFFFFFFFFFFFF
(1649441583.996001) can0 20E#930547C0FFFF0C
(1649441583.998761) can0 2EB#590000FF
(1649441584.001783) can0 3B3#00FFFFFF00FFFFFF
(1649441584.004851) can0 244#00000D0880
(1649441584.005786) can0 21D#4111297562E52E81
(1649441584.011748) can0 3B0#1D3000001D300000
(1649441584.014869) can0 21E#390014116B9E809E
(1649441584.021786) can0 392#0C00000000000000
(1649441584.025160) can0 21F#0100500000000040
(1649441584.031484) can0 2E9#00000000
(1649441584.034746) can0 25F#C17DA80E0000
(1649441584.038907) can0 214#2C1C3300143800
(1649441584.039388) can0 2E5#00
(1649441584.040019) can0 308#110000
(1649441584.040890) can0 3A3#000000000000
(1649441584.041890) can0 293#1000000000FFFFFF
(1649441584.045003) can0 217#787B0FC020FD
(1649441584.046003) can0 1E1#0000FFFF00000000
(1649441584.046899) can0 208#1080651E1E002D
(1649441584.047930) can0 211#FFFFFFFFFFFFFFFF
(1649441584.048874) can0 2EB#590000FF
(1649441584.051663) can0 291#1D0D0530000007
(1649441584.054605) can0 20B#0000
(1649441584.058989) can0 414#FD16BFFFFFFFFFFF
(1649441584.059846) can0 2A8#000000000000
(1649441584.061773) can0 290#011A010F07000000
(1649441584.064910) can0 286#0338C0000000
(1649441584.068526) can0 2E1#00
(1649441584.078708) can0 2E3#000000
(1649441584.085141) can0 2CE#FFFF00000000C03F
(1649441584.088994) can0 21B#04000000009E0004
(1649441584.095024) can0 211#FFFFFFFFFFFFFFFF
(1649441584.098597) can0 270#0000
(1649441584.099294) can0 2EB#590000FF
(1649441584.108774) can0 2B0#02000000
(1649441584.119083) can0 2E7#001C000000000000
(1649441584.138913) can0 214#2C1C3300143800
(1649441584.141825) can0 416#FD3EBFFFFFFFFFFF
(1649441584.145037) can0 217#787B0FC020FD
(1649441584.146038) can0 1E1#0000FFFF00000000
(1649441584.146934) can0 208#1080651E1E002D
(1649441584.147965) can0 211#FFFFFFFFFFFFFFFF
(1649441584.148918) can0 2EB#590000FF
(1649441584.154619) can0 20B#0000
(1649441584.158904) can0 2A8#000000000000
(1649441584.165053) can0 286#0338C0000000
(1649441584.185156) can0 2CE#FFFF00000000C03F
(1649441584.195166) can0 211#FFFFFFFFFFFFFFFF
(1649441584.198804) can0 2EB#590000FF
(1649441584.235712) can0 43E#FD02BFFFFFFFFFFF
(1649441584.238949) can0 214#2C1C3300143800
(1649441584.245139) can0 217#787B0FC020FD
(1649441584.246135) can0 1E1#0000FFFF00000000
(1649441584.247030) can0 208#1080651E1E002D
(1649441584.248063) can0 211#FFFFFFFFFFFFFFFF
(1649441584.248934) can0 2EB#590000FF
(1649441584.254668) can0 20B#0000
(1649441584.258921) can0 2A8#000000000000
(1649441584.265054) can0 286#0338C0000000
(1649441584.285253) can0 2CE#FFFF00000000C03F
(1649441584.295221) can0 211#FFFFFFFFFFFFFFFF
(1649441584.298820) can0 2EB#590000FF
(1649441584.325501) can0 402#FD143FFFFFFFFFFF
(1649441584.338948) can0 214#2C1C3300143800
(1649441584.345205) can0 217#787B0FC020FD
(1649441584.346201) can0 1E1#0000FFFF00000000
(1649441584.347097) can0 208#1080651E1E002D
(1649441584.348128) can0 211#FFFFFFFFFFFFFFFF
(1649441584.348961) can0 2EB#590000FF
(1649441584.354790) can0 20B#0000
(1649441584.358947) can0 2A8#000000000000
(1649441584.365096) can0 286#0338C0000000
(1649441584.385238) can0 2CE#FFFF00000000C03F
(1649441584.395217) can0 211#FFFFFFFFFFFFFFFF
(1649441584.398838) can0 2EB#590000FF
(1649441584.419069) can0 414#FD16BFFFFFFFFFFF
(1649441584.438994) can0 214#2C1C3300143800
(1649441584.445387) can0 292#FFFFFF0000FFFF
(1649441584.446383) can0 1E1#0000FFFF00000000
(1649441584.447278) can0 208#1080651E1E002D
(1649441584.448111) can0 217#787B0FC020FD
(1649441584.449166) can0 211#FFFFFFFFFFFFFFFF
(1649441584.449815) can0 2EB#590000FF
(1649441584.454785) can0 20B#0000
(1649441584.458960) can0 2A8#000000000000
(1649441584.465206) can0 286#0338C0000000
(1649441584.475161) can0 348#0FFF0FFF00000000
(1649441584.485331) can0 2CE#FFFF00000000C03F
(1649441584.495262) can0 211#FFFFFFFFFFFFFFFF
(1649441584.496195) can0 20E#930547C0FFFF0C
(1649441584.498860) can0 2EB#590000FF
(1649441584.501984) can0 416#FD3EBFFFFFFFFFFF
(1649441584.505157) can0 244#00000D0880
(1649441584.538992) can0 214#2C1C3300143800
(1649441584.539621) can0 308#110000
(1649441584.540491) can0 3A3#000000000000
(1649441584.545277) can0 217#787B0FC020FD
(1649441584.546278) can0 1E1#0000FFFF00000000
(1649441584.547172) can0 208#1080651E1E002D
(1649441584.548205) can0 211#FFFFFFFFFFFFFFFF
(1649441584.549004) can0 2EB#590000FF
(1649441584.554859) can0 20B#0000
(1649441584.558983) can0 2A8#000000000000
(1649441584.565233) can0 286#0338C0000000
(1649441584.568633) can0 2E1#00
(1649441584.578812) can0 2E3#000000
(1649441584.585441) can0 2CE#FFFF00000000C03F
(1649441584.595395) can0 211#FFFFFFFFFFFFFFFF
(1649441584.596415) can0 43E#FD02BFFFFFFFFFFF
(1649441584.598879) can0 2EB#590000FF
(1649441584.639035) can0 214#2C1C3300143800
(1649441584.645378) can0 217#787B0FC020FD
(1649441584.646378) can0 1E1#0000FFFF00000000
(1649441584.647274) can0 208#1080651E1E002D
(1649441584.648303) can0 211#FFFFFFFFFFFFFFFF
(1649441584.648976) can0 2EB#590000FF
(1649441584.655023) can0 20B#0000
(1649441584.659003) can0 2A8#000000000000
(1649441584.665289) can0 286#0338C0000000
(1649441584.685407) can0 2CE#FFFF00000000C03F
(1649441584.686434) can0 402#FD143FFFFFFFFFFF
(1649441584.695377) can0 211#FFFFFFFFFFFFFFFF
(1649441584.698901) can0 2EB#590000FF
(1649441584.739026) can0 214#2C1C3300143800
(1649441584.745463) can0 217#787B0FC020FD
(1649441584.746463) can0 1E1#0000FFFF00000000
(1649441584.747358) can0 208#1080651E1E002D
(1649441584.748391) can0 211#FFFFFFFFFFFFFFFF
(1649441584.749063) can0 2EB#590000FF
(1649441584.754969) can0 20B#0000
(1649441584.759025) can0 2A8#000000000000
(1649441584.759897) can0 2D9#80C226C426C0FF
(1649441584.760504) can0 3E6#0B0D0A
(1649441584.765378) can0 286#0338C0000000
(1649441584.779176) can0 414#FD16BFFFFFFFFFFF
(1649441584.785471) can0 2CE#FFFF00000000C03F
(1649441584.795451) can0 211#FFFFFFFFFFFFFFFF
(1649441584.798923) can0 2EB#590000FF
(1649441584.839071) can0 214#2C1C3300143800
(1649441584.845478) can0 217#787B0FC020FD
(1649441584.846476) can0 1E1#0000FFFF00000000
(1649441584.847387) can0 208#1080651E1E002D
(1649441584.848419) can0 211#FFFFFFFFFFFFFFFF
(1649441584.849092) can0 2EB#590000FF
(1649441584.855070) can0 20B#0000
(1649441584.859046) can0 2A8#000000000000
(1649441584.862143) can0 416#FD3EBFFFFFFFFFFF
(1649441584.865423) can0 286#0338C0000000
(1649441584.885619) can0 2CE#FFFF00000000C03F
(1649441584.895572) can0 211#FFFFFFFFFFFFFFFF
(1649441584.898945) can0 2EB#590000FF
(1649441584.939071) can0 214#2C1C3300143800
(1649441584.945676) can0 292#FFFFFF0000FFFF
(1649441584.946530) can0 142#FF0000000000
(1649441584.947530) can0 1E1#0000FFFF00000000
(1649441584.948370) can0 249#000000C00D08
(1649441584.949043) can0 2EB#590000FF
(1649441584.950027) can0 1E7#7000000000000000
(1649441584.951026) can0 1A5#3F00FFFFFF007800
(1649441584.951922) can0 208#1080651E1E002D
(1649441584.952753) can0 217#787B0FC020FD
(1649441584.953786) can0 211#FFFFFFFFFFFFFFFF
(1649441584.955626) can0 283#0000000000000000
(1649441584.956202) can0 20B#0000
(1649441584.957193) can0 43E#FD02BFFFFFFFFFFF
(1649441584.959065) can0 2A8#000000000000
(1649441584.965492) can0 286#0338C0000000
(1649441584.975386) can0 348#0FFF0FFF00000000
(1649441584.976030) can0 2D2#000300
(1649441584.985620) can0 2CE#FFFF00000000C03F
(1649441584.992134) can0 3D9#000A0A0A0A0AFF
(1649441584.995563) can0 211#FFFFFFFFFFFFFFFF
(1649441584.996499) can0 20E#930547C0FFFF0C
(1649441584.998963) can0 2EB#590000FF
(1649441585.002233) can0 3B3#00FFFFFF00FFFFFF
(1649441585.005462) can0 244#00000D0880
(1649441585.012202) can0 3B0#1D3000001D300000
(1649441585.022237) can0 392#0C00000000000000
(1649441585.031925) can0 2E9#00000000
(1649441585.039109) can0 214#2C1C3300143800
(1649441585.039742) can0 308#110000
(1649441585.040613) can0 3A3#000000000000
(1649441585.042246) can0 293#1000000000FFFFFF
(1649441585.045590) can0 217#787B0FC020FD
(1649441585.046590) can0 1E1#0000FFFF00000000
(1649441585.047486) can0 208#1080651E1E002D
(1649441585.048518) can0 211#FFFFFFFFFFFFFFFF
(1649441585.049213) can0 2EB#590000FF
(1649441585.050174) can0 402#FD143FFFFFFFFFFF
(1649441585.052110) can0 291#1D0D0530000007
(1649441585.055135) can0 20B#0000
(1649441585.059087) can0 2A8#000000000000
(1649441585.062224) can0 290#011A010F07000000
(1649441585.065563) can0 286#0338C0000000
(1649441585.068729) can0 2E1#00
(1649441585.078912) can0 2E3#000000
(1649441585.085638) can0 2CE#FFFF00000000C03F
(1649441585.089223) can0 21B#04000000009E0004
(1649441585.095608) can0 211#FFFFFFFFFFFFFFFF
(1649441585.098801) can0 270#0000
(1649441585.099500) can0 2EB#590000FF
(1649441585.108979) can0 2B0#02000000
(1649441585.119288) can0 2E7#001C000000000000
(1649441585.139107) can0 214#2C1C3300143800
(1649441585.145650) can0 217#787B0FC020FD
(1649441585.146649) can0 1E1#0000FFFF00000000
(1649441585.147545) can0 208#1080651E1E002D
(1649441585.148577) can0 211#FFFFFFFFFFFFFFFF
(1649441585.149566) can0 414#FD16BFFFFFFFFFFF
(1649441585.150250) can0 2EB#590000FF
(1649441585.155203) can0 20B#0000
(1649441585.159099) can0 2A8#000000000000
(1649441585.165511) can0 286#0338C0000000
(1649441585.185784) can0 2CE#FFFF00000000C03F
(1649441585.195722) can0 211#FFFFFFFFFFFFFFFF
(1649441585.198999) can0 2EB#590000FF
(1649441585.239192) can0 214#2C1C3300143800
(1649441585.242312) can0 416#FD3EBFFFFFFFFFFF
(1649441585.245704) can0 217#787B0FC020FD
(1649441585.246703) can0 1E1#0000FFFF00000000
(1649441585.247599) can0 208#1080651E1E002D
(1649441585.248631) can0 211#FFFFFFFFFFFFFFFF
(1649441585.249308) can0 2EB#590000FF
(1649441585.255306) can0 20B#0000
(1649441585.259122) can0 2A8#000000000000
(1649441585.265630) can0 286#0338C0000000
(1649441585.285950) can0 2CE#FFFF00000000C03F
(1649441585.295781) can0 211#FFFFFFFFFFFFFFFF
(1649441585.299020) can0 2EB#590000FF
(1649441585.337873) can0 43E#FD02BFFFFFFFFFFF
(1649441585.339235) can0 214#2C1C3300143800
(1649441585.345726) can0 217#787B0FC020FD
(1649441585.346725) can0 1E1#0000FFFF00000000
(1649441585.347621) can0 208#1080651E1E002D
(1649441585.348652) can0 211#FFFFFFFFFFFFFFFF
(1649441585.349330) can0 2EB#590000FF
(1649441585.355303) can0 20B#0000
(1649441585.359171) can0 2A8#000000000000
(1649441585.365747) can0 286#0338C0000000
(1649441585.385852) can0 2CE#FFFF00000000C03F
(1649441585.395781) can0 211#FFFFFFFFFFFFFFFF
(1649441585.399043) can0 2EB#590000FF
(1649441585.426104) can0 402#FD143FFFFFFFFFFF
(1649441585.439220) can0 214#2C1C3300143800
(1649441585.445913) can0 292#FFFFFF0000FFFF
(1649441585.446912) can0 1E1#0000FFFF00000000
(1649441585.447807) can0 208#1080651E1E002D
(1649441585.448640) can0 217#787B0FC020FD
(1649441585.449327) can0 2EB#590000FF
(1649441585.450304) can0 211#FFFFFFFFFFFFFFFF
(1649441585.455361) can0 20B#0000
(1649441585.459187) can0 2A8#000000000000
(1649441585.460971) can0 3E9#9E01
(1649441585.465746) can0 286#0338C0000000
(1649441585.475672) can0 348#0FFF0FFF00000000
(1649441585.485955) can0 2CE#FFFF00000000C03F
(1649441585.495982) can0 211#FFFFFFFFFFFFFFFF
(1649441585.496914) can0 20E#930547C0FFFF0C
(1649441585.499059) can0 2EB#590000FF
(1649441585.505710) can0 244#00000D0880
(1649441585.519284) can0 414#FD16BFFFFFFFFFFF
(1649441585.539212) can0 214#2C1C3300143800
(1649441585.539820) can0 308#110000
(1649441585.540691) can0 3A3#000000000000
(1649441585.545901) can0 217#787B0FC020FD
(1649441585.546901) can0 1E1#0000FFFF00000000
(1649441585.547797) can0 208#1080651E1E002D
(1649441585.548831) can0 211#FFFFFFFFFFFFFFFF
(1649441585.549516) can0 2EB#590000FF
(1649441585.555528) can0 20B#0000
(1649441585.559210) can0 2A8#000000000000
(1649441585.565770) can0 286#0338C0000000
(1649441585.568826) can0 2E1#00
(1649441585.579008) can0 2E3#000000
(1649441585.585921) can0 2CE#FFFF00000000C03F
(1649441585.595897) can0 211#FFFFFFFFFFFFFFFF
(1649441585.599082) can0 2EB#590000FF
(1649441585.602475) can0 416#FD3EBFFFFFFFFFFF
(1649441585.639230) can0 214#2C1C3300143800
(1649441585.645892) can0 217#787B0FC020FD
(1649441585.646891) can0 1E1#0000FFFF00000000
(1649441585.647786) can0 208#1080651E1E002D
(1649441585.648820) can0 211#FFFFFFFFFFFFFFFF
(1649441585.649492) can0 2EB#590000FF
(1649441585.655476) can0 20B#0000
(1649441585.659234) can0 2A8#000000000000
(1649441585.665879) can0 286#0338C0000000
(1649441585.686049) can0 2CE#FFFF00000000C03F
(1649441585.695955) can0 211#FFFFFFFFFFFFFFFF
(1649441585.698575) can0 43E#FD02BFFFFFFFFFFF
(1649441585.699248) can0 2EB#590000FF
(1649441585.739252) can0 214#2C1C3300143800
(1649441585.746017) can0 217#787B0FC020FD
(1649441585.747017) can0 1E1#0000FFFF00000000
(1649441585.747920) can0 208#1080651E1E002D
(1649441585.748952) can0 211#FFFFFFFFFFFFFFFF
(1649441585.749639) can0 2EB#590000FF
(1649441585.755542) can0 20B#0000
(1649441585.759243) can0 2A8#000000000000
(1649441585.760075) can0 2D9#80C226C426C0FF
(1649441585.760698) can0 3E6#0B0D0B
(1649441585.765948) can0 286#0338C0000000
(1649441585.786158) can0 2CE#FFFF00000000C03F
(1649441585.787185) can0 402#FD143FFFFFFFFFFF
(1649441585.796110) can0 211#FFFFFFFFFFFFFFFF
(1649441585.799116) can0 2EB#590000FF
(1649441585.839275) can0 214#2C1C3300143800
(1649441585.846118) can0 217#787B0FC020FD
(1649441585.847117) can0 1E1#0000FFFF00000000
(1649441585.848012) can0 208#1080651E1E002D
(1649441585.849044) can0 211#FFFFFFFFFFFFFFFF
(1649441585.849733) can0 2EB#590000FF
(1649441585.855658) can0 20B#0000
(1649441585.859244) can0 2A8#000000000000
(1649441585.865985) can0 286#0338C0000000
(1649441585.879376) can0 414#FD16BFFFFFFFFFFF
(1649441585.886117) can0 2CE#FFFF00000000C03F
(1649441585.896076) can0 211#FFFFFFFFFFFFFFFF
(1649441585.899136) can0 2EB#590000FF
(1649441585.939271) can0 214#2C1C3300143800
(1649441585.946314) can0 2DE#019B000000000000
(1649441585.947170) can0 142#FF0000000000
(1649441585.948170) can0 1E1#0000FFFF00000000
(1649441585.949010) can0 249#000000C00D08
(1649441585.949685) can0 2EB#590000FF
(1649441585.950667) can0 1E7#7000000000000000
(1649441585.951522) can0 221#010000000000
(1649441585.952515) can0 2D3#010E180200000000
(1649441585.953513) can0 1A5#3F00FFFFFF007800
(1649441585.954408) can0 208#1080651E1E002D
(1649441585.955241) can0 217#787B0FC020FD
(1649441585.956249) can0 2D6#0100000000000000
(1649441585.956824) can0 20B#0000
(1649441585.957856) can0 283#0000000000000000
(1649441585.958888) can0 211#FFFFFFFFFFFFFFFF
(1649441585.959732) can0 2A8#000000000000
(1649441585.960656) can0 292#FFFFFF0000FFFF
(1649441585.961376) can0 2DD#05000000
(1649441585.962632) can0 416#FD3EBFFFFFFFFFFF
(1649441585.966121) can0 2DB#E507401C00000105
(1649441585.966968) can0 286#0338C0000000
(1649441585.976047) can0 348#0FFF0FFF00000000
(1649441585.976694) can0 2D2#000300
(1649441585.986178) can0 2CE#FFFF00000000C03F
(1649441585.992579) can0 3D9#000A0A0A0A0AFF
(1649441585.996144) can0 211#FFFFFFFFFFFFFFFF
(1649441585.997080) can0 20E#930547C0FFFF0C
(1649441585.999179) can0 2EB#590000FF
(1649441586.002674) can0 3B3#00FFFFFF00FFFFFF
(1649441586.006002) can0 244#00000D0880
(1649441586.006937) can0 21D#4111297562E52E81
(1649441586.012649) can0 3B0#1D3000001D300000
(1649441586.016012) can0 21E#390014116B9E809E
(1649441586.022681) can0 392#0C00000000000000
(1649441586.026335) can0 21F#0100500000000040
(1649441586.032380) can0 2E9#00000000
(1649441586.036018) can0 25F#C17DA80E0000
(1649441586.039310) can0 214#2C1C3300143800
(1649441586.039786) can0 2E5#00
(1649441586.040418) can0 308#110000
(1649441586.041291) can0 3A3#000000000000
(1649441586.042690) can0 293#1000000000FFFFFF
(1649441586.046187) can0 217#787B0FC020FD
(1649441586.047188) can0 1E1#0000FFFF00000000
(1649441586.048083) can0 208#1080651E1E002D
(1649441586.049115) can0 211#FFFFFFFFFFFFFFFF
(1649441586.049789) can0 2EB#590000FF
(1649441586.052549) can0 291#1D0D0530000007
(1649441586.055717) can0 20B#0000
(1649441586.059279) can0 43E#FD02BFFFFFFFFFFF
(1649441586.060115) can0 2A8#000000000000
(1649441586.062667) can0 290#011A010F07000000
(1649441586.066142) can0 286#0338C0000000
(1649441586.068916) can0 2E1#00
(1649441586.079105) can0 2E3#000000
(1649441586.086336) can0 2CE#FFFF00000000C03F
(1649441586.089404) can0 21B#04000000009E0004
(1649441586.096274) can0 211#FFFFFFFFFFFFFFFF
(1649441586.098996) can0 270#0000
(1649441586.099692) can0 2EB#590000FF
(1649441586.109198) can0 2B0#02000000
(1649441586.119483) can0 2E7#001C000000000000
(1649441586.139310) can0 214#2C1C3300143800
(1649441586.146254) can0 217#787B0FC020FD
(1649441586.147253) can0 1E1#0000FFFF00000000
(1649441586.148148) can0 208#1080651E1E002D
(1649441586.149210) can0 211#FFFFFFFFFFFFFFFF
(1649441586.149856) can0 2EB#590000FF
(1649441586.150838) can0 402#FD143FFFFFFFFFFF
(1649441586.155830) can0 20B#0000
(1649441586.159304) can0 2A8#000000000000
(1649441586.166152) can0 286#0338C0000000
(1649441586.186296) can0 2CE#FFFF00000000C03F
(1649441586.196261) can0 211#FFFFFFFFFFFFFFFF
(1649441586.199228) can0 2EB#590000FF
(1649441586.239351) can0 214#2C1C3300143800
(1649441586.246299) can0 217#787B0FC020FD
(1649441586.247299) can0 1E1#0000FFFF00000000
(1649441586.248194) can0 208#1080651E1E002D
(1649441586.249250) can0 211#FFFFFFFFFFFFFFFF
(1649441586.250225) can0 414#FD16BFFFFFFFFFFF
(1649441586.250901) can0 2EB#590000FF
(1649441586.255838) can0 20B#0000
(1649441586.259329) can0 2A8#000000000000
(1649441586.266279) can0 286#0338C0000000
(1649441586.286417) can0 2CE#FFFF00000000C03F
(1649441586.296312) can0 211#FFFFFFFFFFFFFFFF
(1649441586.299253) can0 2EB#590000FF
(1649441586.339350) can0 214#2C1C3300143800
(1649441586.342801) can0 416#FD3EBFFFFFFFFFFF
(1649441586.346369) can0 217#787B0FC020FD
(1649441586.347369) can0 1E1#0000FFFF00000000
(1649441586.348265) can0 208#1080651E1E002D
(1649441586.349300) can0 211#FFFFFFFFFFFFFFFF
(1649441586.349969) can0 2EB#590000FF
(1649441586.355911) can0 20B#0000
(1649441586.359344) can0 2A8#000000000000
(1649441586.366279) can0 286#0338C0000000
(1649441586.386496) can0 2CE#FFFF00000000C03F
(1649441586.396522) can0 211#FFFFFFFFFFFFFFFF
(1649441586.399240) can0 2EB#590000FF
(1649441586.439395) can0 214#2C1C3300143800
(1649441586.440382) can0 43E#FD02BFFFFFFFFFFF
(1649441586.446544) can0 292#FFFFFF0000FFFF
(1649441586.447583) can0 1E1#0000FFFF00000000
(1649441586.448479) can0 208#1080651E1E002D
(1649441586.449314) can0 217#787B0FC020FD
(1649441586.449983) can0 2EB#590000FF
(1649441586.450975) can0 211#FFFFFFFFFFFFFFFF
(1649441586.456028) can0 20B#0000
(1649441586.459366) can0 2A8#000000000000
(1649441586.466340) can0 286#0338C0000000
(1649441586.476284) can0 348#0FFF0FFF00000000
(1649441586.486500) can0 2CE#FFFF00000000C03F
(1649441586.496432) can0 211#FFFFFFFFFFFFFFFF
(1649441586.497364) can0 20E#930547C0FFFF0C
(1649441586.499261) can0 2EB#590000FF
(1649441586.506414) can0 244#00000D0880
(1649441586.526792) can0 402#FD143FFFFFFFFFFF
(1649441586.539385) can0 214#2C1C3300143800
(1649441586.540015) can0 308#110000
(1649441586.540887) can0 3A3#000000000000
(1649441586.546545) can0 217#787B0FC020FD
(1649441586.547544) can0 1E1#0000FFFF00000000
(1649441586.548440) can0 208#1080651E1E002D
(1649441586.549475) can0 211#FFFFFFFFFFFFFFFF
(1649441586.550144) can0 2EB#590000FF
(1649441586.556018) can0 20B#0000
(1649441586.559379) can0 2A8#000000000000
(1649441586.566453) can0 286#0338C0000000
(1649441586.569029) can0 2E1#00
(1649441586.579238) can0 2E3#000000
(1649441586.586562) can0 2CE#FFFF00000000C03F
(1649441586.596512) can0 211#FFFFFFFFFFFFFFFF
(1649441586.599278) can0 2EB#590000FF
(1649441586.619509) can0 414#FD16BFFFFFFFFFFF
(1649441586.639430) can0 214#2C1C3300143800
(1649441586.646551) can0 217#787B0FC020FD
(1649441586.647551) can0 1E1#0000FFFF00000000
(1649441586.648463) can0 208#1080651E1E002D
(1649441586.649498) can0 211#FFFFFFFFFFFFFFFF
(1649441586.650167) can0 2EB#590000FF
(1649441586.656064) can0 20B#0000
(1649441586.659405) can0 2A8#000000000000
(1649441586.666468) can0 286#0338C0000000
(1649441586.686678) can0 2CE#FFFF00000000C03F
(1649441586.696648) can0 211#FFFFFFFFFFFFFFFF
(1649441586.699302) can0 2EB#590000FF
(1649441586.702965) can0 416#FD3EBFFFFFFFFFFF
(1649441586.739433) can0 214#2C1C3300143800
(1649441586.746615) can0 217#787B0FC020FD
(1649441586.747614) can0 1E1#0000FFFF00000000
(1649441586.748510) can0 208#1080651E1E002D
(1649441586.749546) can0 211#FFFFFFFFFFFFFFFF
(1649441586.750215) can0 2EB#590000FF
(1649441586.756292) can0 20B#0000
(1649441586.759421) can0 2A8#000000000000
(1649441586.760371) can0 2D9#80C226C426C0FF
(1649441586.760984) can0 3E6#0B0D0C
(1649441586.766626) can0 286#0338C0000000
(1649441586.786772) can0 2CE#FFFF00000000C03F
(1649441586.796748) can0 211#FFFFFFFFFFFFFFFF
(1649441586.799327) can0 2EB#590000FF
(1649441586.800730) can0 43E#FD02BFFFFFFFFFFF
(1649441586.839470) can0 214#2C1C3300143800
(1649441586.846764) can0 217#787B0FC020FD
(1649441586.847764) can0 1E1#0000FFFF00000000
(1649441586.848660) can0 208#1080651E1E002D
(1649441586.849696) can0 211#FFFFFFFFFFFFFFFF
(1649441586.850364) can0 2EB#590000FF
(1649441586.856330) can0 20B#0000
(1649441586.859451) can0 2A8#000000000000
(1649441586.866739) can0 286#0338C0000000
(1649441586.886867) can0 2CE#FFFF00000000C03F
(1649441586.887895) can0 402#FD143FFFFFFFFFFF
(1649441586.896796) can0 211#FFFFFFFFFFFFFFFF
(1649441586.899339) can0 2EB#590000FF
(1649441586.939472) can0 214#2C1C3300143800
(1649441586.946997) can0 292#FFFFFF0000FFFF
(1649441586.947852) can0 142#FF0000000000
(1649441586.948853) can0 1E1#0000FFFF00000000
(1649441586.949528) can0 2EB#590000FF
(1649441586.950348) can0 249#000000C00D08
(1649441586.951356) can0 1E7#7000000000000000
(1649441586.952356) can0 1A5#3F00FFFFFF007800
(1649441586.953251) can0 208#1080651E1E002D
(1649441586.954083) can0 217#787B0FC020FD
(1649441586.955117) can0 211#FFFFFFFFFFFFFFFF
(1649441586.956840) can0 283#0000000000000000
(1649441586.957404) can0 20B#0000
(1649441586.959463) can0 2A8#000000000000
(1649441586.961059) can0 3E9#9E01
(1649441586.966820) can0 286#0338C0000000
(1649441586.976690) can0 348#0FFF0FFF00000000
(1649441586.977335) can0 2D2#000300
(1649441586.979599) can0 414#FD16BFFFFFFFFFFF
(1649441586.986976) can0 2CE#FFFF00000000C03F
(1649441586.993030) can0 3D9#000A0A0A0A0AFF
(1649441586.996931) can0 211#FFFFFFFFFFFFFFFF
(1649441586.997867) can0 20E#930547C0FFFF0C
(1649441586.999365) can0 2EB#590000FF
(1649441587.003124) can0 3B3#00FFFFFF00FFFFFF
(1649441587.006719) can0 244#00000D0880
(1649441587.013093) can0 3B0#1D3000001D300000
(1649441587.023125) can0 392#0C00000000000000
(1649441587.032824) can0 2E9#00000000
(1649441587.039511) can0 214#2C1C3300143800
(1649441587.040141) can0 308#110000
(1649441587.041014) can0 3A3#000000000000
(1649441587.043142) can0 293#1000000000FFFFFF
(1649441587.046919) can0 217#787B0FC020FD
(1649441587.047920) can0 1E1#0000FFFF00000000
(1649441587.048815) can0 208#1080651E1E002D
(1649441587.049490) can0 2EB#590000FF
(1649441587.050479) can0 211#FFFFFFFFFFFFFFFF
(1649441587.053000) can0 291#1D0D0530000007
(1649441587.056585) can0 20B#0000
(1649441587.059500) can0 2A8#000000000000
(1649441587.063124) can0 416#FD3EBFFFFFFFFFFF
(1649441587.066827) can0 286#0338C0000000
(1649441587.069115) can0 2E1#00
(1649441587.073118) can0 290#011A010F07000000
(1649441587.079315) can0 2E3#000000
(1649441587.086945) can0 2CE#FFFF00000000C03F
(1649441587.089605) can0 21B#04000000009E0004
(1649441587.096915) can0 211#FFFFFFFFFFFFFFFF
(1649441587.099227) can0 270#0000
(1649441587.099899) can0 2EB#590000FF
(1649441587.109385) can0 2B0#02000000
(1649441587.119689) can0 2E7#001C000000000000
(1649441587.139512) can0 214#2C1C3300143800
(1649441587.146966) can0 217#787B0FC020FD
(1649441587.147968) can0 1E1#0000FFFF00000000
(1649441587.148862) can0 208#1080651E1E002D
(1649441587.149537) can0 2EB#590000FF
(1649441587.150526) can0 211#FFFFFFFFFFFFFFFF
(1649441587.156511) can0 20B#0000
(1649441587.159505) can0 2A8#000000000000
(1649441587.161439) can0 43E#FD02BFFFFFFFFFFF
(1649441587.166953) can0 286#0338C0000000
(1649441587.187011) can0 2CE#FFFF00000000C03F
(1649441587.196990) can0 211#FFFFFFFFFFFFFFFF
(1649441587.199404) can0 2EB#590000FF
(1649441587.239559) can0 214#2C1C3300143800
(1649441587.247005) can0 217#787B0FC020FD
(1649441587.248005) can0 1E1#0000FFFF00000000
(1649441587.248900) can0 208#1080651E1E002D
(1649441587.249579) can0 2EB#590000FF
(1649441587.250565) can0 211#FFFFFFFFFFFFFFFF
(1649441587.251597) can0 402#FD143FFFFFFFFFFF
(1649441587.256550) can0 20B#0000
(1649441587.259530) can0 2A8#000000000000
(1649441587.266921) can0 286#0338C0000000
(1649441587.287155) can0 2CE#FFFF00000000C03F
(1649441587.297107) can0 211#FFFFFFFFFFFFFFFF
(1649441587.299430) can0 2EB#590000FF
(1649441587.339551) can0 214#2C1C3300143800
(1649441587.347069) can0 217#787B0FC020FD
(1649441587.348069) can0 1E1#0000FFFF00000000
(1649441587.348964) can0 208#1080651E1E002D
(1649441587.349951) can0 414#FD16BFFFFFFFFFFF
(1649441587.350940) can0 211#FFFFFFFFFFFFFFFF
(1649441587.351614) can0 2EB#590000FF
(1649441587.356671) can0 20B#0000
(1649441587.359544) can0 2A8#000000000000
(1649441587.367001) can0 286#0338C0000000
(1649441587.387339) can0 2CE#FFFF00000000C03F
(1649441587.397108) can0 211#FFFFFFFFFFFFFFFF
(1649441587.399443) can0 2EB#590000FF
(1649441587.439597) can0 214#2C1C3300143800
(1649441587.443298) can0 416#FD3EBFFFFFFFFFFF
(1649441587.447243) can0 292#FFFFFF0000FFFF
(1649441587.448242) can0 1E1#0000FFFF00000000
(1649441587.449167) can0 208#1080651E1E002D
(1649441587.449812) can0 2EB#590000FF
(1649441587.450610) can0 217#787B0FC020FD
(1649441587.451642) can0 211#FFFFFFFFFFFFFFFF
(1649441587.456669) can0 20B#0000
(1649441587.459568) can0 2A8#000000000000
(1649441587.467112) can0 286#0338C0000000
(1649441587.477037) can0 348#0FFF0FFF00000000
(1649441587.487184) can0 2CE#FFFF00000000C03F
(1649441587.497227) can0 211#FFFFFFFFFFFFFFFF
(1649441587.498159) can0 20E#930547C0FFFF0C
(1649441587.499617) can0 2EB#590000FF
(1649441587.507002) can0 244#00000D0880
(1649441587.539586) can0 214#2C1C3300143800
(1649441587.540216) can0 308#110000
(1649441587.541088) can0 3A3#000000000000
(1649441587.542184) can0 43E#FD02BFFFFFFFFFFF
(1649441587.547201) can0 217#787B0FC020FD
(1649441587.548201) can0 1E1#0000FFFF00000000
(1649441587.549115) can0 208#1080651E1E002D
(1649441587.549785) can0 2EB#590000FF
(1649441587.550776) can0 211#FFFFFFFFFFFFFFFF
(1649441587.556737) can0 20B#0000
(1649441587.559590) can0 2A8#000000000000
(1649441587.567128) can0 286#0338C0000000
(1649441587.569235) can0 2E1#00
(1649441587.579406) can0 2E3#000000
(1649441587.587304) can0 2CE#FFFF00000000C03F
(1649441587.597327) can0 211#FFFFFFFFFFFFFFFF
(1649441587.599485) can0 2EB#590000FF
(1649441587.627569) can0 402#FD143FFFFFFFFFFF
(1649441587.639635) can0 214#2C1C3300143800
(1649441587.647250) can0 217#787B0FC020FD
(1649441587.648249) can0 1E1#0000FFFF00000000
(1649441587.649172) can0 208#1080651E1E002D
(1649441587.649818) can0 2EB#590000FF
(1649441587.650809) can0 211#FFFFFFFFFFFFFFFF
(1649441587.656843) can0 20B#0000
(1649441587.659607) can0 2A8#000000000000
(1649441587.667163) can0 286#0338C0000000
(1649441587.687335) can0 2CE#FFFF00000000C03F
(1649441587.697267) can0 211#FFFFFFFFFFFFFFFF
(1649441587.699504) can0 2EB#590000FF
(1649441587.719727) can0 414#FD16BFFFFFFFFFFF
(1649441587.739626) can0 214#2C1C3300143800
(1649441587.747296) can0 217#787B0FC020FD
(1649441587.748296) can0 1E1#0000FFFF00000000
(1649441587.749220) can0 208#1080651E1E002D
(1649441587.749865) can0 2EB#590000FF
(1649441587.750858) can0 211#FFFFFFFFFFFFFFFF
(1649441587.756858) can0 20B#0000
(1649441587.759630) can0 2A8#000000000000
(1649441587.760707) can0 2D9#80C226C426C0FF
(1649441587.761314) can0 3E6#0B0D0D
(1649441587.767304) can0 286#0338C0000000
(1649441587.787399) can0 2CE#FFFF00000000C03F
(1649441587.797334) can0 211#FFFFFFFFFFFFFFFF
(1649441587.799529) can0 2EB#590000FF
(1649441587.803454) can0 416#FD3EBFFFFFFFFFFF
(1649441587.839673) can0 214#2C1C3300143800
(1649441587.847375) can0 217#787B0FC020FD
(1649441587.848375) can0 1E1#0000FFFF00000000
(1649441587.849275) can0 208#1080651E1E002D
(1649441587.849942) can0 2EB#590000FF
(1649441587.850937) can0 211#FFFFFFFFFFFFFFFF
(1649441587.856905) can0 20B#0000
(1649441587.859645) can0 2A8#000000000000
(1649441587.867289) can0 286#0338C0000000
(1649441587.887485) can0 2CE#FFFF00000000C03F
(1649441587.897456) can0 211#FFFFFFFFFFFFFFFF
(1649441587.899542) can0 2EB#590000FF
(1649441587.902891) can0 43E#FD02BFFFFFFFFFFF
(1649441587.939672) can0 214#2C1C3300143800
(1649441587.947597) can0 2DF#0E9203E80FA00A7A
(1649441587.948452) can0 142#FF0000000000
(1649441587.949456) can0 1E1#0000FFFF00000000
(1649441587.950124) can0 2EB#590000FF
(1649441587.950948) can0 249#000000C00D08
(1649441587.951956) can0 1E7#7000000000000000
(1649441587.952813) can0 221#010000000000
(1649441587.953803) can0 2D3#010E180200000000
(1649441587.954803) can0 1A5#3F00FFFFFF007800
(1649441587.955699) can0 208#1080651E1E002D
(1649441587.956531) can0 217#787B0FC020FD
(1649441587.957539) can0 2D6#0100000000000000
(1649441587.958115) can0 20B#0000
(1649441587.959177) can0 283#0000000000000000
(1649441587.959987) can0 2A8#000000000000
(1649441587.960979) can0 211#FFFFFFFFFFFFFFFF
(1649441587.961946) can0 292#FFFFFF0000FFFF
(1649441587.962786) can0 2DA#61119BA0FFFF
(1649441587.963506) can0 2DD#05000000
(1649441587.964530) can0 2DE#019B000000000000
(1649441587.967440) can0 2DB#E507401C00000105
(1649441587.968277) can0 286#0338C0000000
(1649441587.977273) can0 348#0FFF0FFF00000000
(1649441587.977917) can0 2D2#000300
(1649441587.987474) can0 2CE#FFFF00000000C03F
(1649441587.988504) can0 402#FD143FFFFFFFFFFF
(1649441587.993474) can0 3D9#000A0A0A0A0AFF
(1649441587.997450) can0 211#FFFFFFFFFFFFFFFF
(1649441587.998385) can0 20E#930547C0FFFF0C
(1649441587.999844) can0 2EB#590000FF
(1649441588.003571) can0 3B3#00FFFFFF00FFFFFF
(1649441588.007372) can0 244#00000D0880
(1649441588.008323) can0 21D#4111297562E52E81
(1649441588.013535) can0 3B0#1D3000001D300000
(1649441588.017462) can0 21E#390014116B9E809E
(1649441588.023570) can0 392#0C00000000000000
(1649441588.027659) can0 21F#0100500000000040
(1649441588.033271) can0 2E9#00000000
(1649441588.037236) can0 25F#C17DA80E0000
(1649441588.039709) can0 214#2C1C3300143800
(1649441588.040189) can0 2E5#00
(1649441588.040820) can0 308#110000
(1649441588.041692) can0 3A3#000000000000
(1649441588.043588) can0 293#1000000000FFFFFF
(1649441588.047501) can0 217#787B0FC020FD
(1649441588.048501) can0 1E1#0000FFFF00000000
(1649441588.049400) can0 208#1080651E1E002D
(1649441588.050068) can0 2EB#590000FF
(1649441588.051060) can0 211#FFFFFFFFFFFFFFFF
(1649441588.053445) can0 291#1D0D0530000007
(1649441588.057022) can0 20B#0000
(1649441588.059684) can0 2A8#000000000000
(1649441588.063559) can0 290#011A010F07000000
(1649441588.067439) can0 286#0338C0000000
(1649441588.069333) can0 2E1#00
(1649441588.079822) can0 414#FD16BFFFFFFFFFFF
(1649441588.080451) can0 2E3#000000
(1649441588.087565) can0 2CE#FFFF00000000C03F
(1649441588.089798) can0 21B#04000000009E0004
(1649441588.097496) can0 211#FFFFFFFFFFFFFFFF
(1649441588.099403) can0 270#0000
(1649441588.100096) can0 2EB#590000FF
(1649441588.109581) can0 2B0#02000000
(1649441588.119888) can0 2E7#001C000000000000
(1649441588.139705) can0 214#2C1C3300143800
(1649441588.147650) can0 217#787B0FC020FD
(1649441588.148653) can0 1E1#0000FFFF00000000
(1649441588.149550) can0 208#1080651E1E002D
(1649441588.150218) can0 2EB#590000FF
(1649441588.151210) can0 211#FFFFFFFFFFFFFFFF
(1649441588.157267) can0 20B#0000
(1649441588.159701) can0 2A8#000000000000
(1649441588.163621) can0 416#FD3EBFFFFFFFFFFF
(1649441588.167603) can0 286#0338C0000000
(1649441588.187810) can0 2CE#FFFF00000000C03F
(1649441588.197763) can0 211#FFFFFFFFFFFFFFFF
(1649441588.199601) can0 2EB#590000FF
(1649441588.239757) can0 214#2C1C3300143800
(1649441588.247746) can0 217#787B0FC020FD
(1649441588.248746) can0 1E1#0000FFFF00000000
(1649441588.249645) can0 208#1080651E1E002D
(1649441588.250315) can0 2EB#590000FF
(1649441588.251306) can0 211#FFFFFFFFFFFFFFFF
(1649441588.257347) can0 20B#0000
(1649441588.259728) can0 2A8#000000000000
(1649441588.263595) can0 43E#FD02BFFFFFFFFFFF
(1649441588.267696) can0 286#0338C0000000
(1649441588.287775) can0 2CE#FFFF00000000C03F
(1649441588.297742) can0 211#FFFFFFFFFFFFFFFF
(1649441588.299624) can0 2EB#590000FF
(1649441588.339754) can0 214#2C1C3300143800
(1649441588.347782) can0 217#787B0FC020FD
(1649441588.348782) can0 1E1#0000FFFF00000000
(1649441588.349681) can0 208#1080651E1E002D
(1649441588.350350) can0 2EB#590000FF
(1649441588.351341) can0 211#FFFFFFFFFFFFFFFF
(1649441588.352376) can0 402#FD143FFFFFFFFFFF
(1649441588.357335) can0 20B#0000
(1649441588.359747) can0 2A8#000000000000
(1649441588.367758) can0 286#0338C0000000
(1649441588.387838) can0 2CE#FFFF00000000C03F
(1649441588.397814) can0 211#FFFFFFFFFFFFFFFF
(1649441588.399645) can0 2EB#590000FF
(1649441588.439792) can0 214#2C1C3300143800
(1649441588.447910) can0 292#FFFFFF0000FFFF
(1649441588.448910) can0 1E1#0000FFFF00000000
(1649441588.449809) can0 208#1080651E1E002D
(1649441588.450790) can0 414#FD16BFFFFFFFFFFF
(1649441588.451589) can0 217#787B0FC020FD
(1649441588.452262) can0 2EB#590000FF
(1649441588.453254) can0 211#FFFFFFFFFFFFFFFF
(1649441588.457385) can0 20B#0000
(1649441588.459770) can0 2A8#000000000000
(1649441588.465884) can0 3E9#9E01
(1649441588.467817) can0 286#0338C0000000
(1649441588.477708) can0 348#0FFF0FFF00000000
(1649441588.488006) can0 2CE#FFFF00000000C03F
(1649441588.497937) can0 211#FFFFFFFFFFFFFFFF
(1649441588.498869) can0 20E#930547C0FFFF0C
(1649441588.499959) can0 2EB#590000FF
(1649441588.507728) can0 244#00000D0880
(1649441588.539791) can0 214#2C1C3300143800
(1649441588.540422) can0 308#110000
(1649441588.541294) can0 3A3#000000000000
(1649441588.543791) can0 416#FD3EBFFFFFFFFFFF
(1649441588.547888) can0 217#787B0FC020FD
(1649441588.548890) can0 1E1#0000FFFF00000000
(1649441588.549787) can0 208#1080651E1E002D
(1649441588.550455) can0 2EB#590000FF
(1649441588.551447) can0 211#FFFFFFFFFFFFFFFF
(1649441588.557505) can0 20B#0000
(1649441588.559789) can0 2A8#000000000000
(1649441588.567817) can0 286#0338C0000000
(1649441588.569423) can0 2E1#00
(1649441588.579609) can0 2E3#000000
(1649441588.587993) can0 2CE#FFFF00000000C03F
(1649441588.597998) can0 211#FFFFFFFFFFFFFFFF
(1649441588.599684) can0 2EB#590000FF
(1649441588.639832) can0 214#2C1C3300143800
(1649441588.644345) can0 43E#FD02BFFFFFFFFFFF
(1649441588.648002) can0 217#787B0FC020FD
(1649441588.649004) can0 1E1#0000FFFF00000000
(1649441588.649899) can0 208#1080651E1E002D
(1649441588.650570) can0 2EB#590000FF
(1649441588.651562) can0 211#FFFFFFFFFFFFFFFF
(1649441588.657499) can0 20B#0000
(1649441588.659808) can0 2A8#000000000000
(1649441588.667947) can0 286#0338C0000000
(1649441588.688034) can0 2CE#FFFF00000000C03F
(1649441588.697979) can0 211#FFFFFFFFFFFFFFFF
(1649441588.699705) can0 2EB#590000FF
(1649441588.728434) can0 402#FD143FFFFFFFFFFF
(1649441588.739832) can0 214#2C1C3300143800
(1649441588.748022) can0 217#787B0FC020FD
(1649441588.749022) can0 1E1#0000FFFF00000000
(1649441588.749922) can0 208#1080651E1E002D
(1649441588.750591) can0 2EB#590000FF
(1649441588.751582) can0 211#FFFFFFFFFFFFFFFF
(1649441588.757559) can0 20B#0000
(1649441588.759828) can0 2A8#000000000000
(1649441588.761040) can0 2D9#80C226C426C0FF
(1649441588.761648) can0 3E6#0B0D0E
(1649441588.767897) can0 286#0338C0000000
(1649441588.788051) can0 2CE#FFFF00000000C03F
(1649441588.798116) can0 211#FFFFFFFFFFFFFFFF
(1649441588.799722) can0 2EB#590000FF
(1649441588.819947) can0 414#FD16BFFFFFFFFFFF
(1649441588.839878) can0 214#2C1C3300143800
(1649441588.848029) can0 217#787B0FC020FD
(1649441588.849028) can0 1E1#0000FFFF00000000
(1649441588.849928) can0 208#1080651E1E002D
(1649441588.850598) can0 2EB#590000FF
(1649441588.851588) can0 211#FFFFFFFFFFFFFFFF
(1649441588.857710) can0 20B#0000
(1649441588.859850) can0 2A8#000000000000
(1649441588.867937) can0 286#0338C0000000
(1649441588.888157) can0 2CE#FFFF00000000C03F
(1649441588.898085) can0 211#FFFFFFFFFFFFFFFF
(1649441588.899747) can0 2EB#590000FF
(1649441588.903947) can0 416#FD3EBFFFFFFFFFFF
(1649441588.939873) can0 214#2C1C3300143800
(1649441588.948269) can0 292#FFFFFF0000FFFF
(1649441588.949125) can0 142#FF0000000000
(1649441588.949800) can0 2EB#590000FF
(1649441588.950782) can0 1E1#0000FFFF00000000
(1649441588.951621) can0 249#000000C00D08
(1649441588.952631) can0 1E7#7000000000000000
(1649441588.953629) can0 1A5#3F00FFFFFF007800
(1649441588.954524) can0 208#1080651E1E002D
(1649441588.955356) can0 217#787B0FC020FD
(1649441588.956389) can0 211#FFFFFFFFFFFFFFFF
(1649441588.958123) can0 283#0000000000000000
(1649441588.958699) can0 20B#0000
(1649441588.959952) can0 2A8#000000000000
(1649441588.968123) can0 286#0338C0000000
(1649441588.978022) can0 348#0FFF0FFF00000000
(1649441588.978665) can0 2D2#000300
(1649441588.988217) can0 2CE#FFFF00000000C03F
(1649441588.993922) can0 3D9#000A0A0A0A0AFF
(1649441588.998151) can0 211#FFFFFFFFFFFFFFFF
(1649441588.999087) can0 20E#930547C0FFFF0C
(1649441589.000066) can0 2EB#590000FF
(1649441589.004017) can0 3B3#00FFFFFF00FFFFFF
(1649441589.005047) can0 43E#FD02BFFFFFFFFFFF
(1649441589.007968) can0 244#00000D0880
(1649441589.013991) can0 3B0#1D3000001D300000
(1649441589.024024) can0 392#0C00000000000000
(1649441589.033722) can0 2E9#00000000
(1649441589.039913) can0 214#2C1C3300143800
(1649441589.040543) can0 308#110000
(1649441589.041415) can0 3A3#000000000000
(1649441589.044040) can0 293#1000000000FFFFFF
(1649441589.048193) can0 217#787B0FC020FD
(1649441589.049218) can0 1E1#0000FFFF00000000
(1649441589.049865) can0 2EB#590000FF
(1649441589.050729) can0 208#1080651E1E002D
(1649441589.051763) can0 211#FFFFFFFFFFFFFFFF
(1649441589.053889) can0 291#1D0D0530000007
(1649441589.057722) can0 20B#0000
(1649441589.059887) can0 2A8#000000000000
(1649441589.064012) can0 290#011A010F07000000
(1649441589.068169) can0 286#0338C0000000
(1649441589.069522) can0 2E1#00
(1649441589.079714) can0 2E3#000000
(1649441589.088233) can0 2CE#FFFF00000000C03F
(1649441589.089269) can0 402#FD143FFFFFFFFFFF
(1649441589.090233) can0 21B#04000000009E0004
(1649441589.098300) can0 211#FFFFFFFFFFFFFFFF
(1649441589.099608) can0 270#0000
(1649441589.100300) can0 2EB#590000FF
(1649441589.109783) can0 2B0#02000000
(1649441589.120091) can0 2E7#001C000000000000
(1649441589.139912) can0 214#2C1C3300143800
(1649441589.148438) can0 217#787B0FC020FD
(1649441589.149441) can0 1E1#0000FFFF00000000
(1649441589.150110) can0 2EB#590000FF
(1649441589.150973) can0 208#1080651E1E002D
(1649441589.152005) can0 211#FFFFFFFFFFFFFFFF
(1649441589.158015) can0 20B#0000
(1649441589.159903) can0 2A8#000000000000
(1649441589.168319) can0 286#0338C0000000
(1649441589.188470) can0 2CE#FFFF00000000C03F
(1649441589.190010) can0 414#FD16BFFFFFFFFFFF
