
(0.0) can0 244#0000490080
(0.0) can0 244#0100490080
(0.0) can0 244#0200490080
(0.0) can0 244#0300490080
(0.0) can0 244#0400490080
(0.0) can0 244#0500490080
(0.0) can0 244#0600490080
(0.0) can0 244#0700490080
(0.0) can0 244#0800490080
(0.0) can0 244#0900490080
(0.0) can0 244#0A00490080
(0.0) can0 244#0B00490080
(0.0) can0 244#0C00490080
(0.0) can0 244#0D00490080
(0.0) can0 244#0E00490080
(0.0) can0 244#0F00490080
(0.0) can0 244#1000490080
(0.0) can0 244#0000490080

(1648252485.898311) can1 7E2#03410f9900000000
(1648252488.533792) can1 7E8#03414632AAAAAAAA

(1648252489.690024) can1 7E8#03410573AAAAAAAA
(1648252491.164957) can1 7E8#04410C0956AAAAAA
(1648252493.371060) can1 7E8#03410D22AAAAAAAA
(1648252495.089678) can1 7E8#03410782AAAAAAAA
(1648252495.089678) can1 7E8#0341044400000000 
(1648252495.133314) can1 7E8#03410987AAAAAAAA

(1648252479.440505) can1 7E8#03410444

(1648252479.440505) can1 7E8#044110027CAAAAAA

(1648252495.089678) can1 7E8#04414230A3000000

(1648252495.089678) can1 7E8#04411F00470B0000

(1648252482.622519) can1 7EA#046219407BAAAAAA
(1648252485.416232) can1 7EA#0562132A0661AAAA

(1648252484.021492) can1 7E8#0462115C5AAAAAAA
(1648252485.416232) can1 7EA#0462199A01AAAAAA

(0.0) can1 7DF#0209020000000000
(0.0) can1 7E8#1014490201314A34
(0.0) can1 7E0#3000000000000000
(0.0) can1 7E8#2142413648313941
(0.0) can1 7E8#224C323230303630

(0.0) can1 7DF#0209020000000000
(0.0) can1 7E8#1014490201334641
(0.0) can1 7E0#3000000000000000
(0.0) can1 7E8#21445034464A3242
(0.0) can1 7E8#224D313133393133

